!Created with skrf (http://scikit-rf.org).
# MHz S RI R 50.0 
!freq ReS11 ImS11 ReS21 ImS21 ReS12 ImS12 ReS22 ImS22
2000.0 0.02514657708667211 0.0038746999301644287 -0.01480049026826671 0.011989315187224655 -0.01480049026826671 0.011989315187224655 9.665579699279109e-05 9.494664516010817e-05
2010.0 0.025018286647928132 0.0030536060773187026 -0.014582656084696298 0.012279297449693421 -0.014582656084696298 0.012279297449693421 9.652555362406433e-05 9.500628396625026e-05
2020.0 0.024875054136834576 0.0022324270323376616 -0.014359144049673941 0.01256532093765756 -0.014359144049673941 0.01256532093765756 9.639685157639877e-05 9.507023896992032e-05
2030.0 0.024716897934399375 0.0014110634233247673 -0.014130024921333688 0.012847275680261462 -0.014130024921333688 0.012847275680261462 9.627002608915252e-05 9.513811694272953e-05
2040.0 0.02454421357767178 0.0005907247418171619 -0.013895374171964443 0.013125050359863692 -0.013895374171964443 0.013125050359863692 9.614479839314582e-05 9.521074882243638e-05
2050.0 0.02435704906028016 -0.00022846771608287867 -0.01365526711951997 0.013398537422068254 -0.01365526711951997 0.013398537422068254 9.602137388856961e-05 9.52871265482995e-05
2060.0 0.024155694254707632 -0.0010455438427583006 -0.013454432442045515 0.013713138111704094 -0.013454432442045515 0.013713138111704094 9.587268954467598e-05 9.533670713026646e-05
2070.0 0.023940186463745045 -0.0018603397581658592 -0.013246536805491475 0.014024904343216692 -0.013246536805491475 0.014024904343216692 9.572454858321897e-05 9.539163147934036e-05
2080.0 0.023711349022348137 -0.0026720847116666214 -0.013031618646296799 0.01433367832469053 -0.013031618646296799 0.01433367832469053 9.55774835930335e-05 9.545175666375276e-05
2090.0 0.023468810625321593 -0.003480222225312633 -0.012809717149684624 0.014639305203047332 -0.012809717149684624 0.014639305203047332 9.543169910229319e-05 9.551663995045306e-05
2100.0 0.023213043810520084 -0.0042842230289385054 -0.012580872375750925 0.014941632887262189 -0.012580872375750925 0.014941632887262189 9.528733810296709e-05 9.558637852415523e-05
2110.0 0.02294422852584099 -0.005083942002415726 -0.01233489092999936 0.015227859683296398 -0.01233489092999936 0.015227859683296398 9.515240683201985e-05 9.566837848101181e-05
2120.0 0.02266284384091676 -0.005878332389577142 -0.012082552308489383 0.0155100980353754 -0.012082552308489383 0.0155100980353754 9.501969114412402e-05 9.575492887033345e-05
2130.0 0.02236884086654168 -0.006667339541174717 -0.011823918539392702 0.015788209619994397 -0.011823918539392702 0.015788209619994397 9.488928682385117e-05 9.584560074340324e-05
2140.0 0.022062850047041123 -0.007450063172348554 -0.01155905697433048 0.016062056163523422 -0.01155905697433048 0.016062056163523422 9.476140721782005e-05 9.594060575940979e-05
2150.0 0.021745054600806803 -0.008226243059306696 -0.011288035834527824 0.01633150166703287 -0.011288035834527824 0.01633150166703287 9.463601649374315e-05 9.603940218211771e-05
2160.0 0.021415555112703707 -0.008995515380606356 -0.011012623439197967 0.0165989667901829 -0.011012623439197967 0.0165989667901829 9.451117108583523e-05 9.614117839209576e-05
2170.0 0.021074694339454605 -0.009757323554340476 -0.010731102406298444 0.016861822173312606 -0.010731102406298444 0.016861822173312606 9.438921584723509e-05 9.624680511151654e-05
2180.0 0.020722547859830267 -0.010511171127368265 -0.010443547720278865 0.01711993330311817 -0.010443547720278865 0.01711993330311817 9.426963189954936e-05 9.635639745688537e-05
2190.0 0.02036000760921297 -0.011256525071731706 -0.010150039417740784 0.01737316434786157 -0.010150039417740784 0.01737316434786157 9.415270550191748e-05 9.646948659525786e-05
2200.0 0.019986911369197734 -0.011993058526660296 -0.009850657821097335 0.01762138383796891 -0.009850657821097335 0.01762138383796891 9.403901844528871e-05 9.65864420631551e-05
2210.0 0.019603899122954047 -0.012720515903058017 -0.009562932672877484 0.017897098889886966 -0.009562932672877484 0.017897098889886966 9.390590503050149e-05 9.669454074354336e-05
2220.0 0.019210799808085068 -0.013438048832507443 -0.009268254810430294 0.018168178694697713 -0.009268254810430294 0.018168178694697713 9.377497895084534e-05 9.680731328793377e-05
2230.0 0.01880840851415832 -0.014145725246711267 -0.0089666993443529 0.0184344571778418 -0.0089666993443529 0.0184344571778418 9.364696170655409e-05 9.692436576080708e-05
2240.0 0.01839674630916374 -0.014842891478734476 -0.008658342685625897 0.01869577081711094 -0.008658342685625897 0.01869577081711094 9.352118567881893e-05 9.704540311646026e-05
2250.0 0.017976431320238802 -0.015529228936698976 -0.00834326724402066 0.01895195618663094 -0.00834326724402066 0.01895195618663094 9.33983904097162e-05 9.716952675804462e-05
2260.0 0.01754746959205315 -0.01620418540355187 -0.007972419591066324 0.019085226833241074 -0.007972419591066324 0.019085226833241074 9.336010363671077e-05 9.7331178052987e-05
2270.0 0.017110195220402715 -0.01686772882560206 -0.007599532530096306 0.01921126350031342 -0.007599532530096306 0.01921126350031342 9.332621882203133e-05 9.749334110430173e-05
2280.0 0.016665177380147837 -0.01751925861026794 -0.007224743856831587 0.01933003860221328 -0.007224743856831587 0.01933003860221328 9.329723207276296e-05 9.765516384032404e-05
2290.0 0.016212565101906693 -0.018158508264302313 -0.006848195699507918 0.019441524534533062 -0.006848195699507918 0.019441524534533062 9.327211734277933e-05 9.781683019440037e-05
2300.0 0.01575290838860334 -0.018785005622522683 -0.0064700278261842 0.019545698478290394 -0.0064700278261842 0.019545698478290394 9.325138336931183e-05 9.79780038505024e-05
2310.0 0.015286165258556179 -0.01939888774236069 -0.006092964513381786 0.01965086538655527 -0.006092964513381786 0.01965086538655527 9.32286034191979e-05 9.813679897748341e-05
2320.0 0.014812986771382465 -0.019999337048937815 -0.005714248563829182 0.019748772192472758 -0.005714248563829182 0.019748772192472758 9.32098739371169e-05 9.829528926030351e-05
2330.0 0.014333502735339084 -0.02058656812652369 -0.005334018240379793 0.01983939369101564 -0.005334018240379793 0.01983939369101564 9.319454716812428e-05 9.845379652232766e-05
2340.0 0.013848086041246554 -0.021159680882096008 -0.004952411527602046 0.019922709045871113 -0.004952411527602046 0.019922709045871113 9.318293916520695e-05 9.86122447748542e-05
2350.0 0.013357344353144361 -0.02171882240486412 -0.004569572999259253 0.019998697372936275 -0.004569572999259253 0.019998697372936275 9.317543637160494e-05 9.877006223678272e-05
2360.0 0.012861281456273419 -0.02226366622498616 -0.0041804664754126605 0.020042546539120992 -0.0041804664754126605 0.020042546539120992 9.318806581223644e-05 9.892999741838153e-05
2370.0 0.012360355852119103 -0.022794131826305925 -0.0037913519394719886 0.02007885953893033 -0.0037913519394719886 0.02007885953893033 9.320450180494788e-05 9.908826427770908e-05
2380.0 0.011854912966016519 -0.02330962416654908 -0.003402375897557601 0.020107651830398383 -0.003402375897557601 0.020107651830398383 9.322492987804323e-05 9.924520356032185e-05
2390.0 0.011345303191785845 -0.023810243458632616 -0.0030136817962505436 0.020128942123858243 -0.0030136817962505436 0.020128942123858243 9.324904352158579e-05 9.94003761700537e-05
2400.0 0.010831906755515968 -0.024295579904326486 -0.002625413803577293 0.020142751427517366 -0.002625413803577293 0.020142751427517366 9.327616399229135e-05 9.955371444557163e-05
2410.0 0.01031506971356844 -0.024765738318876417 -0.002252801243712331 0.02028495285948015 -0.002252801243712331 0.02028495285948015 9.321662562183735e-05 9.97009438731497e-05
2420.0 0.009795108954360882 -0.025220112361148177 -0.0018757283576556587 0.020420200348300006 -0.0018757283576556587 0.020420200348300006 9.31600538507597e-05 9.985060251014222e-05
2430.0 0.009272043340025725 -0.025658847150798112 -0.0014943233651985297 0.02054837706451952 -0.0014943233651985297 0.02054837706451952 9.310627037736161e-05 0.00010000304244372446
2440.0 0.008746726489021374 -0.026081802952208348 -0.0011087224530902833 0.020669366404955633 -0.0011087224530902833 0.020669366404955633 9.305565628898574e-05 0.0001001576138871841
2450.0 0.008219117884604218 -0.026488679270749965 -0.0007190632375456989 0.020783054932494646 -0.0007190632375456989 0.020783054932494646 9.30084734971647e-05 0.00010031399909381994
2460.0 0.007689569701980146 -0.026879507721055518 -0.00032336342273055506 0.020753371655834747 -0.00032336342273055506 0.020753371655834747 9.30555581078438e-05 0.00010046651175192955
2470.0 0.007158501193165916 -0.02725422221767022 7.094569031087824e-05 0.020716184984585592 7.094569031087824e-05 0.020716184984585592 9.310527144492356e-05 0.00010061744993739033
2480.0 0.006626194070211957 -0.027612505734188865 0.0004637257873628101 0.02067153755069387 0.0004637257873628101 0.02067153755069387 9.315753357519796e-05 0.00010076614664069945
2490.0 0.006092866222647371 -0.027954500709876526 0.0008548328131202206 0.020619472782179123 0.0008548328131202206 0.020619472782179123 9.321206931573215e-05 0.00010091319836576914
2500.0 0.005558833090723857 -0.028279980373307822 0.0012441303689493134 0.020560038532398253 0.0012441303689493134 0.020560038532398253 9.32691455714954e-05 0.00010105822397493992
2510.0 0.005024827013042504 -0.02858885049628358 0.001641136140498319 0.020614619971920246 0.001641136140498319 0.020614619971920246 9.325039730696425e-05 0.00010121612459506751
2520.0 0.004490456978336473 -0.028881150543135062 0.00204066142019559 0.020661481381970777 0.00204066142019559 0.020661481381970777 9.323453121753807e-05 0.00010137535678716051
2530.0 0.00395659489074188 -0.0291568376754987 0.0024425518936077696 0.020700547824019325 0.0024425518936077696 0.020700547824019325 9.322207306930923e-05 0.00010153635350034291
2540.0 0.0034233914713880996 -0.029415745818341277 0.0028466551512065577 0.0207317460657716 0.0028466551512065577 0.0207317460657716 9.321273631620405e-05 0.00010169915552631815
2550.0 0.002890828976994175 -0.029658028079554973 0.00325282008499158 0.020755005427071944 0.00325282008499158 0.020755005427071944 9.320705687653299e-05 0.00010186385433406853
2560.0 0.002359720652379503 -0.029883848822226396 0.0036776934851390905 0.02086562375915718 0.0036776934851390905 0.02086562375915718 9.314266003659829e-05 0.00010204874987393206
2570.0 0.0018300983855930408 -0.03009276739262036 0.004107922709523105 0.020967467101079097 0.004107922709523105 0.020967467101079097 9.308191963455622e-05 0.00010223843928183573
2580.0 0.0013019478337613387 -0.03028517527859669 0.0045433248861596115 0.02106037312879831 0.0045433248861596115 0.02106037312879831 9.302494731220285e-05 0.00010243217579384973
2590.0 0.0007760364998738597 -0.030460877150296228 0.00498371150682771 0.021144182826717678 0.00498371150682771 0.021144182826717678 9.297237172711716e-05 0.00010263067235168177
2600.0 0.00025232349780994197 -0.030619910572981558 0.005428896679060752 0.021218739229963264 0.005428896679060752 0.021218739229963264 9.292414541917039e-05 0.00010283399886803707
2610.0 -0.00026881629386794377 -0.0307626374482627 0.005859688938166846 0.02121512802244457 0.005859688938166846 0.02121512802244457 9.292590316750656e-05 0.00010302222759254442
2620.0 -0.0007873051592661064 -0.030888842437709268 0.006292284351258005 0.021202736032155178 0.006292284351258005 0.021202736032155178 9.293193701636043e-05 0.00010321303768196527
2630.0 -0.0013027397330564675 -0.030998795581502106 0.006726501730441122 0.021181493981337722 0.006726501730441122 0.021181493981337722 9.294266600109793e-05 0.00010340578960898236
2640.0 -0.001814653842145786 -0.031092332656795205 0.007162161204583295 0.021151336363403512 0.007162161204583295 0.021151336363403512 9.295847119783407e-05 0.00010360086236815861
2650.0 -0.0023231536333600594 -0.031169599668972037 0.007599078666238801 0.02111220055182632 0.007599078666238801 0.02111220055182632 9.297878406515402e-05 0.00010379793006900877
2660.0 -0.002827730591112282 -0.03123089760581262 0.007925463562372552 0.02077152427410362 0.007925463562372552 0.02077152427410362 9.31970297084974e-05 0.00010388643374450375
2670.0 -0.0033284062442281415 -0.031276160584251415 0.008241697830132316 0.020426203948342006 0.008241697830132316 0.020426203948342006 9.341424355378215e-05 0.00010396993710441968
2680.0 -0.0038246335570924174 -0.03130543635480876 0.008547725517319847 0.020076501969175653 0.008547725517319847 0.020076501969175653 9.363070040385451e-05 0.00010404707562678529
2690.0 -0.0043166417509659235 -0.03131890513975835 0.008843496074205483 0.019722679274932858 0.008843496074205483 0.019722679274932858 9.384598043626563e-05 0.00010411813638415575
2700.0 -0.00480380330332889 -0.031316926836661936 0.009128968259848966 0.01936500025972948 0.009128968259848966 0.01936500025972948 9.405954334014168e-05 0.00010418313467833286
2710.0 -0.005286211895914175 -0.03129934739854611 0.009551418200208855 0.019301415921482424 0.009551418200208855 0.019301415921482424 9.409087778184113e-05 0.00010437656500235534
2720.0 -0.005763421164527367 -0.03126658588069131 0.009974709092615408 0.01922869171076056 0.009974709092615408 0.01922869171076056 9.412726611947218e-05 0.00010457222830287827
2730.0 -0.006235504408567532 -0.031218565872923782 0.010398644837728628 0.01914677379005687 0.010398644837728628 0.01914677379005687 9.416944695867355e-05 0.00010476989608657744
2740.0 -0.0067019601896688725 -0.031155544364640814 0.010823026674135003 0.01905561114599269 0.010823026674135003 0.01905561114599269 9.421772641775452e-05 0.00010497074066958118
2750.0 -0.0071630331063422 -0.031077599271296327 0.011247655288478972 0.018955158196377483 0.011247655288478972 0.018955158196377483 9.427227859138013e-05 0.00010517340358992467
2760.0 -0.007617861368040247 -0.03098529197348803 0.011633011253215031 0.01878189545087234 0.011633011253215031 0.01878189545087234 9.437150871747688e-05 0.00010534160604809882
2770.0 -0.00806697882471478 -0.030878527469220617 0.012015825279463545 0.018600803080215642 0.012015825279463545 0.018600803080215642 9.447627588347033e-05 0.00010550881486388223
2780.0 -0.008509793388552869 -0.030757352735457665 0.012395937763848959 0.018411915437950725 0.012395937763848959 0.018411915437950725 9.458654950847803e-05 0.00010567588576626179
2790.0 -0.008946132504898627 -0.03062227277578125 0.012773191653405068 0.018215269444244057 0.012773191653405068 0.018215269444244057 9.470290049711117e-05 0.00010584256084144839
2800.0 -0.009376008710642132 -0.03047325443376566 0.013147428759312007 0.0180109070082721 0.013147428759312007 0.0180109070082721 9.482504346067287e-05 0.00010600846061766052
2810.0 -0.009799227975471544 -0.030310595934752913 0.013484945488012023 0.017754705146673645 0.013484945488012023 0.017754705146673645 9.49781014060843e-05 0.00010614286677396604
2820.0 -0.010215539395264355 -0.03013463967386034 0.01381747468034573 0.01749218493845208 0.01381747468034573 0.01749218493845208 9.513604112297752e-05 0.0001062743050482063
2830.0 -0.010625147881210412 -0.029945524131607837 0.014144900169106267 0.017223440587913016 0.014144900169106267 0.017223440587913016 9.529812025658855e-05 0.00010640338657063572
2840.0 -0.011027490614531815 -0.02974333531309585 0.014467104344155397 0.016948572978460332 0.014467104344155397 0.016948572978460332 9.546483840940448e-05 0.00010652923417293977
2850.0 -0.011422946086061397 -0.029528572770691503 0.014783972857308094 0.016667682921598707 0.014783972857308094 0.016667682921598707 9.563563486532469e-05 0.0001066520731497198
2860.0 -0.011810838724149526 -0.029301233743737862 0.015185094500490525 0.016478212523226975 0.015185094500490525 0.016478212523226975 9.576060575139255e-05 0.00010685244318059601
2870.0 -0.012191615587738144 -0.029061741876193693 0.015584293417670132 0.01627945277439323 0.015584293417670132 0.01627945277439323 9.589424692410942e-05 0.00010705241945831158
2880.0 -0.012564751480798157 -0.028810321165098466 0.015981360169888766 0.0160714085568554 0.015981360169888766 0.0160714085568554 9.603631218028489e-05 0.00010725170309138903
2890.0 -0.012930344934678496 -0.028547191248944642 0.016376084855694466 0.015854091030824316 0.016376084855694466 0.015854091030824316 9.618733316677082e-05 0.00010745008069355784
2900.0 -0.013288220938563258 -0.028272505991566152 0.016768257683025013 0.015627515297125024 0.016768257683025013 0.015627515297125024 9.634712100983384e-05 0.0001076469318329101
2910.0 -0.013638446964030897 -0.027986874156890083 0.017062099159107988 0.01530596798354188 0.017062099159107988 0.01530596798354188 9.655437711195166e-05 0.00010775533593916132
2920.0 -0.01398090543190355 -0.027689996517089387 0.017349777213667733 0.014978897312410333 0.017349777213667733 0.014978897312410333 9.676638754688998e-05 0.00010785920490105147
2930.0 -0.014315248121641366 -0.027382608860877424 0.017631187178691513 0.014646422207558763 0.017631187178691513 0.014646422207558763 9.698323702495063e-05 0.00010795839514111769
2940.0 -0.014641656235555314 -0.027064828514369317 0.01790622863558898 0.014308663144609093 0.01790622863558898 0.014308663144609093 9.720476200393405e-05 0.00010805217266663685
2950.0 -0.014960014955059876 -0.026736849254876762 0.018174801049229465 0.013965740546558372 0.018174801049229465 0.013965740546558372 9.74305931535562e-05 0.00010814056158260784
2960.0 -0.015270287833856352 -0.0263991166999492 0.018492019281694364 0.01365856090370297 0.018492019281694364 0.01365856090370297 9.764697518640257e-05 0.00010827257042625732
2970.0 -0.015572617421211849 -0.026051712808945193 0.018804089912325916 0.013344341250786318 0.018804089912325916 0.013344341250786318 9.787033867493668e-05 0.0001083998061443782
2980.0 -0.01586654641168882 -0.02569493079556195 0.019110859122523624 0.013023167461173046 0.019110859122523624 0.013023167461173046 9.810051478268425e-05 0.00010852205050348204
2990.0 -0.01615224648480029 -0.025329439215175224 0.019412173274114687 0.012695129224435709 0.019412173274114687 0.012695129224435709 9.833776799412114e-05 0.0001086384289673722
3000.0 -0.01642984153659873 -0.024954953442971085 0.019707882098442143 0.012360318542736868 0.019707882098442143 0.012360318542736868 9.858204019460609e-05 0.00010874905098868646
3010.0 -0.016699010659167256 -0.024572050902339344 0.01993933106344798 0.011983666091938606 0.01993933106344798 0.011983666091938606 9.88396547051927e-05 0.00010880166055317393
3020.0 -0.016959955354821348 -0.024180940612102922 0.020163581985653326 0.011602683200376367 0.020163581985653326 0.011602683200376367 9.910079955531181e-05 0.00010884700598316115
3030.0 -0.01721253446831532 -0.023781931122559875 0.02038055749235433 0.011217505357313895 0.02038055749235433 0.011217505357313895 9.93656234248007e-05 0.00010888507178666862
3040.0 -0.017456815210783055 -0.0233753558493708 0.020590175776206077 0.010828274374143616 0.020590175776206077 0.010828274374143616 9.963360103024195e-05 0.00010891542386505682
3050.0 -0.01769265790800093 -0.02296144414259593 0.020792362799606404 0.010435127382204281 0.020792362799606404 0.010435127382204281 9.990464317314515e-05 0.00010893781303025003
3060.0 -0.017920069183887513 -0.022540465191842638 0.021002781647634465 0.010045737206325706 0.021002781647634465 0.010045737206325706 0.00010017879285574994 0.00010896555276886669
3070.0 -0.018139323765309943 -0.022112631892790884 0.021205901819150986 0.009652111281898282 0.021205901819150986 0.009652111281898282 0.00010045608024056071 0.00010898528718897262
3080.0 -0.018350167405866032 -0.02167849174381449 0.021401637161559905 0.009254392118251449 0.021401637161559905 0.009254392118251449 0.0001007365618724722 0.0001089963613032472
3090.0 -0.018552757084248778 -0.021237878097345734 0.02158990513098484 0.008852715341385077 0.02158990513098484 0.008852715341385077 0.00010101985823567704 0.00010899875220684294
3100.0 -0.018746901201585175 -0.020791556060939614 0.02177062592825475 0.008447225159644536 0.02177062592825475 0.008447225159644536 0.00010130562008864445 0.00010899195315155248
