!Created with skrf (http://scikit-rf.org).
# MHz S RI R 50.0 
!freq ReS11 ImS11 ReS21 ImS21 ReS12 ImS12 ReS22 ImS22
2000.0 0.016733309664443804 0.0036430754337738835 -0.4965326174397573 0.4905155189697368 -0.4965326174397573 0.4905155189697368 -0.001784533434747992 -0.011602232191382551
2010.0 0.016545310350539248 0.002839569119722535 -0.48589473789392024 0.499066876495716 -0.48589473789392024 0.499066876495716 -0.002068477154502125 -0.01154138909887063
2020.0 0.01634203506878629 0.0020381697069525315 -0.47511331186456146 0.5073905245909004 -0.47511331186456146 0.5073905245909004 -0.002351197211243633 -0.01147225100866505
2030.0 0.01612360084886111 0.0012393901944644063 -0.46419319401259485 0.5154841063964636 -0.46419319401259485 0.5154841063964636 -0.0026315486402795677 -0.01139512702583454
2040.0 0.01589038768090353 0.0004438373364392808 -0.45313919162580757 0.5233454368586694 -0.45313919162580757 0.5233454368586694 -0.0029093917392118153 -0.011309754088420733
2050.0 0.015642677734994934 -0.0003478123284839311 -0.44195627727352543 0.5309723259876087 -0.44195627727352543 0.5309723259876087 -0.0031853344827306026 -0.01121668625357754
2060.0 0.015380676377016058 -0.0011349795567039372 -0.4320759130544285 0.5401462758180791 -0.4320759130544285 0.5401462758180791 -0.003482210104633208 -0.011190353668340768
2070.0 0.015104626070027622 -0.001917054338790936 -0.42200588404290745 0.549136143653549 -0.42200588404290745 0.549136143653549 -0.003780100101997 -0.011155408464388568
2080.0 0.014814944584392926 -0.002693357876690141 -0.4117498000966658 0.5579378905414563 -0.4117498000966658 0.5579378905414563 -0.004079765678182621 -0.011111464929056302
2090.0 0.014511988692111564 -0.0034635807018032114 -0.40131105653049165 0.5665477726832814 -0.40131105653049165 0.5665477726832814 -0.004380052336719272 -0.011058563194129461
2100.0 0.01419580941393187 -0.004226942600310045 -0.39069330956162857 0.5749619719987097 -0.39069330956162857 0.5749619719987097 -0.00468041248492183 -0.010996250164138632
2110.0 0.013866877621740907 -0.0049829565758529384 -0.3795792120626028 0.5826841416586 -0.3795792120626028 0.5826841416586 -0.004972469192454109 -0.010905982767567015
2120.0 0.013525393530471948 -0.005731179989456995 -0.36831295946615517 0.5901911552722973 -0.36831295946615517 0.5901911552722973 -0.005262978452938486 -0.010806630158795965
2130.0 0.01317173854314242 -0.0064708674656884044 -0.3568986615385466 0.5974800618630737 -0.3568986615385466 0.5974800618630737 -0.005551738555497878 -0.010697681204318708
2140.0 0.012806315828330528 -0.007201672839330154 -0.34534052121477565 0.6045479547501088 -0.34534052121477565 0.6045479547501088 -0.005837376929907566 -0.010580471493914037
2150.0 0.012429277806399184 -0.007922985283104398 -0.33364290915995937 0.6113919825894649 -0.33364290915995937 0.6113919825894649 -0.006121051712157342 -0.01045437884279816
2160.0 0.012041176029245107 -0.008634306334087238 -0.32193702282430703 0.6182531234952785 -0.32193702282430703 0.6182531234952785 -0.006407658438779051 -0.010327118066081619
2170.0 0.011642204005020383 -0.009335267711594753 -0.31009075618556814 0.6248897758826641 -0.31009075618556814 0.6248897758826641 -0.006692538181794989 -0.010190361495774932
2180.0 0.011232638312424518 -0.010025211511672329 -0.2981084696551649 0.6312990367777509 -0.2981084696551649 0.6312990367777509 -0.006974217917404397 -0.01004356585611403
2190.0 0.010813106487735976 -0.010703708005682083 -0.28599451489763833 0.6374781426627998 -0.28599451489763833 0.6374781426627998 -0.007253650314388539 -0.009886593129339047
2200.0 0.010383630153632594 -0.011370442874021522 -0.2737533124731512 0.6434244120442933 -0.2737533124731512 0.6434244120442933 -0.007529071990987138 -0.009719035720219543
2210.0 0.009944834925184595 -0.01202489107363877 -0.2602727975592244 0.6463623332107773 -0.2602727975592244 0.6463623332107773 -0.007733621718217205 -0.00945808944442257
2220.0 0.009496954437377733 -0.012666531854069803 -0.24678270610771624 0.6490209265367117 -0.24678270610771624 0.6490209265367117 -0.007928682735197295 -0.009190741298857996
2230.0 0.009040450240976121 -0.013295069738679343 -0.23328877977277218 0.6514009533088142 -0.23328877977277218 0.6514009533088142 -0.008113493714459467 -0.008916596288596298
2240.0 0.008575476928565832 -0.013910086562987917 -0.21979680356414844 0.6535032568181929 -0.21979680356414844 0.6535032568181929 -0.008284587018513416 -0.008636349639998486
2250.0 0.008102679958005602 -0.01451126335655405 -0.20631231657281723 0.6553288533970656 -0.20631231657281723 0.6553288533970656 -0.008442977268724243 -0.008351967179791206
2260.0 0.0076223067959639975 -0.015098044639596771 -0.19423461973379283 0.661625918548837 -0.19423461973379283 0.661625918548837 -0.008714484937186167 -0.008185010163414627
2270.0 0.007134811871697689 -0.015670268997512022 -0.18198995450045535 0.6676992910230416 -0.18198995450045535 0.6676992910230416 -0.00897985183505274 -0.008012823549206788
2280.0 0.006640408503165983 -0.016227542536672804 -0.16958256432884672 0.6735448443564424 -0.16958256432884672 0.6735448443564424 -0.009240493703292451 -0.007835570127679702
2290.0 0.006139546898365082 -0.016769649464690537 -0.15701662548813836 0.6791585737222179 -0.15701662548813836 0.6791585737222179 -0.009497265249932763 -0.007653438469793528
2300.0 0.005632640214161937 -0.017296156308922825 -0.14429660806817718 0.6845364988080896 -0.14429660806817718 0.6845364988080896 -0.009750272624949964 -0.007465838028883677
2310.0 0.005120096488342652 -0.017806756963019373 -0.1305421090683723 0.6850320096042526 -0.1305421090683723 0.6850320096042526 -0.00986469920939816 -0.007173876632597646
2320.0 0.004602208633364123 -0.018301208359366324 -0.11682370559275955 0.6852530865271678 -0.11682370559275955 0.6852530865271678 -0.009971079952385137 -0.006882715221515302
2330.0 0.004079416414909065 -0.018779315908845788 -0.10314681559580327 0.6852013389794248 -0.10314681559580327 0.6852013389794248 -0.010070688284135288 -0.00659259409658392
2340.0 0.003551952495370669 -0.01924075031684295 -0.0895167071448769 0.6848784899931424 -0.0895167071448769 0.6848784899931424 -0.01016313132816227 -0.006303312900041627
2350.0 0.0030204094172461616 -0.019685304420079725 -0.07593881810871703 0.684286350206516 -0.07593881810871703 0.684286350206516 -0.010248893526879268 -0.006014591028140577
2360.0 0.002484942436306864 -0.020112728186064802 -0.06255262136959643 0.6848960433618912 -0.06255262136959643 0.6848960433618912 -0.010373149577276978 -0.005751860018388667
2370.0 0.001946014805208235 -0.02052285612425024 -0.04917189767319413 0.685244512886685 -0.04917189767319413 0.685244512886685 -0.010492263159893232 -0.005487343827777467
2380.0 0.0014039824947737177 -0.020915436765237203 -0.035801713252173496 0.6853321986534819 -0.035801713252173496 0.6853321986534819 -0.010606291710408422 -0.005220934831484588
2390.0 0.0008591603158949177 -0.021290351866277788 -0.022447124211491323 0.6851596665257441 -0.022447124211491323 0.6851596665257441 -0.01071531969583786 -0.004952682098392713
2400.0 0.00031198586524388286 -0.021647387532188693 -0.009113250179534477 0.6847275590153067 -0.009113250179534477 0.6847275590153067 -0.01081929631549105 -0.00468238333653358
2410.0 -0.00023732041749493482 -0.021986431962451477 0.004197781302206031 0.6844952540307779 0.004197781302206031 0.6844952540307779 -0.010933163921372162 -0.004416193481335752
2420.0 -0.0007882072677975223 -0.022307298683018062 0.017495919218484757 0.6840045016393944 0.017495919218484757 0.6840045016393944 -0.011042238920970674 -0.004147071053204836
2430.0 -0.0013405078140982483 -0.02260990933151276 0.03077626397127849 0.6832557311401718 0.03077626397127849 0.6832557311401718 -0.01114655565455611 -0.0038750443401979876
2440.0 -0.001893803215734974 -0.022894155618890265 0.04403365339787444 0.6822494491079275 0.04403365339787444 0.6822494491079275 -0.011245982946791591 -0.0036000028999357853
2450.0 -0.0024478248957401105 -0.02315987013504972 0.05726322965810464 0.680986245571195 0.05726322965810464 0.680986245571195 -0.01134040979944737 -0.0033217762594364006
2460.0 -0.003002076681887085 -0.023406849627688072 0.07023326544355869 0.6772808876663078 0.07023326544355869 0.6772808876663078 -0.01135570212575347 -0.00302006457735836
2470.0 -0.003556276424965698 -0.023635163780815736 0.08308071074146137 0.6733305543385046 0.08308071074146137 0.6733305543385046 -0.01136486802006825 -0.002718808136523701
2480.0 -0.004110104385245761 -0.023844703724987506 0.09580098291930941 0.669138600979608 0.09580098291930941 0.669138600979608 -0.011367955266468997 -0.0024178556410115104
2490.0 -0.00466333084039629 -0.024035378097477095 0.10838967414928335 0.6647084789304779 0.10838967414928335 0.6647084789304779 -0.011364823542472178 -0.0021173153859431566
2500.0 -0.005215476743310619 -0.02420702553007432 0.12084222218756409 0.6600437425015123 0.12084222218756409 0.6600437425015123 -0.0113554598770993 -0.0018170743280158702
2510.0 -0.005766139112272534 -0.024359740959261654 0.13356769642556732 0.6571816533349356 0.13356769642556732 0.6571816533349356 -0.011410892418260052 -0.0015273302129372743
2520.0 -0.006315185078644149 -0.024493500399829508 0.14622726878337064 0.6540746912056618 0.14622726878337064 0.6540746912056618 -0.011460382855707581 -0.0012344159189701664
2530.0 -0.006862143730823809 -0.024608256078172668 0.15881620446150604 0.6507243354622707 0.15881620446150604 0.6507243354622707 -0.01150376192960767 -0.0009382812165846701
2540.0 -0.0074066246935598845 -0.024704003932162634 0.1713298314254548 0.6471321581394559 0.1713298314254548 0.6471321581394559 -0.011540670550380718 -0.0006389554225716704
2550.0 -0.007948378908180042 -0.0247806940819615 0.1837636410498665 0.6432998220192718 0.1837636410498665 0.6432998220192718 -0.011571037414030469 -0.0003364954132866811
2560.0 -0.00848701810014404 -0.02483850131030591 0.19518637328758753 0.6362095491063169 0.19518637328758753 0.6362095491063169 -0.011484300021789285 -2.9660107106972404e-05
2570.0 -0.009022189587184797 -0.024877380703921516 0.20640345513001693 0.6289208660936083 0.20640345513001693 0.6289208660936083 -0.011390571843554955 0.00027434571365456475
2580.0 -0.009553725115779937 -0.024897333599777707 0.21741145973982925 0.6214391581775688 0.21741145973982925 0.6214391581775688 -0.011289890820104837 0.0005755248995261938
2590.0 -0.010081059149844905 -0.0248987135228995 0.22820714038815426 0.6137697734138703 0.22820714038815426 0.6137697734138703 -0.011182127019083726 0.0008735949078408713
2600.0 -0.01060410836806125 -0.02488127715903154 0.2387874638299292 0.6059180832095499 0.2387874638299292 0.6059180832095499 -0.011067345176710817 0.0011684298785512917
2610.0 -0.011122413687816263 -0.024845239542829 0.2508520618385768 0.6019753673096014 0.2508520618385768 0.6019753673096014 -0.01109694942336067 0.001478526381825803
2620.0 -0.01163579862096596 -0.024790707547945198 0.2628529489156265 0.5977921791824231 0.2628529489156265 0.5977921791824231 -0.011118500851459273 0.0017933463575672693
2630.0 -0.012143793513994755 -0.024717910505020826 0.27478541248098054 0.5933695512453768 0.27478541248098054 0.5933695512453768 -0.011131702918683747 0.0021127690728616417
2640.0 -0.012646276341846608 -0.024626895782850367 0.2866445859113599 0.5887085808313777 0.2866445859113599 0.5887085808313777 -0.011136227070840218 0.002436515208547788
2650.0 -0.013142813705292867 -0.02451778980651687 0.2984258160675582 0.5838104197465286 0.2984258160675582 0.5838104197465286 -0.011131645800997125 0.0027645473195468946
2660.0 -0.013633196219985329 -0.024390858020496318 0.3090099404805731 0.5765972580711595 0.3090099404805731 0.5765972580711595 -0.011037202196091962 0.003075121508911482
2670.0 -0.014117192409323008 -0.024246242601873285 0.31942669939213386 0.5691943582509023 0.31942669939213386 0.5691943582509023 -0.010933793974214292 0.003384792795149251
2680.0 -0.014594520561196473 -0.024084090968662594 0.3296726125696091 0.5616055625081062 0.3296726125696091 0.5616055625081062 -0.010821352731657588 0.0036933188510260874
2690.0 -0.015064883725057801 -0.023904756923239266 0.3397445078808583 0.5538346634181649 0.3397445078808583 0.5538346634181649 -0.01069974867366888 0.00400045039835379
2700.0 -0.015528057594874987 -0.02370833490667458 0.3496391582725286 0.5458855292991726 0.3496391582725286 0.5458855292991726 -0.01056878270977762 0.004305851706084656
2710.0 -0.01598384416069693 -0.02349495448235433 0.3587161036752876 0.5368082928041 0.3587161036752876 0.5368082928041 -0.010391144288697175 0.004593122053902453
2720.0 -0.016431866727063114 -0.023265035998558753 0.3675731123110475 0.5275862694098418 0.3675731123110475 0.5275862694098418 -0.010204960669725751 0.004875878620623304
2730.0 -0.016872105310973506 -0.02301871055160453 0.37620808429183755 0.5182244647493459 0.37620808429183755 0.5182244647493459 -0.01001030876572504 0.005153609630661615
2740.0 -0.017304210117452038 -0.022756179135356186 0.384618853749369 0.5087281194285941 0.384618853749369 0.5087281194285941 -0.009807217348678152 0.005426094000093593
2750.0 -0.017728006253204746 -0.022477778337076874 0.3928036046391789 0.4991023060344702 0.3928036046391789 0.4991023060344702 -0.009595811946182005 0.005692880356159137
2760.0 -0.018143399242330147 -0.022183714201389815 0.4044816521323784 0.49389607934721336 0.4044816521323784 0.49389607934721336 -0.00955295953437253 0.006062929687604607
2770.0 -0.018550053073949524 -0.021874220891030305 0.41610387555843736 0.4884229617167931 0.41610387555843736 0.4884229617167931 -0.00949642813576104 0.006438118364698344
2780.0 -0.018947794297611075 -0.02154965430239498 0.4276642279269233 0.4826832273134401 0.4276642279269233 0.4826832273134401 -0.009425690772190208 0.006817956292447242
2790.0 -0.019336456223967853 -0.021210199448572938 0.43915675809468396 0.47667725512099746 0.43915675809468396 0.47667725512099746 -0.009340371708893116 0.007201988691913682
2800.0 -0.019715950068520033 -0.020856272766697402 0.4505754052759023 0.4704055165368558 0.4505754052759023 0.4704055165368558 -0.009239965263272068 0.007589700559303224
2810.0 -0.02008604381724569 -0.020488092654262907 0.4579073717805356 0.45984488007315755 0.4579073717805356 0.45984488007315755 -0.008964670231202254 0.007844482030114274
2820.0 -0.020446608385373082 -0.020105917615962567 0.46500009990874386 0.44917846859700244 0.46500009990874386 0.44917846859700244 -0.008680922573312731 0.008090896828068246
2830.0 -0.02079745971843568 -0.019710118184342144 0.47185234053232283 0.4384114635164669 0.47185234053232283 0.4384114635164669 -0.008388860811240448 0.008328625416356471
2840.0 -0.02113851500892057 -0.01930099060170944 0.4784628857187794 0.42754919567994215 0.4784628857187794 0.42754919567994215 -0.008088885237678783 0.008557193785979042
2850.0 -0.021469615518484173 -0.01887887507175077 0.4848306108918397 0.4165969438921003 0.4848306108918397 0.4165969438921003 -0.0077811792200795085 0.008776320336266488
2860.0 -0.021790665142998464 -0.018443995891515064 0.4911424989259004 0.405715284139654 0.4911424989259004 0.405715284139654 -0.0074718369510734335 0.008992362952135879
2870.0 -0.022101450975242538 -0.017996719136214933 0.49721567019497964 0.39474681983938725 0.49721567019497964 0.39474681983938725 -0.007154925033777848 0.009198493244817921
2880.0 -0.022402126184199556 -0.01753733217090976 0.503049109740139 0.3836968097799039 0.503049109740139 0.3836968097799039 -0.006830814919722507 0.009394387422349043
2890.0 -0.02269222109917662 -0.017066228506455613 0.5086420033645204 0.3725702763266658 0.5086420033645204 0.3725702763266658 -0.0064998071170381195 0.00957964193577586
2900.0 -0.022971848892182536 -0.01658365760364449 0.5139935974489641 0.3613724343741194 0.5139935974489641 0.3613724343741194 -0.0061623322415244675 0.009753965336572362
2910.0 -0.023240856749773033 -0.016090001568756774 0.5234061475837098 0.35301043121577624 0.5234061475837098 0.35301043121577624 -0.005917254963811189 0.010080420324423552
2920.0 -0.023499189930843486 -0.015585570270175634 0.5326856881018132 0.34441830930952355 0.5326856881018132 0.34441830930952355 -0.005656259126838127 0.010402831629979636
2930.0 -0.02374684491175382 -0.015070708123737146 0.5418268857000264 0.3355980877320607 0.5418268857000264 0.3355980877320607 -0.005379214339386208 0.010720476641801743
2940.0 -0.0239836337381348 -0.014545802393779356 0.5508243517330198 0.3265519839216838 0.5508243517330198 0.3265519839216838 -0.005086097171392205 0.011032532392268386
2950.0 -0.024209434800698926 -0.01401108431080313 0.5596727942393046 0.31728221694276193 0.5596727942393046 0.31728221694276193 -0.004776871647110879 0.011338329599687568
2960.0 -0.024424356038411282 -0.013467099117283278 0.5641385519360851 0.3055015103473154 0.5641385519360851 0.3055015103473154 -0.004384189422887845 0.011466004791688076
2970.0 -0.02462842376063834 -0.012913997119821524 0.5683588662545603 0.29366790484231625 0.5683588662545603 0.29366790484231625 -0.003986653444367146 0.011580166712180207
2980.0 -0.024821318260202993 -0.012352124451134407 0.5723334004234462 0.28178644112530987 0.5723334004234462 0.28178644112530987 -0.0035848155109834143 0.01168055869374924
2990.0 -0.02500318270422466 -0.011782009288789927 0.5760618961656768 0.26986219677208834 0.5760618961656768 0.26986219677208834 -0.0031791402294461 0.01176688717546744
3000.0 -0.02517401150711433 -0.01120377402587217 0.5795442072660824 0.2579001849377427 0.5795442072660824 0.2579001849377427 -0.002770276531507387 0.011838989263896897
3010.0 -0.02533372704495823 -0.010617841673181538 0.5851073366158848 0.24688740576940535 0.5851073366158848 0.24688740576940535 -0.0023783699458068855 0.011991058726438042
3020.0 -0.025482289496144464 -0.01002457396510114 0.5904607137830117 0.23575587647771248 0.5904607137830117 0.23575587647771248 -0.0019779498890538025 0.012130067946887486
3030.0 -0.025619622381280516 -0.009424337845195058 0.5956018284241249 0.22450968544211683 0.5956018284241249 0.22450968544211683 -0.001569373520416068 0.012255617862537092
3040.0 -0.025745834857298158 -0.00881740768916067 0.600528247063635 0.2131528925927321 0.600528247063635 0.2131528925927321 -0.0011532399024502796 0.012367241818461367
3050.0 -0.025861009365138406 -0.008204196732397187 0.6052375904056038 0.2016895519713863 0.6052375904056038 0.2016895519713863 -0.0007299941487696434 0.012464507763832707
3060.0 -0.025964919142354003 -0.007585133341892521 0.6054893198839671 0.18880229325251907 0.6054893198839671 0.18880229325251907 -0.00029465569827809263 0.012374572789306237
3070.0 -0.02605769530098619 -0.006960423853690612 0.605471361288878 0.17598222485980844 0.605471361288878 0.17598222485980844 0.00013458789169273251 0.012269299300183303
3080.0 -0.0261393609207086 -0.0063304752758169556 0.6051863681628155 0.163234956715059 0.6051863681628155 0.163234956715059 0.0005571387078973613 0.012148942840819925
3090.0 -0.026209960224203074 -0.005695567130364045 0.6046372178688469 0.15056596646090445 0.6046372178688469 0.15056596646090445 0.0009723859036344523 0.01201383455851316
3100.0 -0.02626941612200128 -0.005056159036507709 0.6038268388159594 0.13798062784006174 0.6038268388159594 0.13798062784006174 0.0013796257183601745 0.011864338088239513
3110.0 -0.0263177825567134 -0.004412483670347251 0.6087097863158937 0.12672330738437482 0.6087097863158937 0.12672330738437482 0.0018117642701818164 0.01193103948678753
3120.0 -0.026355175243076717 -0.00376490048446674 0.6133814996232217 0.11532835049435505 0.6133814996232217 0.11532835049435505 0.002251157138078909 0.011982064789211808
3130.0 -0.026381689709086054 -0.0031137558780263926 0.6178384794397396 0.10379980830526438 0.6178384794397396 0.10379980830526438 0.002697299506909321 0.01201687298138903
3140.0 -0.026397143746417204 -0.0024593866048164877 0.6220772738928614 0.09214176249245791 0.6220772738928614 0.09214176249245791 0.003149528181280361 0.012035142912436004
