!Created with skrf (http://scikit-rf.org).
# MHz S RI R 50.0 
!freq ReS11 ImS11 ReS21 ImS21 ReS12 ImS12 ReS22 ImS22
2000.0 0.016733309664443804 0.0036430754337738835 -0.4907923477582077 0.48484481121968004 -0.4907923477582077 0.48484481121968004 -0.001741212212978623 -0.011333223965467302
2010.0 0.016545310350539248 0.002839569119722535 -0.4819493958017929 0.49501457997742176 -0.4819493958017929 0.49501457997742176 -0.002033405153290416 -0.011353106362419431
2020.0 0.01634203506878629 0.0020381697069525315 -0.47289645243339423 0.50502306099509 -0.47289645243339423 0.50502306099509 -0.0023283762032760367 -0.011364511643076518
2030.0 0.01612360084886111 0.0012393901944644063 -0.4636364977281768 0.5148658980935222 -0.4636364977281768 0.5148658980935222 -0.002625000801310041 -0.011367571872838359
2040.0 0.01589038768090353 0.0004438373364392808 -0.4541725178695405 0.5245388595076873 -0.4541725178695405 0.5245388595076873 -0.002923132457904775 -0.011361850403846222
2050.0 0.015642677734994934 -0.0003478123284839311 -0.44450771870623923 0.5340376626777147 -0.44450771870623923 0.5340376626777147 -0.003223376863101849 -0.011347727304424463
2060.0 0.015380676377016058 -0.0011349795567039372 -0.43380881620126716 0.5423126108366211 -0.43380881620126716 0.5423126108366211 -0.0035110016723265765 -0.011281098480182949
2070.0 0.015104626070027622 -0.001917054338790936 -0.42295677422473826 0.550373491726723 -0.42295677422473826 0.550373491726723 -0.003797605572859526 -0.011206188397828373
2080.0 0.014814944584392926 -0.002693357876690141 -0.41195604338244 0.5582173586645159 -0.41195604338244 0.5582173586645159 -0.004083953971679374 -0.011122699268315207
2090.0 0.014511988692111564 -0.0034635807018032114 -0.40081082999312534 0.5658415817474219 -0.40081082999312534 0.5658415817474219 -0.004368890698763823 -0.011030762661208216
2100.0 0.01419580941393187 -0.004226942600310045 -0.38952557219539474 0.5732434767943261 -0.38952557219539474 0.5732434767943261 -0.004651878984233164 -0.010930018460766022
2110.0 0.013866877621740907 -0.0049829565758529384 -0.37899694167212644 0.5817903105110925 -0.37899694167212644 0.5817903105110925 -0.004956918903250572 -0.01087224254983254
2120.0 0.013525393530471948 -0.005731179989456995 -0.36828321127209646 0.5901434862436424 -0.36828321127209646 0.5901434862436424 -0.005262112165305823 -0.010804868399187286
2130.0 0.01317173854314242 -0.0064708674656884044 -0.35738789071240445 0.5982990749571596 -0.35738789071240445 0.5982990749571596 -0.0055672437438400195 -0.01072730396182728
2140.0 0.012806315828330528 -0.007201672839330154 -0.3463146083697563 0.6062531771642654 -0.3463146083697563 0.6062531771642654 -0.0058709187757822094 -0.010640808362020365
2150.0 0.012429277806399184 -0.007922985283104398 -0.3350671867622696 0.6140019343766218 -0.3350671867622696 0.6140019343766218 -0.006174278779394922 -0.010544681681981872
2160.0 0.012041176029245107 -0.008634306334087238 -0.323050288292686 0.6203910567067699 -0.323050288292686 0.6203910567067699 -0.0064527435154374466 -0.010399357170478074
2170.0 0.011642204005020383 -0.009335267711594753 -0.31091210779773454 0.6265449501005644 -0.31091210779773454 0.6265449501005644 -0.006728569252272694 -0.010244946796640673
2180.0 0.011232638312424518 -0.010025211511672329 -0.29865729741672664 0.6324612796272466 -0.29865729741672664 0.6324612796272466 -0.007000289643046715 -0.010080949531471943
2190.0 0.010813106487735976 -0.010703708005682083 -0.28629048537656254 0.638137857102621 -0.28629048537656254 0.638137857102621 -0.0072688785057208345 -0.009907273708973598
2200.0 0.010383630153632594 -0.011370442874021522 -0.273816353760415 0.6435725830484201 -0.273816353760415 0.6435725830484201 -0.007532586117570548 -0.00972355859462532
2210.0 0.009944834925184595 -0.01202489107363877 -0.26014970471197124 0.646056644023516 -0.26014970471197124 0.646056644023516 -0.007726213838542721 -0.009449050818475446
2220.0 0.009496954437377733 -0.012666531854069803 -0.24649129312499346 0.6482545311638973 -0.24649129312499346 0.6482545311638973 -0.007909732614852987 -0.009168812338465856
2230.0 0.009040450240976121 -0.013295069738679343 -0.2328470488660021 0.6501675295065368 -0.2328470488660021 0.6501675295065368 -0.008082418760183365 -0.008882482873874751
2240.0 0.008575476928565832 -0.013910086562987917 -0.21922293123912318 0.6517970107430886 -0.21922293123912318 0.6517970107430886 -0.008240861168957602 -0.008590789338795566
2250.0 0.008102679958005602 -0.01451126335655405 -0.2056246402869388 0.6531445237389087 -0.2056246402869388 0.6531445237389087 -0.008386121603629967 -0.008295717209757776
2260.0 0.0076223067959639975 -0.015098044639596771 -0.1938505658911175 0.6603177069808861 -0.1938505658911175 0.6603177069808861 -0.00867966220521142 -0.008152279188163709
2270.0 0.007134811871697689 -0.015670268997512022 -0.1818749956840537 0.6672775209290881 -0.1818749956840537 0.6672775209290881 -0.008968384396116361 -0.008002577422910653
2280.0 0.006640408503165983 -0.016227542536672804 -0.16970190118441777 0.6740188242383347 -0.16970190118441777 0.6740188242383347 -0.009253644316418895 -0.007846742729043387
2290.0 0.006139546898365082 -0.016769649464690537 -0.15733521323727573 0.6805365908629941 -0.15733521323727573 0.6805365908629941 -0.009536250587187885 -0.007684933943322704
2300.0 0.005632640214161937 -0.017296156308922825 -0.14477918328563497 0.6868258135341434 -0.14477918328563497 0.6868258135341434 -0.009816267884929711 -0.007516527940390911
2310.0 0.005120096488342652 -0.017806756963019373 -0.13076208017791777 0.686186328714785 -0.13076208017791777 0.686186328714785 -0.009898309708504766 -0.007198411103626224
2320.0 0.004602208633364123 -0.018301208359366324 -0.1168255507467162 0.6852639096511004 -0.1168255507467162 0.6852639096511004 -0.00997139808712805 -0.006882935798089248
2330.0 0.004079416414909065 -0.018779315908845788 -0.10297522516743543 0.6840614686829495 -0.10297522516743543 0.6840614686829495 -0.010036877426532084 -0.006570345617457033
2340.0 0.003551952495370669 -0.01924075031684295 -0.0892165502972514 0.6825820363464488 -0.0892165502972514 0.6825820363464488 -0.010094420479035363 -0.006260443228737722
2350.0 0.0030204094172461616 -0.019685304420079725 -0.0755551085064402 0.6808287345914652 -0.0755551085064402 0.6808287345914652 -0.010144574352461256 -0.005952954575286687
2360.0 0.002484942436306864 -0.020112728186064802 -0.06230815192256852 0.6822193184968696 -0.06230815192256852 0.6822193184968696 -0.010291446787082489 -0.0057062086803835975
2370.0 0.001946014805208235 -0.02052285612425024 -0.04903610907610095 0.6833522045668169 -0.04903610907610095 0.6833522045668169 -0.01043384269324138 -0.005456527445212592
2380.0 0.0014039824947737177 -0.020915436765237203 -0.035743974567431495 0.6842269392631595 -0.035743974567431495 0.6842269392631595 -0.010571786728624107 -0.005203786152520665
2390.0 0.0008591603158949177 -0.021290351866277788 -0.022436755967332578 0.6848431937943897 -0.022436755967332578 0.6848431937943897 -0.010705330890445173 -0.0049480155457977525
2400.0 0.00031198586524388286 -0.021647387532188693 -0.009119547564527425 0.6852007154599836 -0.009119547564527425 0.6852007154599836 -0.010834392306384229 -0.004688995009411581
2410.0 -0.00023732041749493482 -0.021986431962451477 0.004198944395647433 0.6846849094423675 0.004198944395647433 0.6846849094423675 -0.010939278760358221 -0.0044186964620006874
2420.0 -0.0007882072677975223 -0.022307298683018062 0.017493521262455573 0.6839107533373926 0.017493521262455573 0.6839107533373926 -0.011039184863888402 -0.0041459069426951845
2430.0 -0.0013405078140982483 -0.02260990933151276 0.030759294550185105 0.6828789974915715 0.030759294550185105 0.6828789974915715 -0.011134156818611763 -0.003870662027589624
2440.0 -0.001893803215734974 -0.022894155618890265 0.0439911215935816 0.6815904690367949 0.0439911215935816 0.6815904690367949 -0.01122407551755018 -0.003592858736922013
2450.0 -0.0024478248957401105 -0.02315987013504972 0.05718417220623987 0.6800460778990036 0.05718417220623987 0.6800460778990036 -0.011308842411015896 -0.0033123345923806945
2460.0 -0.003002076681887085 -0.023406849627688072 0.07019215522984086 0.6768844492853906 0.07019215522984086 0.6768844492853906 -0.011342295130414319 -0.0030164130603420043
2470.0 -0.003556276424965698 -0.023635163780815736 0.08309860973945621 0.6734756173998871 0.08309860973945621 0.6734756173998871 -0.01136980855929005 -0.002720022841493077
2480.0 -0.004110104385245761 -0.023844703724987506 0.09589887220919215 0.6698223257232068 0.09589887220919215 0.6698223257232068 -0.011391403116241317 -0.002423003751502615
2490.0 -0.00466333084039629 -0.024035378097477095 0.10858843828867593 0.6659274161567268 0.10858843828867593 0.6659274161567268 -0.011406910304363116 -0.0021254550336524815
2500.0 -0.005215476743310619 -0.02420702553007432 0.12116263314442748 0.661793836494143 0.12116263314442748 0.661793836494143 -0.011416288300578946 -0.0018272539812395382
2510.0 -0.005766139112272534 -0.024359740959261654 0.13400818738451128 0.6593489631293307 0.13400818738451128 0.6593489631293307 -0.011486940819891243 -0.0015380814090325229
2520.0 -0.006315185078644149 -0.024493500399829508 0.14680410972854588 0.6566549012186736 0.14680410972854588 0.6566549012186736 -0.011551770122457306 -0.0012449647584908054
2530.0 -0.006862143730823809 -0.024608256078172668 0.15954553618138004 0.6537126570907579 0.15954553618138004 0.6537126570907579 -0.011610582565119829 -0.0009478393116290817
2540.0 -0.0074066246935598845 -0.024704003932162634 0.17222765339062746 0.6505233332845736 0.17222765339062746 0.6505233332845736 -0.011662991730911012 -0.0006467204305458261
2550.0 -0.007948378908180042 -0.0247806940819615 0.18484580006126725 0.6470881269062092 0.18484580006126725 0.6470881269062092 -0.011708900444720734 -0.0003416514742625254
2560.0 -0.00848701810014404 -0.02483850131030591 0.19646440928349568 0.6403753045891566 0.19646440928349568 0.6403753045891566 -0.01163649940488212 -3.1363635872311136e-05
2570.0 -0.009022189587184797 -0.024877380703921516 0.20789235084123622 0.6334576001305131 0.20789235084123622 0.6334576001305131 -0.011556944722695195 0.0002768700787376428
2580.0 -0.009553725115779937 -0.024897333599777707 0.21912601357074332 0.6263399618914505 0.21912601357074332 0.6263399618914505 -0.011470245473635253 0.0005830546581387828
2590.0 -0.010081059149844905 -0.0248987135228995 0.23016195534208092 0.6190273053618055 0.23016195534208092 0.6190273053618055 -0.011376239521530935 0.0008869048487046291
2600.0 -0.01060410836806125 -0.02488127715903154 0.2409969370292879 0.6115245742052908 0.2409969370292879 0.6115245742052908 -0.011274961624425317 0.0011882934730320517
2610.0 -0.011122413687816263 -0.024845239542829 0.2530384497949871 0.6072220919468035 0.2530384497949871 0.6072220919468035 -0.01129298178568768 0.0015026611504080037
2620.0 -0.01163579862096596 -0.024790707547945198 0.265003201581448 0.6026823819828753 0.265003201581448 0.6026823819828753 -0.011302796125639149 0.00182116431073066
2630.0 -0.012143793513994755 -0.024717910505020826 0.27688660287295325 0.5979068459609478 0.27688660287295325 0.5979068459609478 -0.011304129660096088 0.002143668680424423
2640.0 -0.012646276341846608 -0.024626895782850367 0.28868391808114696 0.592896946516716 0.28868391808114696 0.592896946516716 -0.011296676021774102 0.002469879736666436
2650.0 -0.013142813705292867 -0.02451778980651687 0.3003906358320774 0.587654196624031 0.3003906358320774 0.587654196624031 -0.011280029796368041 0.0027997493001056238
2660.0 -0.013633196219985329 -0.024390858020496318 0.3111155086936948 0.5805261441661493 0.3111155086936948 0.5805261441661493 -0.011189495242364523 0.003115804106717073
2670.0 -0.014117192409323008 -0.024246242601873285 0.32167701273897614 0.5732042474172016 0.32167701273897614 0.5732042474172016 -0.011089804438775455 0.0034312375675599025
2680.0 -0.014594520561196473 -0.024084090968662594 0.33207155854225984 0.5656922271293982 0.33207155854225984 0.5656922271293982 -0.010980874988840511 0.0037458045044041753
2690.0 -0.015064883725057801 -0.023904756923239266 0.3422958631450909 0.557993756357857 0.3422958631450909 0.557993756357857 -0.010862561935599348 0.004059252234539321
2700.0 -0.015528057594874987 -0.02370833490667458 0.3523465845421521 0.5501125867876245 0.3523465845421521 0.5501125867876245 -0.010734649586960271 0.004371239811490745
2710.0 -0.01598384416069693 -0.02349495448235433 0.3610689948614379 0.5403293265348145 0.3610689948614379 0.5403293265348145 -0.01052922270808489 0.004652257947399534
2720.0 -0.016431866727063114 -0.023265035998558753 0.3695453856850624 0.5304171194279801 0.3695453856850624 0.5304171194279801 -0.010315843241205184 0.004927267628257667
2730.0 -0.016872105310973506 -0.02301871055160453 0.3777741490697724 0.5203817099420849 0.3777741490697724 0.5203817099420849 -0.010094657584639403 0.005195771152478401
2740.0 -0.017304210117452038 -0.022756179135356186 0.38575362896630117 0.5102290652518588 0.38575362896630117 0.5102290652518588 -0.009865763878200198 0.005457568460442973
2750.0 -0.017728006253204746 -0.022477778337076874 0.3934825385024555 0.49996496985120764 0.3934825385024555 0.49996496985120764 -0.009629357992881608 0.005712230878493361
2760.0 -0.018143399242330147 -0.022183714201389815 0.40535242047009357 0.49495933911622875 0.40535242047009357 0.49495933911622875 -0.009594566065383071 0.00608863132015342
2770.0 -0.018550053073949524 -0.021874220891030305 0.41717439545075247 0.4896795385647727 0.41717439545075247 0.4896795385647727 -0.009545869550869331 0.006470772758254084
2780.0 -0.018947794297611075 -0.02154965430239498 0.42894220273187555 0.4841256135664822 0.42894220273187555 0.4841256135664822 -0.009482706444682656 0.006858166373264372
2790.0 -0.019336456223967853 -0.021210199448572938 0.44064967188564413 0.4782977198750745 0.44064967188564413 0.4782977198750745 -0.009404665911646671 0.00725035720059022
2800.0 -0.019715950068520033 -0.020856272766697402 0.45229051684377714 0.4721961112598645 0.45229051684377714 0.4721961112598645 -0.009311205595218168 0.00764682804735929
2810.0 -0.02008604381724569 -0.020488092654262907 0.4588609742187205 0.4608025174160977 0.4588609742187205 0.4608025174160977 -0.009002464304523877 0.007876771734451959
2820.0 -0.020446608385373082 -0.020105917615962567 0.4651610786716825 0.44933397005652387 0.4651610786716825 0.44933397005652387 -0.008687003375150092 0.008096430535911426
2830.0 -0.02079745971843568 -0.019710118184342144 0.47119050299314547 0.4377965313878406 0.47119050299314547 0.4377965313878406 -0.00836506393205962 0.008305558056764707
2840.0 -0.02113851500892057 -0.01930099060170944 0.4769489831324451 0.4261963889054886 0.4769489831324451 0.4261963889054886 -0.008037146379833403 0.008503759706203413
2850.0 -0.021469615518484173 -0.01887887507175077 0.4824363601850125 0.41453965314979146 0.4824363601850125 0.41453965314979146 -0.007703531783654883 0.008690838961855725
2860.0 -0.021790665142998464 -0.018443995891515064 0.4901492588731411 0.40489480399162087 0.4901492588731411 0.40489480399162087 -0.007441242786559189 0.008956433174878929
2870.0 -0.022101450975242538 -0.017996719136214933 0.4976695042636609 0.39510712536893017 0.4976695042636609 0.39510712536893017 -0.007168174957199069 0.009215110141364894
2880.0 -0.022402126184199556 -0.01753733217090976 0.5049944164715371 0.38518057741298123 0.5049944164715371 0.38518057741298123 -0.006884521921283357 0.009466409787046558
2890.0 -0.02269222109917662 -0.017066228506455613 0.5121214838441733 0.3751189274313771 0.5121214838441733 0.3751189274313771 -0.006590410900259324 0.009709780803129474
2900.0 -0.022971848892182536 -0.01658365760364449 0.5190482238443457 0.36492618028538465 0.5190482238443457 0.36492618028538465 -0.006286105735598484 0.009944773644929716
2910.0 -0.023240856749773033 -0.016090001568756774 0.5268663819178266 0.35534418067598655 0.5268663819178266 0.35534418067598655 -0.00599707800919215 0.01021281749709927
2920.0 -0.023499189930843486 -0.015585570270175634 0.5345072871103037 0.3455960996364608 0.5345072871103037 0.3455960996364608 -0.005695695232183557 0.010473416283061312
2930.0 -0.02374684491175382 -0.015070708123737146 0.5419675083854693 0.3356851869616705 0.5419675083854693 0.3356851869616705 -0.005382058797056003 0.010725990114056973
2940.0 -0.0239836337381348 -0.014545802393779356 0.5492435892114819 0.32561484100871496 0.5492435892114819 0.32561484100871496 -0.0050563736318565465 0.01096987379794451
2950.0 -0.024209434800698926 -0.01401108431080313 0.5563321988178389 0.31538841125461503 0.5563321988178389 0.31538841125461503 -0.00471882689614376 0.011204570483167309
2960.0 -0.024424356038411282 -0.013467099117283278 0.5617465385899613 0.3042061482638275 0.5617465385899613 0.3042061482638275 -0.004346243068566927 0.011369822760920764
2970.0 -0.02462842376063834 -0.012913997119821524 0.5669366879630273 0.29293307312949535 0.5669366879630273 0.29293307312949535 -0.003966227341527278 0.011522786004695688
2980.0 -0.024821318260202993 -0.012352124451134407 0.5719011881616406 0.2815736428595179 0.5719011881616406 0.2815736428595179 -0.0035792522463188137 0.011663074585580123
2990.0 -0.02500318270422466 -0.011782009288789927 0.5766386446831683 0.27013238062377387 0.5766386446831683 0.27013238062377387 -0.003185709613831051 0.011790260456592552
3000.0 -0.02517401150711433 -0.01120377402587217 0.5811477614607055 0.2586137748902708 0.5811477614607055 0.2586137748902708 -0.0027861821742340897 0.01190404089469084
3010.0 -0.02533372704495823 -0.010617841673181538 0.587461938565117 0.2478809355552866 0.587461938565117 0.2478809355552866 -0.0023983571042788783 0.012086955820238426
3020.0 -0.025482289496144464 -0.01002457396510114 0.5935772947166537 0.2370002476144762 0.5935772947166537 0.2370002476144762 -0.001999943528894666 0.012257397765127442
3030.0 -0.025619622381280516 -0.009424337845195058 0.5994904687976365 0.22597549260621597 0.5994904687976365 0.22597549260621597 -0.0015912431135764343 0.012414862282084558
3040.0 -0.025745834857298158 -0.00881740768916067 0.6051981690017777 0.21481044554576056 0.6051981690017777 0.21481044554576056 -0.0011728069693902384 0.012558772539244511
3050.0 -0.025861009365138406 -0.008204196732397187 0.6106971504729397 0.20350889736796668 0.6106971504729397 0.20350889736796668 -0.0007450356491546936 0.012688582534198663
3060.0 -0.025964919142354003 -0.007585133341892521 0.6093127561625488 0.18999450839784887 0.6093127561625488 0.18999450839784887 -0.0002996556381961259 0.012530080809927324
3070.0 -0.02605769530098619 -0.006960423853690612 0.6076376065148804 0.1766118510962209 0.6076376065148804 0.1766118510962209 0.00013483583038739777 0.012356533301326895
3080.0 -0.0261393609207086 -0.0063304752758169556 0.6056762502236129 0.16336709101483268 0.6056762502236129 0.16336709101483268 0.000557879090372643 0.01216845732509112
3090.0 -0.026209960224203074 -0.005695567130364045 0.6034334734215087 0.15026621159843623 0.6034334734215087 0.15026621159843623 0.0009689157753361349 0.011966444367691953
3100.0 -0.02626941612200128 -0.005056159036507709 0.6009141249778689 0.1373150428440615 0.6009141249778689 0.1373150428440615 0.0013673102868990226 0.011751115215853676
3110.0 -0.0263177825567134 -0.004412483670347251 0.606941020667202 0.12635507963770645 0.606941020667202 0.12635507963770645 0.0018018307649025737 0.011862383016239484
3120.0 -0.026355175243076717 -0.00376490048446674 0.612766284933624 0.11521267746640296 0.612766284933624 0.11521267746640296 0.002246844129674111 0.011958241589876406
3130.0 -0.026381689709086054 -0.0031137558780263926 0.6183851077700921 0.10389164446923445 0.6183851077700921 0.10389164446923445 0.00270189742562263 0.01203796905180351
3140.0 -0.026397143746417204 -0.0024593866048164877 0.6237927211029897 0.09239585364164082 0.6237927211029897 0.09239585364164082 0.003166370196838641 0.012101058637975266
