# GHZ S RI R 50
0.5 5.29904407607636E-06 -3.40111290682917E-06 0.107629254744999 -0.767589165780925 0.107964813866871 -0.767103165688488 5.42531920506065E-06 -1.16966775316754E-06
0.55 4.78593911137616E-06 -4.30807634865029E-06 0.00135107712716584 -0.777088171127173 0.00242705623227151 -0.777397198867572 5.44484949435703E-06 -1.69346417239929E-06
0.6 4.0722703792602E-06 -5.141500685228E-06 -0.1080871003072 -0.750259821059162 -0.10904338492206 -0.750128962582288 5.31392160275253E-06 -2.33019968672215E-06
0.65 3.26342507439653E-06 -5.88855899955159E-06 -0.218567086251795 -0.758802338196128 -0.217795182383067 -0.758661952502798 5.07443867810027E-06 -2.93545480714659E-06
0.7 2.3856510005028E-06 -6.45324033287154E-06 -0.320680035752386 -0.705580762968005 -0.320834936183003 -0.705773246400973 4.80083078018794E-06 -3.51027605170875E-06
0.75 1.3757186692053E-06 -6.72375110308227E-06 -0.423348537936239 -0.672951274471499 -0.42294510211195 -0.672873729834173 4.41609398054435E-06 -4.01107735841632E-06
0.8 2.25284220486033E-07 -6.8057754896999E-06 -0.520116145993115 -0.606382092075168 -0.52053056528932 -0.606093803794285 3.86513051877941E-06 -4.55900026102215E-06
0.85 -8.17867987391608E-07 -6.7526717704328E-06 -0.599201072170873 -0.530476000308776 -0.598306013780398 -0.53078213561656 3.32887487806316E-06 -5.02870301149313E-06
0.9 -1.71490365000486E-06 -6.57091704339661E-06 -0.667443237045361 -0.439843212647971 -0.66790797856678 -0.440414583839814 2.77758614717888E-06 -5.41236500882932E-06
0.95 -2.47811228321075E-06 -6.09726863708661E-06 -0.721415946824921 -0.339501212220855 -0.721199964138456 -0.338639263564136 2.17535744377792E-06 -5.61572891909857E-06
1 -3.10991219220093E-06 -5.51076598849924E-06 -0.7536493122435 -0.235012237732799 -0.753523601991345 -0.236241010928269 1.51745115242633E-06 -5.71900893555868E-06
1.05 -3.56241810575345E-06 -4.79189295047375E-06 -0.772328498079545 -0.122431141868194 -0.77272966116815 -0.121156425606959 7.59757952113699E-07 -5.63166710594652E-06
1.1 -3.84895191562587E-06 -3.98857722063896E-06 -0.768850184347044 -0.0158211858066661 -0.768288620020558 -0.0162342871513762 8.44851182161687E-08 -5.40731626641165E-06
1.15 -3.97616042556132E-06 -3.2069131004441E-06 -0.768728380641705 0.0975010177290016 -0.768754898443294 0.0977567851608855 -5.34035325423329E-07 -5.05950458288161E-06
1.2 -3.99248045007111E-06 -2.53790523262789E-06 -0.723010317596888 0.194444071151139 -0.722719919736053 0.194135321497597 -1.11983086722951E-06 -4.70439555736973E-06
1.25 -3.82619721940728E-06 -1.98605081631866E-06 -0.699142389520664 0.300959572027901 -0.699717794523716 0.300220290776207 -1.63591982254633E-06 -4.20632368283755E-06
1.3 -3.54595665988743E-06 -1.54098366610422E-06 -0.647068926070985 0.393068989315837 -0.646421106609291 0.393994987670337 -1.99532805728782E-06 -3.64184033941632E-06
1.35 -3.22565143014554E-06 -1.23978446159E-06 -0.582699931846902 0.47830402042045 -0.583275339278027 0.476803318461483 -2.21447459091316E-06 -3.05499827957398E-06
1.4 -2.85693767016363E-06 -1.09772670924962E-06 -0.505969255048034 0.553083221305748 -0.506296174015086 0.554105622520087 -2.30953802657588E-06 -2.46042047154546E-06
1.45 -2.46695413820363E-06 -1.07360022587554E-06 -0.422753406315987 0.612621278324826 -0.421207526029864 0.612563725241054 -2.20458923811217E-06 -1.84687805964552E-06
1.5 -2.08129809974448E-06 -1.14811513847697E-06 -0.331588932812845 0.673353722797373 -0.333403148309065 0.672964586188316 -1.87183892902141E-06 -1.29140325661662E-06
1.55 -1.88487797806648E-06 -1.33056283015873E-06 -0.231458935358833 0.69887849023357 -0.230143754312679 0.699214900958268 -1.53654303551837E-06 -8.79103434642364E-07
1.6 -1.69151255768321E-06 -1.64895887159141E-06 -0.132145731539079 0.735173292416644 -0.134016746630632 0.734783576893916 -9.67208939578207E-07 -5.79657854945484E-07
1.65 -1.72823968389804E-06 -1.94433151622865E-06 -0.0264393072896677 0.741832617636577 -0.024781010822838 0.742413795365324 -4.30585603335736E-07 -3.94678720987084E-07
1.7 -1.88561336911892E-06 -2.30993400637335E-06 0.076441297897539 0.738294458306279 0.0755321402582406 0.737600659179127 1.68758104397982E-07 -4.20318412872908E-07
1.75 -2.17853942429326E-06 -2.66108323391058E-06 0.180982576293618 0.720731267207087 0.181829235314493 0.7215754635211 7.56745677225843E-07 -6.26185481147559E-07
1.8 -2.49723245057404E-06 -2.91135660804375E-06 0.275492552764072 0.681485555334204 0.276195931681688 0.679905318328178 1.22937584977093E-06 -9.52840529784496E-07
1.85 -2.95147784680827E-06 -3.02865148090697E-06 0.365504842701277 0.625701704160225 0.364453561523175 0.626859247897218 1.56165946838611E-06 -1.4826897830632E-06
1.9 -3.44325647098789E-06 -3.08705850103298E-06 0.441712987773311 0.561405674022521 0.443776071004559 0.559781276323484 1.7961502191632E-06 -2.09179156437729E-06
1.95 -4.01578668957902E-06 -3.04384013456686E-06 0.513700851225995 0.49189463855311 0.512612788135136 0.49185432522345 1.85506635617166E-06 -2.7670502561392E-06
2 -4.50513286643136E-06 -2.80229245811354E-06 0.576452133088517 0.409632320582797 0.577069656076186 0.409665569836502 1.71078828853836E-06 -3.42792639597177E-06
2.05 -5.0149851399381E-06 -2.37859407482655E-06 0.621124337193223 0.328293702838309 0.620784395952301 0.327207824289472 1.4044413466571E-06 -4.06101323930371E-06
2.1 -5.39183062790367E-06 -1.77301368528278E-06 0.668036653845678 0.230955003966653 0.667547710042426 0.230667728673487 8.5835692168235E-07 -4.54068619538941E-06
2.15 -5.81862613889224E-06 -1.08423511186458E-06 0.691973737171263 0.142932955772746 0.691164755014852 0.143194964396772 1.58052507730817E-07 -5.03592964279685E-06
2.2 -6.02197590702587E-06 -3.58262721755977E-07 0.712473418913388 0.0390417811569944 0.712299396706554 0.0389278555999296 -6.59532636948316E-07 -5.36197657960196E-06
2.25 -6.17113301144935E-06 2.55505964313947E-07 0.694401307137381 -0.0590216655272636 0.692988181659655 -0.058980955124174 -1.35211544484929E-06 -5.54801637373215E-06
2.3 -5.93850902257461E-06 9.08222091891627E-07 0.696340519260111 -0.156974967022366 0.696539210078199 -0.153854540285089 -2.12426190776938E-06 -5.38598992589105E-06
2.35 -5.58471521567573E-06 1.5253000376975E-06 0.653187603879407 -0.251669197365261 0.652767854592486 -0.253182076433489 -2.84180558504624E-06 -4.99521443433612E-06
2.4 -5.08008139021414E-06 2.15803332763885E-06 0.612268902909913 -0.336348561001765 0.611474598594892 -0.333873349698223 -3.46659099476705E-06 -4.47082404540819E-06
2.45 -4.5277461412937E-06 2.68644008308393E-06 0.554432691011492 -0.421188209467889 0.555637006783099 -0.420437018280888 -3.98727614416157E-06 -3.86259907650276E-06
2.5 -3.84024036008164E-06 2.99909441745337E-06 0.484523672231745 -0.483321545589186 0.484486803738383 -0.481811377288034 -4.30280133206264E-06 -3.20278359684198E-06
2.55 -3.10005512367119E-06 3.15160320801969E-06 0.407742490597879 -0.547770649253442 0.410090913706332 -0.546947271578655 -4.45983560602855E-06 -2.47494444483104E-06
2.6 -2.36579544208708E-06 3.11726610272528E-06 0.320717369020663 -0.581995464805286 0.320454306650347 -0.581252336094154 -4.37016032403847E-06 -1.77567240678004E-06
2.65 -1.68939123733965E-06 2.86819481012012E-06 0.235312022410826 -0.627197695685879 0.23926004123837 -0.62614395131446 -4.19836166048138E-06 -1.19373766799913E-06
2.7 -1.13987027340834E-06 2.43425752064156E-06 0.146379404002954 -0.645240322315353 0.145022386886788 -0.646450124301564 -3.8132147389047E-06 -7.84648110811464E-07
2.75 -6.82301475302524E-07 1.96626596858106E-06 0.0517356867907103 -0.648239035348073 0.0524991232732188 -0.647059014075688 -3.33832182465981E-06 -5.31320035383572E-07
2.8 -3.73621081043348E-07 1.35241242969739E-06 -0.0408654097756963 -0.664153348375142 -0.0398119248293379 -0.665321943977663 -2.77263639971057E-06 -3.79292077428465E-07
2.85 -2.82460874812778E-07 6.6345000851609E-07 -0.129997167137343 -0.641439206834396 -0.13089003764118 -0.64107046589599 -2.30689344721424E-06 -4.52619050637509E-07
2.9 -3.42225539958665E-07 -9.71706138706552E-08 -0.216804001508688 -0.605400242640214 -0.21558806056848 -0.606170762732141 -1.91541084887812E-06 -6.75131412541291E-07
2.95 -6.05170267610695E-07 -7.50254436974551E-07 -0.304877047022032 -0.584485922213035 -0.30657582946172 -0.583626769547846 -1.65202771502176E-06 -1.07517000292977E-06
3 -1.0904435094034E-06 -1.27498423715746E-06 -0.382445017709576 -0.526367236302201 -0.38006064491902 -0.527187126751436 -1.54860627720541E-06 -1.50561418490927E-06
3.05 -1.80708209000034E-06 -1.71118426833582E-06 -0.449848286289428 -0.472046368774183 -0.452137162024909 -0.472003794901761 -1.68636482031617E-06 -2.07527354996877E-06
3.1 -2.36392868018474E-06 -2.0387019872458E-06 -0.501734862202257 -0.394505809724908 -0.500003705226396 -0.392720436177822 -1.94608514104599E-06 -2.54812999668384E-06
3.15 -3.06161679904589E-06 -2.12130620142402E-06 -0.561293769026438 -0.317453402826437 -0.561019459411536 -0.321778849248778 -2.23954859737403E-06 -3.00434114976978E-06
3.2 -3.82836096615771E-06 -1.67967559016615E-06 -0.59140291322306 -0.24762576642024 -0.59217959535889 -0.243461680503369 -2.90321073792448E-06 -2.92387239807075E-06
3.25 -4.72641486253588E-06 -1.3019391476563E-06 -0.603416744662837 -0.140867573011057 -0.602385768850405 -0.145981090839194 -3.6889053667721E-06 -3.05398004580908E-06
3.3 -5.77499765049303E-06 -6.13754543934299E-07 -0.649196976176524 -0.0723271262666949 -0.650629711795122 -0.0672330239918919 -4.81082927007392E-06 -3.09497809698227E-06
3.35 -6.04378308015766E-06 -3.18381899297054E-07 -0.611764579595304 0.0241709685396051 -0.609857313911075 0.0177399578429979 -5.20791215411704E-06 -3.07465584809097E-06
3.4 -6.30510146221296E-06 4.07123800335966E-07 -0.611668583898938 0.115278001917831 -0.614850087178567 0.118548298932059 -5.70266062677765E-06 -2.61807699947882E-06
3.45 -5.85287839137292E-06 1.31551559785508E-06 -0.59537839242534 0.189231195485604 -0.591268865704568 0.18693572184175 -5.82254351046E-06 -1.47413379101084E-06
3.5 -5.75367130997245E-06 2.38072953730574E-06 -0.538961789379205 0.279100942100858 -0.546160388915367 0.275549279907776 -6.23258059073447E-06 -5.30924055586108E-07
3.55 -5.18378567074295E-06 3.46349386706545E-06 -0.515309687960467 0.340319199565712 -0.510062415403042 0.345160801157299 -6.48341965029258E-06 6.11081680301415E-07
3.6 -4.75393545845965E-06 4.20185476798045E-06 -0.445248765175506 0.41788896972048 -0.451665189763428 0.412402424723464 -6.4464238235009E-06 1.25652875016849E-06
3.65 -4.09243706465964E-06 4.787636167651E-06 -0.403757876917463 0.482548620794276 -0.399745489321651 0.487894048630021 -6.04280727279962E-06 2.11188753909861E-06
3.7 -3.44752739594626E-06 4.69787603284719E-06 -0.314941344212451 0.514278401883326 -0.318115009948853 0.510432513511608 -5.61719970120343E-06 2.39949615127843E-06
3.75 -2.42162859352957E-06 4.88203492293941E-06 -0.242606583721229 0.568477122624842 -0.240432806222061 0.571659264821837 -4.8528314128764E-06 2.77772756853511E-06
3.8 -1.63255399426788E-06 4.47607077772458E-06 -0.16650561695509 0.59537001986607 -0.168916218758977 0.592444828219116 -3.88798420994736E-06 2.91209199909618E-06
3.85 -7.49207918938394E-07 3.94435476254355E-06 -0.0678645931393154 0.586143705695188 -0.0710539092041353 0.588600969497786 -2.83138283109155E-06 3.13811161063465E-06
3.9 -1.68333840329269E-07 3.20261389121449E-06 0.00589696233746392 0.608920704300915 0.00780383052345225 0.607787345839604 -2.06579831910088E-06 2.99830245785845E-06
3.95 3.3564944689363E-07 2.65428086667557E-06 0.0948340192254873 0.575279447459836 0.0933003995841021 0.577582242580423 -1.27430541464753E-06 2.51590006959736E-06
4 -7.67917964368605E-09 2.0552058595187E-06 0.172552118353229 0.558821452408417 0.175505994792769 0.558641270258494 -1.2335902061868E-06 1.68612440401057E-06
4.05 -2.5665147729947E-07 9.39249937450092E-07 0.242646397301596 0.516802451471385 0.243589173657591 0.516123032729412 -9.97614531169229E-07 8.55882047948197E-07
4.1 -6.55289996261197E-07 1.82956808564207E-07 0.319998031740074 0.486456328611878 0.320149051767917 0.485976504216333 -1.00310167979124E-06 -1.53442171517481E-07
4.15 -1.06832520928788E-06 -3.10349166262776E-07 0.370733615436619 0.420554123581758 0.371686627470898 0.419941746997952 -1.35483073488905E-06 -5.86361227231134E-07
4.2 -2.12533671007678E-06 -3.75049436741345E-07 0.427165566811161 0.370091206676277 0.424989337458395 0.370042099566376 -2.08766206077516E-06 -1.14689891481333E-06
4.25 -3.24587468408748E-06 -5.0549649573464E-07 0.482468399866716 0.303496809876463 0.483187532566699 0.304784046496657 -3.03316282217094E-06 -1.75840485918346E-06
4.3 -4.30572875413675E-06 -4.21082088196589E-07 0.503733002022052 0.229732049507728 0.502655279689216 0.22846138254432 -3.79323190126837E-06 -2.05268855937768E-06
4.35 -4.94427446181945E-06 -6.57609306503494E-08 0.543571505798857 0.163521774588985 0.543448437278977 0.168434896975716 -4.66720174067932E-06 -1.99592202698402E-06
4.4 -5.78703260790882E-06 9.08943340808437E-07 0.574585592376792 0.0814873533324578 0.575113398561499 0.0764951107856297 -5.69823413832742E-06 -1.46218368640879E-06
4.45 -6.3147746829796E-06 1.99996667777241E-06 0.573690617852558 0.003957233927616 0.572909894523693 0.00998924244006391 -6.58952809387743E-06 -7.7443748889113E-07
4.5 -6.55134432769336E-06 2.95003534897465E-06 0.581472692799294 -0.0769362289670169 0.584022707174006 -0.0799366776966092 -7.11526198568964E-06 -9.71706138706547E-08
4.55 -6.40952699165859E-06 4.17941119874559E-06 0.564713336679693 -0.156532695878033 0.562895993230558 -0.156917915919011 -7.43709456607887E-06 9.23453171958383E-07
4.6 -5.99772214443117E-06 5.45097303908211E-06 0.528259902199956 -0.238440398703624 0.530678001583664 -0.238139811785419 -7.58545971090744E-06 2.11334417906786E-06
4.65 -5.20953849971377E-06 6.51663952687273E-06 0.48288766503742 -0.29374640368031 0.481886226116283 -0.295818631611363 -7.19554688962556E-06 3.31832484488785E-06
4.7 -4.97525988097105E-06 7.09723076276939E-06 0.446792356858519 -0.367567433492843 0.446670562334215 -0.369372729684233 -7.29056789888141E-06 3.90967824599417E-06
4.75 -3.14258052549175E-06 7.38831834031263E-06 0.365932239396632 -0.421446694951476 0.364740901810326 -0.422108559708449 -6.10752168541382E-06 4.80425317700889E-06
4.8 -1.79366120329342E-06 7.56778204137778E-06 0.31286811983048 -0.451155300194624 0.313894570793019 -0.451783326683663 -5.13933693847757E-06 5.27271141954498E-06
4.85 -6.66462283403945E-07 8.07719590868019E-06 0.242449215203688 -0.503629546281749 0.23863923841568 -0.506291340230786 -4.65532234675538E-06 6.10842678209373E-06
4.9 5.33116086607786E-07 7.13576808234405E-06 0.165241795171425 -0.524650361169901 0.16306587822895 -0.524101552864302 -3.56011293764678E-06 5.93873529674458E-06
4.95 1.59724108161542E-06 6.27803341462914E-06 0.0927152867970079 -0.537323030242196 0.0932712560136892 -0.537618592736477 -2.65326263291066E-06 5.62135748907682E-06
5 2.45218974861245E-06 5.18879198675375E-06 0.0154720607153462 -0.537084708718248 0.0127496363421765 -0.537642171883151 -1.87960296147883E-06 5.05742568894492E-06
5.05 2.78897056635598E-06 4.12220626014759E-06 -0.0591961109909504 -0.527652101966938 -0.0608546783774253 -0.525927286823458 -1.30462615342481E-06 4.390737131371E-06
5.1 2.65723657302092E-06 2.72485012343798E-06 -0.138031307489038 -0.506741631867591 -0.134345573718165 -0.507253731188516 -1.06085816167855E-06 3.36563028854923E-06
5.15 2.15755249502764E-06 1.12226331455679E-06 -0.196220185963173 -0.475457017706956 -0.197408148247668 -0.476943147913758 -1.10366640621159E-06 2.46570963026874E-06
5.2 1.55938258455069E-06 6.36396103067893E-10 -0.275751149251729 -0.467426869403169 -0.278309969523538 -0.464682432182458 -1.60296864654303E-06 1.76236465715811E-06
5.25 4.55447477762255E-07 -8.87192736219138E-07 -0.327756383462503 -0.400201913558851 -0.32340956420951 -0.402786120798261 -2.18152341490987E-06 7.89046314990444E-07
5.3 -9.88591848641288E-07 -1.2186278266969E-06 -0.393235382839482 -0.365357208567707 -0.396026461148446 -0.366021859395878 -2.70749772302766E-06 3.54614050765053E-07
5.35 -2.53381815543263E-06 -9.39971186366901E-07 -0.430206888023415 -0.305301822235673 -0.428970074791779 -0.303632291923564 -3.79400971872767E-06 6.85851151344079E-07
5.4 -3.92222232029241E-06 -8.98831713837468E-07 -0.476391031558503 -0.241443844941463 -0.476724753592293 -0.243904328242094 -5.05516294724512E-06 6.57213326706023E-07
5.45 -5.37693895909187E-06 -1.44348778311422E-07 -0.493329606203163 -0.165821160006564 -0.492266928743528 -0.164198540528232 -6.08831666523679E-06 1.39509339500981E-06
5.5 -6.67068981022203E-06 1.10396339105969E-06 -0.494716480341688 -0.0915021023480842 -0.496150888088752 -0.0961204683451263 -6.9722142838556E-06 2.19235629079765E-06
5.55 -7.18492614577213E-06 2.42729958991468E-06 -0.510664028917925 -0.0340206712249911 -0.509971006549432 -0.026703622870804 -7.33552574802924E-06 3.0954730717291E-06
5.6 -7.80405470124346E-06 4.52520055688143E-06 -0.483463264628458 0.0572626822762481 -0.483150735847167 0.0473496341191956 -8.10159109263112E-06 4.87417189553261E-06
5.65 -7.36222610008685E-06 5.45163771945642E-06 -0.475078708819431 0.115155393126274 -0.47787384998924 0.122783441199863 -7.83057120553794E-06 5.41198317116747E-06
5.7 -6.21964053663875E-06 6.85808724937208E-06 -0.463242403856346 0.171401896840848 -0.457884040817624 0.170264403784637 -6.78152172710522E-06 6.54140240634989E-06
5.75 -5.1821451830106E-06 9.4246727330449E-06 -0.425764423944715 0.259294438255192 -0.431486360050783 0.256125733209768 -5.87310164531485E-06 9.04784138721496E-06
5.8 -4.61319292473228E-06 9.8601797995777E-06 -0.382271371963125 0.294643260254657 -0.376086342083912 0.299413610043922 -5.38178971161082E-06 9.33446004990112E-06
