# GHZ S RI R 50
0.5 5.29904407607636E-06 -3.40111290682917E-06 0.000746899306393542 -0.00532672847057516 0.000749227937916396 -0.00532335584542034 5.42531920506065E-06 -1.16966775316754E-06
0.55 4.78593911137616E-06 -4.30807634865029E-06 1.19062846126922E-05 -0.00684804201667231 2.13882847184681E-05 -0.00685076530474849 5.44484949435703E-06 -1.69346417239929E-06
0.6 4.0722703792602E-06 -5.141500685228E-06 -0.000932766240363446 -0.00647456570299432 -0.000941018751554746 -0.0064734364251328 5.31392160275253E-06 -2.33019968672215E-06
0.65 3.26342507439653E-06 -5.88855899955159E-06 -0.00202815609242753 -0.00704117720354198 -0.00202099334180036 -0.00703987451838431 5.07443867810027E-06 -2.93545480714659E-06
0.7 2.3856510005028E-06 -6.45324033287154E-06 -0.00339728213804581 -0.00747491784873953 -0.00339892315216406 -0.00747695701693146 4.80083078018794E-06 -3.51027605170875E-06
0.75 1.3757186692053E-06 -6.72375110308227E-06 -0.00459913446085993 -0.00731074544862991 -0.00459475165228505 -0.00730990302641318 4.41609398054435E-06 -4.01107735841632E-06
0.8 2.25284220486033E-07 -6.8057754896999E-06 -0.00580399950538903 -0.00676664508416861 -0.00580862402898578 -0.00676342806225429 3.86513051877941E-06 -4.55900026102215E-06
0.85 -8.17867987391608E-07 -6.7526717704328E-06 -0.00719626138128051 -0.00637088972636148 -0.00718551194435772 -0.00637456633809528 3.32887487806316E-06 -5.02870301149313E-06
0.9 -1.71490365000486E-06 -6.57091704339661E-06 -0.00817223119668972 -0.00538547733282327 -0.0081779215310117 -0.00539247324980871 2.77758614717888E-06 -5.41236500882932E-06
0.95 -2.47811228321075E-06 -6.09726863708661E-06 -0.00921870678362418 -0.00433836005694588 -0.0092159468209901 -0.00432734553479149 2.17535744377792E-06 -5.61572891909857E-06
1 -3.10991219220093E-06 -5.51076598849924E-06 -0.0105088336356419 -0.00327699431095077 -0.010507080740622 -0.00329412823899576 1.51745115242633E-06 -5.71900893555868E-06
1.05 -3.56241810575345E-06 -4.79189295047375E-06 -0.0115796557468432 -0.00183563144316422 -0.0115856704549317 -0.00181651940014535 7.59757952113699E-07 -5.63166710594652E-06
1.1 -3.84895191562587E-06 -3.98857722063896E-06 -0.011790792180201 -0.000242627650599019 -0.0117821802446065 -0.00024896281472332 8.44851182161687E-08 -5.40731626641165E-06
1.15 -3.97616042556132E-06 -3.2069131004441E-06 -0.0124804662872279 0.00158294944661914 -0.0124808968092915 0.00158710188445204 -5.34035325423329E-07 -5.05950458288161E-06
1.2 -3.99248045007111E-06 -2.53790523262789E-06 -0.0126910128310037 0.00341308020346612 -0.0126859154722409 0.00340766071536297 -1.11983086722951E-06 -4.70439555736973E-06
1.25 -3.82619721940728E-06 -1.98605081631866E-06 -0.0124288412237004 0.0053502387947785 -0.0124390703523149 0.00533709639426798 -1.63591982254633E-06 -4.20632368283755E-06
1.3 -3.54595665988743E-06 -1.54098366610422E-06 -0.0117051752453042 0.00711043478995889 -0.0116934564932193 0.00712718566854319 -1.99532805728782E-06 -3.64184033941632E-06
1.35 -3.22565143014554E-06 -1.23978446159E-06 -0.011031701098532 0.00905527304727899 -0.0110425947376816 0.00902686169085954 -2.21447459091316E-06 -3.05499827957398E-06
1.4 -2.85693767016363E-06 -1.09772670924962E-06 -0.00984960328284801 0.0107667615332558 -0.00985596734963463 0.0107866644152129 -2.30953802657588E-06 -2.46042047154546E-06
1.45 -2.46695413820363E-06 -1.07360022587554E-06 -0.00847717911839265 0.0122844670924224 -0.00844618065951505 0.0122833130205861 -2.20458923811217E-06 -1.84687805964552E-06
1.5 -2.08129809974448E-06 -1.14811513847697E-06 -0.00683700187986953 0.0138838188281188 -0.00687440902326519 0.0138757952559655 -1.87183892902141E-06 -1.29140325661662E-06
1.55 -1.88487797806648E-06 -1.33056283015873E-06 -0.00485142535576643 0.0146486322632673 -0.00482385889925938 0.0146556834990177 -1.53654303551837E-06 -8.79103434642364E-07
1.6 -1.69151255768321E-06 -1.64895887159141E-06 -0.00283211954157799 0.0157560794711229 -0.00287221874373653 0.0157477271699572 -9.67208939578207E-07 -5.79657854945484E-07
1.65 -1.72823968389804E-06 -1.94433151622865E-06 -0.000577739057132117 0.0162101704241962 -0.000541502758401018 0.0162228700410717 -4.30585603335736E-07 -3.94678720987084E-07
1.7 -1.88561336911892E-06 -2.30993400637335E-06 0.00173602906578014 0.0167671229293108 0.00171538153452925 0.0167513663228209 1.68758104397982E-07 -4.20318412872908E-07
1.75 -2.17853942429326E-06 -2.66108323391058E-06 0.00423661843123702 0.0168715874928454 0.00425643785963875 0.0168913492717789 7.56745677225843E-07 -6.26185481147559E-07
1.8 -2.49723245057404E-06 -2.91135660804375E-06 0.0066816506243489 0.0165283901165309 0.00669871000449144 0.0164900638842171 1.22937584977093E-06 -9.52840529784496E-07
1.85 -2.95147784680827E-06 -3.02865148090697E-06 0.00909098953030034 0.0155627148455065 0.00906484162453555 0.0155915057581415 1.56165946838611E-06 -1.4826897830632E-06
1.9 -3.44325647098789E-06 -3.08705850103298E-06 0.0115382463967127 0.0146648098984782 0.0115921374149032 0.0146223780447258 1.7961502191632E-06 -2.09179156437729E-06
1.95 -4.01578668957902E-06 -3.04384013456686E-06 0.0134236643390804 0.0128538399388895 0.0133952318502563 0.0128527864997051 1.85506635617166E-06 -2.7670502561392E-06
2 -4.50513286643136E-06 -2.80229245811354E-06 0.0157073613997403 0.011161799100187 0.0157241878735847 0.011162705087023 1.71078828853836E-06 -3.42792639597177E-06
2.05 -5.0149851399381E-06 -2.37859407482655E-06 0.0171736155782301 0.00907707122663415 0.017164216461433 0.00904704751053467 1.4044413466571E-06 -4.06101323930371E-06
2.1 -5.39183062790367E-06 -1.77301368528278E-06 0.0187415538205855 0.00647936847784773 0.0187278366591825 0.00647130906174055 8.5835692168235E-07 -4.54068619538941E-06
2.15 -5.81862613889224E-06 -1.08423511186458E-06 0.0196920969924907 0.00406756713051909 0.0196690750853958 0.00407502333725071 1.58052507730817E-07 -5.03592964279685E-06
2.2 -6.02197590702587E-06 -3.58262721755977E-07 0.0205363070794188 0.00112533883438109 0.0205312910698621 0.0011220550484012 -6.59532636948316E-07 -5.36197657960196E-06
2.25 -6.17113301144935E-06 2.55505964313947E-07 0.020894344023474 -0.00177594565518449 0.0208518234671668 -0.00177472069037128 -1.35211544484929E-06 -5.54801637373215E-06
2.3 -5.93850902257461E-06 9.08222091891627E-07 0.0204588091378461 -0.00461199772367495 0.0204646467667249 -0.00452031813117555 -2.12426190776938E-06 -5.38598992589105E-06
2.35 -5.58471521567573E-06 1.5253000376975E-06 0.0194289775921901 -0.00748586649105615 0.0194164922059986 -0.00753086687584869 -2.84180558504624E-06 -4.99521443433612E-06
2.4 -5.08008139021414E-06 2.15803332763885E-06 0.0181303730100807 -0.0099598801170262 0.0181068522442107 -0.00988658470058632 -3.46659099476705E-06 -4.47082404540819E-06
2.45 -4.5277461412937E-06 2.68644008308393E-06 0.0168415767358488 -0.0127941112870655 0.016878159312617 -0.0127712929283643 -3.98727614416157E-06 -3.86259907650276E-06
2.5 -3.84024036008164E-06 2.99909441745337E-06 0.0148464674861166 -0.0148096326829155 0.0148453377850941 -0.0147633590623133 -4.30280133206264E-06 -3.20278359684198E-06
2.55 -3.10005512367119E-06 3.15160320801969E-06 0.0127803630762949 -0.0171694339967648 0.0128539725250889 -0.0171436258804282 -4.45983560602855E-06 -2.47494444483104E-06
2.6 -2.36579544208708E-06 3.11726610272528E-06 0.0107658794244578 -0.019536494137526 0.0107570489150015 -0.0195115487030916 -4.37016032403847E-06 -1.77567240678004E-06
2.65 -1.68939123733965E-06 2.86819481012012E-06 0.00803789747513414 -0.0214241105189343 0.00817275573796568 -0.0213881162287332 -4.19836166048138E-06 -1.19373766799913E-06
2.7 -1.13987027340834E-06 2.43425752064156E-06 0.00482510837856011 -0.0212690747485609 0.00478037698549521 -0.0213089534851894 -3.8132147389047E-06 -7.84648110811464E-07
2.75 -6.82301475302524E-07 1.96626596858106E-06 0.00179194891749191 -0.0224528040454381 0.00181839177083488 -0.0224119321063021 -3.33832182465981E-06 -5.31320035383572E-07
2.8 -3.73621081043348E-07 1.35241242969739E-06 -0.00139625583547878 -0.0226922473899446 -0.00136026122507316 -0.0227321750069266 -2.77263639971057E-06 -3.79292077428465E-07
2.85 -2.82460874812778E-07 6.6345000851609E-07 -0.00452200873190014 -0.0223127454094729 -0.00455306762574927 -0.0222999185934738 -2.30689344721424E-06 -4.52619050637509E-07
2.9 -3.42225539958665E-07 -9.71706138706552E-08 -0.00789348682040038 -0.0220416542272917 -0.00784921635620633 -0.0220697076310488 -1.91541084887812E-06 -6.75131412541291E-07
2.95 -6.05170267610695E-07 -7.50254436974551E-07 -0.0108400499006119 -0.0207816778103882 -0.0109004509265218 -0.0207511302245537 -1.65202771502176E-06 -1.07517000292977E-06
3 -1.0904435094034E-06 -1.27498423715746E-06 -0.0139968593363581 -0.0192641760897098 -0.0139095952094654 -0.019294182733169 -1.54860627720541E-06 -1.50561418490927E-06
3.05 -1.80708209000034E-06 -1.71118426833582E-06 -0.0163703004825069 -0.017178104561096 -0.0164535943055555 -0.0171765552674663 -1.68636482031617E-06 -2.07527354996877E-06
3.1 -2.36392868018474E-06 -2.0387019872458E-06 -0.0188763306061402 -0.0148421460245441 -0.018811200805783 -0.0147749764816857 -1.94608514104599E-06 -2.54812999668384E-06
3.15 -3.06161679904589E-06 -2.12130620142402E-06 -0.0207278757320299 -0.0117231564781302 -0.0207177458215917 -0.0118828897958247 -2.23954859737403E-06 -3.00434114976978E-06
3.2 -3.82836096615771E-06 -1.67967559016615E-06 -0.0226362281186038 -0.00947799412448699 -0.0226659559971942 -0.00931861175315905 -2.90321073792448E-06 -2.92387239807075E-06
3.25 -4.72641486253588E-06 -1.3019391476563E-06 -0.0236598114865672 -0.00552338040250128 -0.0236193871967457 -0.00572388008852597 -3.6889053667721E-06 -3.05398004580908E-06
3.3 -5.77499765049303E-06 -6.13754543934299E-07 -0.0247689511279967 -0.0027595123228687 -0.0248236145965874 -0.00256515594889307 -4.81082927007392E-06 -3.09497809698227E-06
3.35 -6.04378308015766E-06 -3.18381899297054E-07 -0.0249021720277661 0.000983890922630966 -0.0248245358589596 0.000722113533058567 -5.20791215411704E-06 -3.07465584809097E-06
3.4 -6.30510146221296E-06 4.07123800335966E-07 -0.0242477956025267 0.00456985613051053 -0.0243739169094957 0.00469949740300337 -5.70266062677765E-06 -2.61807699947882E-06
3.45 -5.85287839137292E-06 1.31551559785508E-06 -0.0241244662160491 0.00766756341948957 -0.0239579500310473 0.00757455185394484 -5.82254351046E-06 -1.47413379101084E-06
3.5 -5.75367130997245E-06 2.38072953730574E-06 -0.0222538014921683 0.0115241137390162 -0.0225510325913969 0.0113774651509908 -6.23258059073447E-06 -5.30924055586108E-07
3.55 -5.18378567074295E-06 3.46349386706545E-06 -0.0207448454833911 0.0137002454542707 -0.0205336057940233 0.013895154029165 -6.48341965029258E-06 6.11081680301415E-07
3.6 -4.75393545845965E-06 4.20185476798045E-06 -0.0181615061721332 0.0170455118496585 -0.0184232293791827 0.016821718032313 -6.4464238235009E-06 1.25652875016849E-06
3.65 -4.09243706465964E-06 4.787636167651E-06 -0.0161968594484638 0.0193575720372946 -0.0160359014048999 0.0195720053605736 -6.04280727279962E-06 2.11188753909861E-06
3.7 -3.44752739594626E-06 4.69787603284719E-06 -0.0129696214834882 0.0211785347720513 -0.0131003164337469 0.0210201569745168 -5.61719970120343E-06 2.39949615127843E-06
3.75 -2.42162859352957E-06 4.88203492293941E-06 -0.009871063801592 0.0231299326716674 -0.00978261815409297 0.0232594061928327 -4.8528314128764E-06 2.77772756853511E-06
3.8 -1.63255399426788E-06 4.47607077772458E-06 -0.00680746561092421 0.0243412865591597 -0.00690602137848137 0.0242216921460333 -3.88798420994736E-06 2.91209199909618E-06
3.85 -7.49207918938394E-07 3.94435476254355E-06 -0.00291102975669748 0.0251424445362384 -0.00304783443699882 0.0252478480716981 -2.83138283109155E-06 3.13811161063465E-06
3.9 -1.68333840329269E-07 3.20261389121449E-06 0.000240928745983664 0.0248783175633783 0.000318836545714312 0.024832012598685 -2.06579831910088E-06 2.99830245785845E-06
3.95 3.3564944689363E-07 2.65428086667557E-06 0.00414968770851163 0.0251727183091051 0.00408258053929785 0.0252734825779314 -1.27430541464753E-06 2.51590006959736E-06
4 -7.67917964368605E-09 2.0552058595187E-06 0.00731923261498815 0.0237038191095972 0.00744452872252517 0.0236961762299794 -1.2335902061868E-06 1.68612440401057E-06
4.05 -2.5665147729947E-07 9.39249937450092E-07 0.0109114104431409 0.0232397584663773 0.010953805549315 0.023209206120087 -9.97614531169229E-07 8.55882047948197E-07
4.1 -6.55289996261197E-07 1.82956808564207E-07 0.0138611813116601 0.0210715651419094 0.0138677229643579 0.0210507808486178 -1.00310167979124E-06 -1.53442171517481E-07
4.15 -1.06832520928788E-06 -3.10349166262776E-07 0.0172389432705816 0.019555574074654 0.0172832578935643 0.0195270988440601 -1.35483073488905E-06 -5.86361227231134E-07
4.2 -2.12533671007678E-06 -3.75049436741345E-07 0.019707480220182 0.0170743283211784 0.0196070788764024 0.0170720627420394 -2.08766206077516E-06 -1.14689891481333E-06
4.25 -3.24587468408748E-06 -5.0549649573464E-07 0.0210409966484629 0.013235841686614 0.0210723588448976 0.0132919795423135 -3.03316282217094E-06 -1.75840485918346E-06
4.3 -4.30572875413675E-06 -4.21082088196589E-07 0.0239058854510222 0.0109024980255709 0.023854739493673 0.0108421954074146 -3.79323190126837E-06 -2.05268855937768E-06
4.35 -4.94427446181945E-06 -6.57609306503494E-08 0.0245817070455907 0.00739487687570026 0.0245761415693471 0.00761706095617789 -4.66720174067932E-06 -1.99592202698402E-06
4.4 -5.78703260790882E-06 9.08943340808437E-07 0.0250678498923943 0.00355510609484098 0.0250908768641563 0.00333730601692283 -5.69823413832742E-06 -1.46218368640879E-06
4.45 -6.3147746829796E-06 1.99996667777241E-06 0.0250031153652906 0.000172467830814437 0.0249690891587387 0.00043536040745391 -6.58952809387743E-06 -7.7443748889113E-07
4.5 -6.55134432769336E-06 2.95003534897465E-06 0.0251714548449629 -0.00333050345676929 0.025281842783179 -0.00346039031241503 -7.11526198568964E-06 -9.71706138706547E-08
4.55 -6.40952699165859E-06 4.17941119874559E-06 0.0243002205952079 -0.00673576980236312 0.0242220183572886 -0.00675234623391778 -7.43709456607887E-06 9.23453171958383E-07
4.6 -5.99772214443117E-06 5.45097303908211E-06 0.0234653095312623 -0.0105915246208112 0.0235727215272888 -0.010578172547244 -7.58545971090744E-06 2.11334417906786E-06
4.65 -5.20953849971377E-06 6.51663952687273E-06 0.0216394987525177 -0.0131635686645755 0.0215946215733025 -0.0132564307875405 -7.19554688962556E-06 3.31832484488785E-06
4.7 -4.97525988097105E-06 7.09723076276939E-06 0.0194732168815042 -0.0160202390240319 0.0194679085293125 -0.016098921937315 -7.29056789888141E-06 3.90967824599417E-06
4.75 -3.14258052549175E-06 7.38831834031263E-06 0.016158710233383 -0.0186100985083102 0.0161061035571334 -0.0186393249050859 -6.10752168541382E-06 4.80425317700889E-06
4.8 -1.79366120329342E-06 7.56778204137778E-06 0.0142812853519545 -0.0205935893488194 0.0143281390841397 -0.0206222564610308 -5.13933693847757E-06 5.27271141954498E-06
4.85 -6.66462283403945E-07 8.07719590868019E-06 0.0108814203704839 -0.0226035163672677 0.0107104239042868 -0.0227229809688535 -4.65532234675538E-06 6.10842678209373E-06
4.9 5.33116086607786E-07 7.13576808234405E-06 0.0075854281205309 -0.0240840859840348 0.00748554260702468 -0.0240588929270981 -3.56011293764678E-06 5.93873529674458E-06
4.95 1.59724108161542E-06 6.27803341462914E-06 0.00424667747377689 -0.0246112338914182 0.0042721427668279 -0.0246247716652839 -2.65326263291066E-06 5.62135748907682E-06
5 2.45218974861245E-06 5.18879198675375E-06 0.000729268631287747 -0.0253152464703064 0.000600948381455956 -0.0253415222461544 -1.87960296147883E-06 5.05742568894492E-06
5.05 2.78897056635598E-06 4.12220626014759E-06 -0.00282620314131633 -0.025191722955062 -0.00290538821410695 -0.0251093750120116 -1.30462615342481E-06 4.390737131371E-06
5.1 2.65723657302092E-06 2.72485012343798E-06 -0.00646077969173364 -0.0237188656956402 -0.00628826293210012 -0.0237428353366801 -1.06085816167855E-06 3.36563028854923E-06
5.15 2.15755249502764E-06 1.12226331455679E-06 -0.0095423007578032 -0.0231217488562539 -0.00960007204851895 -0.0231940202249154 -1.10366640621159E-06 2.46570963026874E-06
5.2 1.55938258455069E-06 6.36396103067893E-10 -0.0125272100973887 -0.0212349236406363 -0.012643455774817 -0.0211102454960257 -1.60296864654303E-06 1.76236465715811E-06
5.25 4.55447477762255E-07 -8.87192736219138E-07 -0.0158987478039826 -0.0194129225711063 -0.0156878930760815 -0.0195382768319099 -2.18152341490987E-06 7.89046314990444E-07
5.3 -9.88591848641288E-07 -1.2186278266969E-06 -0.0176983610001828 -0.0164436468675807 -0.0178239791760833 -0.0164735608346584 -2.70749772302766E-06 3.54614050765053E-07
5.35 -2.53381815543263E-06 -9.39971186366901E-07 -0.0197906832756032 -0.0140447115923487 -0.0197337865135572 -0.0139679086713685 -3.79400971872767E-06 6.85851151344079E-07
5.4 -3.92222232029241E-06 -8.98831713837468E-07 -0.0214734793143465 -0.0108831591412738 -0.0214885219425964 -0.0109940662191979 -5.05516294724512E-06 6.57213326706023E-07
5.45 -5.37693895909187E-06 -1.44348778311422E-07 -0.0230049989791109 -0.00773259007507244 -0.0229554440901144 -0.00765692390995053 -6.08831666523679E-06 1.39509339500981E-06
5.5 -6.67068981022203E-06 1.10396339105969E-06 -0.0232188287048174 -0.00429452368169229 -0.023286150633832 -0.00451128025488631 -6.9722142838556E-06 2.19235629079765E-06
5.55 -7.18492614577213E-06 2.42729958991468E-06 -0.0240454001944311 -0.00160191556123792 -0.0240127681717107 -0.00125738110031017 -7.33552574802924E-06 3.0954730717291E-06
5.6 -7.80405470124346E-06 4.52520055688143E-06 -0.0237787529845485 0.00281641910916645 -0.0237633815070556 0.00232885378477384 -8.10159109263112E-06 4.87417189553261E-06
5.65 -7.36222610008685E-06 5.45163771945642E-06 -0.0231048307369973 0.00560043171214017 -0.023240768766666 0.00597141183884786 -7.83057120553794E-06 5.41198317116747E-06
5.7 -6.21964053663875E-06 6.85808724937208E-06 -0.0220314781853244 0.00815175191160482 -0.0217766382626103 0.00809765355349844 -6.78152172710522E-06 6.54140240634989E-06
5.75 -5.1821451830106E-06 9.4246727330449E-06 -0.0199324956438411 0.0121390726193341 -0.0202003725731812 0.0119907272058556 -5.87310164531485E-06 9.04784138721496E-06
5.8 -4.61319292473228E-06 9.8601797995777E-06 -0.0187229677022377 0.0144310996062821 -0.0184200360072191 0.0146647428021461 -5.38178971161082E-06 9.33446004990112E-06
