# GHZ S RI R 50
0.5 5.29904407607636E-06 -3.40111290682917E-06 0.131293449546574 -0.936357216713312 0.131702787274888 -0.935764360906894 5.42531920506065E-06 -1.16966775316754E-06
0.55 4.78593911137616E-06 -4.30807634865029E-06 0.00140138231493084 -0.806021801615399 0.00251742377460178 -0.806342335507589 5.44484949435703E-06 -1.69346417239929E-06
0.6 4.0722703792602E-06 -5.141500685228E-06 -0.118924941141722 -0.825488007420582 -0.119977111948541 -0.825344027828052 5.31392160275253E-06 -2.33019968672215E-06
0.65 3.26342507439653E-06 -5.88855899955159E-06 -0.249921832314234 -0.867657038296377 -0.249039194253072 -0.867496513441929 5.07443867810027E-06 -2.93545480714659E-06
0.7 2.3856510005028E-06 -6.45324033287154E-06 -0.365889927000844 -0.805054462619887 -0.366066665496952 -0.805274082619218 4.80083078018794E-06 -3.51027605170875E-06
0.75 1.3757186692053E-06 -6.72375110308227E-06 -0.459325537119439 -0.730140009715557 -0.458887816517904 -0.730055875181011 4.41609398054435E-06 -4.01107735841632E-06
0.8 2.25284220486033E-07 -6.8057754896999E-06 -0.54710005263101 -0.637841522599488 -0.547535972224185 -0.63753827776685 3.86513051877941E-06 -4.55900026102215E-06
0.85 -8.17867987391608E-07 -6.7526717704328E-06 -0.660071242633906 -0.584364696549519 -0.659085259244573 -0.584701930780911 3.32887487806316E-06 -5.02870301149313E-06
0.9 -1.71490365000486E-06 -6.57091704339661E-06 -0.714699379704087 -0.470984877512802 -0.715197025733959 -0.47159670277932 2.77758614717888E-06 -5.41236500882932E-06
0.95 -2.47811228321075E-06 -6.09726863708661E-06 -0.773737909285763 -0.364124135735936 -0.773506262074465 -0.363199672734395 2.17535744377792E-06 -5.61572891909857E-06
1 -3.10991219220093E-06 -5.51076598849924E-06 -0.810494203566534 -0.252738313901748 -0.810359011469831 -0.254059768769744 1.51745115242633E-06 -5.71900893555868E-06
1.05 -3.56241810575345E-06 -4.79189295047375E-06 -0.843517100365363 -0.133716109194307 -0.843955240258057 -0.13232389724416 7.59757952113699E-07 -5.63166710594652E-06
1.1 -3.84895191562587E-06 -3.98857722063896E-06 -0.875132051471999 -0.0180082245846972 -0.874492859401714 -0.018478430919588 8.44851182161687E-08 -5.40731626641165E-06
1.15 -3.97616042556132E-06 -3.2069131004441E-06 -0.856526496186051 0.108636817883949 -0.85655604264258 0.108921797062273 -5.34035325423329E-07 -5.05950458288161E-06
1.2 -3.99248045007111E-06 -2.53790523262789E-06 -0.829159271029697 0.222991429538099 -0.828826238329141 0.222637350721475 -1.11983086722951E-06 -4.70439555736973E-06
1.25 -3.82619721940728E-06 -1.98605081631866E-06 -0.805035499515436 0.346543340860142 -0.805698056186292 0.345692087008765 -1.63591982254633E-06 -4.20632368283755E-06
1.3 -3.54595665988743E-06 -1.54098366610422E-06 -0.74321259021194 0.451472493750016 -0.742468515569012 0.452536080035574 -1.99532805728782E-06 -3.64184033941632E-06
1.35 -3.22565143014554E-06 -1.23978446159E-06 -0.654829365304088 0.537510819885608 -0.655475999467439 0.535824353734521 -2.21447459091316E-06 -3.05499827957398E-06
1.4 -2.85693767016363E-06 -1.09772670924962E-06 -0.58327028711914 0.637582236614666 -0.583647152151698 0.638760838365443 -2.30953802657588E-06 -2.46042047154546E-06
1.45 -2.46695413820363E-06 -1.07360022587554E-06 -0.486274015422073 0.704670392936704 -0.484495859639378 0.704604192242097 -2.20458923811217E-06 -1.84687805964552E-06
1.5 -2.08129809974448E-06 -1.14811513847697E-06 -0.368753993270801 0.748824371365366 -0.370771549174159 0.748391619652875 -1.87183892902141E-06 -1.29140325661662E-06
1.55 -1.88487797806648E-06 -1.33056283015873E-06 -0.261866125322154 0.790691454727103 -0.260378166500778 0.791072060353137 -1.53654303551837E-06 -8.79103434642364E-07
1.6 -1.69151255768321E-06 -1.64895887159141E-06 -0.146996323738209 0.81779237238399 -0.149077604282905 0.817358860468944 -9.67208939578207E-07 -5.79657854945484E-07
1.65 -1.72823968389804E-06 -1.94433151622865E-06 -0.0296968202465798 0.833231735523283 -0.027834209719328 0.83388451853128 -4.30585603335736E-07 -3.94678720987084E-07
1.7 -1.88561336911892E-06 -2.30993400637335E-06 0.0861275040240317 0.831846929312035 0.0851031431040731 0.831065215908951 1.68758104397982E-07 -4.20318412872908E-07
1.75 -2.17853942429326E-06 -2.66108323391058E-06 0.200618760658408 0.798928916561942 0.201557280194082 0.799864706192844 7.56745677225843E-07 -6.26185481147559E-07
1.8 -2.49723245057404E-06 -2.91135660804375E-06 0.308201927747952 0.762398692012036 0.308988819212608 0.76063083263918 1.22937584977093E-06 -9.52840529784496E-07
1.85 -2.95147784680827E-06 -3.02865148090697E-06 0.415430771532923 0.711169077234878 0.41423589119238 0.712484735008899 1.56165946838611E-06 -1.4826897830632E-06
1.9 -3.44325647098789E-06 -3.08705850103298E-06 0.509380846149297 0.647409755162935 0.511759981721713 0.645536509192538 1.7961502191632E-06 -2.09179156437729E-06
1.95 -4.01578668957902E-06 -3.04384013456686E-06 0.584172038518437 0.559374377235448 0.58293471132245 0.559328533589461 1.85506635617166E-06 -2.7670502561392E-06
2 -4.50513286643136E-06 -2.80229245811354E-06 0.669478396917793 0.475737660714624 0.670195574071131 0.475776275641677 1.71078828853836E-06 -3.42792639597177E-06
2.05 -5.0149851399381E-06 -2.37859407482655E-06 0.715247595655447 0.378042313854589 0.71485614077166 0.376791884633382 1.4044413466571E-06 -4.06101323930371E-06
2.1 -5.39183062790367E-06 -1.77301368528278E-06 0.757734361715337 0.26196547975055 0.757179767115565 0.261639631820424 8.5835692168235E-07 -4.54068619538941E-06
2.15 -5.81862613889224E-06 -1.08423511186458E-06 0.770343986875127 0.159120985510136 0.769443382551286 0.159412668210195 1.58052507730817E-07 -5.03592964279685E-06
2.2 -6.02197590702587E-06 -3.58262721755977E-07 0.801923734557021 0.0439434372119094 0.801727864038492 0.0438152084166201 -6.59532636948316E-07 -5.36197657960196E-06
2.25 -6.17113301144935E-06 2.55505964313947E-07 0.806544048766917 -0.0685534036155091 0.804902709771 -0.0685061186622734 -1.35211544484929E-06 -5.54801637373215E-06
2.3 -5.93850902257461E-06 9.08222091891627E-07 0.780452801917616 -0.175936268901462 0.780675492973792 -0.172438919942257 -2.12426190776938E-06 -5.38598992589105E-06
2.35 -5.58471521567573E-06 1.5253000376975E-06 0.744518458094673 -0.286858418101427 0.744040018072192 -0.288582832931823 -2.84180558504624E-06 -4.99521443433612E-06
2.4 -5.08008139021414E-06 2.15803332763885E-06 0.701564068556815 -0.385402661784945 0.700653920476014 -0.382566458109734 -3.46659099476705E-06 -4.47082404540819E-06
2.45 -4.5277461412937E-06 2.68644008308393E-06 0.629489585024441 -0.478206995174521 0.630856936278431 -0.477354110710373 -3.98727614416157E-06 -3.86259907650276E-06
2.5 -3.84024036008164E-06 2.99909441745337E-06 0.555330664916883 -0.553952862704142 0.555288408560576 -0.55222200244926 -4.30280133206264E-06 -3.20278359684198E-06
2.55 -3.10005512367119E-06 3.15160320801969E-06 0.469321021071392 -0.630496664803327 0.472024110292117 -0.629548938088626 -4.45983560602855E-06 -2.47494444483104E-06
2.6 -2.36579544208708E-06 3.11726610272528E-06 0.379335263179952 -0.688367466612722 0.379024120588014 -0.687488515385121 -4.37016032403847E-06 -1.77567240678004E-06
2.65 -1.68939123733965E-06 2.86819481012012E-06 0.273199088949009 -0.728181404829137 0.277782769526773 -0.72695799941488 -4.19836166048138E-06 -1.19373766799913E-06
2.7 -1.13987027340834E-06 2.43425752064156E-06 0.17229241076019 -0.759464840075111 0.17069516590201 -0.760888808851091 -3.8132147389047E-06 -7.84648110811464E-07
2.75 -6.82301475302524E-07 1.96626596858106E-06 0.0628387820873827 -0.787358862124685 0.0637660611424764 -0.785925594216328 -3.33832182465981E-06 -5.31320035383572E-07
2.8 -3.73621081043348E-07 1.35241242969739E-06 -0.0471390032358304 -0.766113126235255 -0.045923788936797 -0.767461122797407 -2.77263639971057E-06 -3.79292077428465E-07
2.85 -2.82460874812778E-07 6.6345000851609E-07 -0.150807586520234 -0.744123128313617 -0.151843390982161 -0.743695357984488 -2.30689344721424E-06 -4.52619050637509E-07
2.9 -3.42225539958665E-07 -9.71706138706552E-08 -0.264827317577969 -0.739499830278892 -0.26334203882256 -0.740441024941652 -1.91541084887812E-06 -6.75131412541291E-07
2.95 -6.05170267610695E-07 -7.50254436974551E-07 -0.356241976258727 -0.682958661724144 -0.358226965353378 -0.681954761147355 -1.65202771502176E-06 -1.07517000292977E-06
3 -1.0904435094034E-06 -1.27498423715746E-06 -0.46187244893954 -0.635684904273097 -0.458992881814952 -0.636675072250493 -1.54860627720541E-06 -1.50561418490927E-06
3.05 -1.80708209000034E-06 -1.71118426833582E-06 -0.53961090061647 -0.566238382918026 -0.542356498042681 -0.56618731386577 -1.68636482031617E-06 -2.07527354996877E-06
3.1 -2.36392868018474E-06 -2.0387019872458E-06 -0.607968315426608 -0.478035413986793 -0.605870616682428 -0.475872019274565 -1.94608514104599E-06 -2.54812999668384E-06
3.15 -3.06161679904589E-06 -2.12130620142402E-06 -0.666661001430984 -0.377046415111688 -0.666335197845297 -0.382183843322508 -2.23954859737403E-06 -3.00434114976978E-06
3.2 -3.82836096615771E-06 -1.67967559016615E-06 -0.721145034310007 -0.301949969857204 -0.722092105169767 -0.296872365715848 -2.90321073792448E-06 -2.92387239807075E-06
3.25 -4.72641486253588E-06 -1.3019391476563E-06 -0.756609808797709 -0.176630477069784 -0.75531709291069 -0.183042194643834 -3.6889053667721E-06 -3.05398004580908E-06
3.3 -5.77499765049303E-06 -6.13754543934299E-07 -0.774583588780468 -0.0862964663818785 -0.776293044520332 -0.0802184836332979 -4.81082927007392E-06 -3.09497809698227E-06
3.35 -6.04378308015766E-06 -3.18381899297054E-07 -0.781311333203065 0.0308698023461592 -0.778875480680346 0.0226564769775456 -5.20791215411704E-06 -3.07465584809097E-06
3.4 -6.30510146221296E-06 4.07123800335966E-07 -0.755796899317093 0.1424411171383 -0.759728064620016 0.146481998766459 -5.70266062677765E-06 -2.61807699947882E-06
3.45 -5.85287839137292E-06 1.31551559785508E-06 -0.733408653534231 0.233101835829847 -0.728346389775101 0.230274188310587 -5.82254351046E-06 -1.47413379101084E-06
3.5 -5.75367130997245E-06 2.38072953730574E-06 -0.671835490099728 0.347909484343234 -0.68080880646967 0.343482208129634 -6.23258059073447E-06 -5.30924055586108E-07
3.55 -5.18378567074295E-06 3.46349386706545E-06 -0.637388879842312 0.420942354603398 -0.630898504722757 0.426930953473562 -6.48341965029258E-06 6.11081680301415E-07
3.6 -4.75393545845965E-06 4.20185476798045E-06 -0.548950155891457 0.515218082599183 -0.55686100832564 0.508453684880459 -6.4464238235009E-06 1.25652875016849E-06
3.65 -4.09243706465964E-06 4.787636167651E-06 -0.487754868712774 0.582937083432199 -0.482907751920994 0.589394563524334 -6.04280727279962E-06 2.11188753909861E-06
3.7 -3.44752739594626E-06 4.69787603284719E-06 -0.383852420733327 0.626805635784091 -0.387720503784038 0.622118243707812 -5.61719970120343E-06 2.39949615127843E-06
3.75 -2.42162859352957E-06 4.88203492293941E-06 -0.29259245004518 0.685604288029395 -0.289970794546063 0.689442068387741 -4.8528314128764E-06 2.77772756853511E-06
3.8 -1.63255399426788E-06 4.47607077772458E-06 -0.199145829835283 0.712080822458119 -0.202028983601602 0.708582203440859 -3.88798420994736E-06 2.91209199909618E-06
3.85 -7.49207918938394E-07 3.94435476254355E-06 -0.0858648201069197 0.741610927262215 -0.0899000620129266 0.744719949280989 -2.83138283109155E-06 3.13811161063465E-06
3.9 -1.68333840329269E-07 3.20261389121449E-06 0.00711664209721538 0.734864913510301 0.00941791139989189 0.733497140396717 -2.06579831910088E-06 2.99830245785845E-06
3.95 3.3564944689363E-07 2.65428086667557E-06 0.121405075205877 0.73646403636224 0.119441758566761 0.73941203980111 -1.27430541464753E-06 2.51590006959736E-06
4 -7.67917964368605E-09 2.0552058595187E-06 0.220191015934795 0.713103174312113 0.223960410714618 0.712873246734152 -1.2335902061868E-06 1.68612440401057E-06
4.05 -2.5665147729947E-07 9.39249937450092E-07 0.308304462859123 0.656644829583529 0.309502346533737 0.655781565868798 -9.97614531169229E-07 8.55882047948197E-07
4.1 -6.55289996261197E-07 1.82956808564207E-07 0.395162700546456 0.600720559019959 0.395349193824914 0.600128028175627 -1.00310167979124E-06 -1.53442171517481E-07
4.15 -1.06832520928788E-06 -3.10349166262776E-07 0.505237613931675 0.573133250075888 0.50653638346915 0.572298700223523 -1.35483073488905E-06 -5.86361227231134E-07
4.2 -2.12533671007678E-06 -3.75049436741345E-07 0.564553088777558 0.489122134581768 0.561676927638999 0.489057233352058 -2.08766206077516E-06 -1.14689891481333E-06
4.25 -3.24587468408748E-06 -5.0549649573464E-07 0.609996060581976 0.383718101485989 0.610905276841832 0.385345584793854 -3.03316282217094E-06 -1.75840485918346E-06
4.3 -4.30572875413675E-06 -4.21082088196589E-07 0.671060402335755 0.306043243053836 0.669624687821565 0.304350492568407 -3.79323190126837E-06 -2.05268855937768E-06
4.35 -4.94427446181945E-06 -6.57609306503494E-08 0.710525665563953 0.213746336010171 0.710364797414934 0.220168489336069 -4.66720174067932E-06 -1.99592202698402E-06
4.4 -5.78703260790882E-06 9.08943340808437E-07 0.723427040938586 0.102595950328945 0.724091570769229 0.0963105103506117 -5.69823413832742E-06 -1.46218368640879E-06
4.45 -6.3147746829796E-06 1.99996667777241E-06 0.708470633173932 0.00488692674949063 0.70750649059617 0.0123360652871246 -6.58952809387743E-06 -7.7443748889113E-07
4.5 -6.55134432769336E-06 2.95003534897465E-06 0.712186827431192 -0.0942313706233706 0.71531008097331 -0.0979063154454757 -7.11526198568964E-06 -9.71706138706547E-08
4.55 -6.40952699165859E-06 4.17941119874559E-06 0.703699952488587 -0.195058348187659 0.701435326499177 -0.195538378154948 -7.43709456607887E-06 9.23453171958383E-07
4.6 -5.99772214443117E-06 5.45097303908211E-06 0.656179303728213 -0.296179312778502 0.65918295167374 -0.295805938017563 -7.58545971090744E-06 2.11334417906786E-06
4.65 -5.20953849971377E-06 6.51663952687273E-06 0.618263645655543 -0.376097249084877 0.616981456601832 -0.378750419352093 -7.19554688962556E-06 3.31832484488785E-06
4.7 -4.97525988097105E-06 7.09723076276939E-06 0.55463299922816 -0.456285844928384 0.554481807603534 -0.458526878880186 -7.29056789888141E-06 3.90967824599417E-06
4.75 -3.14258052549175E-06 7.38831834031263E-06 0.468419938441841 -0.539482487881348 0.466894939497335 -0.540329723012172 -6.10752168541382E-06 4.80425317700889E-06
4.8 -1.79366120329342E-06 7.56778204137778E-06 0.400102092871827 -0.576946541935595 0.401414739166901 -0.577749674938662 -5.13933693847757E-06 5.27271141954498E-06
4.85 -6.66462283403945E-07 8.07719590868019E-06 0.311764802647094 -0.647615897506054 0.306865563602722 -0.65103869128376 -4.65532234675538E-06 6.10842678209373E-06
4.9 5.33116086607786E-07 7.13576808234405E-06 0.219402012466888 -0.696611562242708 0.216512909527499 -0.695882874645348 -3.56011293764678E-06 5.93873529674458E-06
4.95 1.59724108161542E-06 6.27803341462914E-06 0.121793369587184 -0.705842420066862 0.122523706154384 -0.706230679148462 -2.65326263291066E-06 5.62135748907682E-06
5 2.45218974861245E-06 5.18879198675375E-06 0.0201890307281602 -0.700825823232627 0.0166366203326594 -0.701553240295751 -1.87960296147883E-06 5.05742568894492E-06
5.05 2.78897056635598E-06 4.12220626014759E-06 -0.0798932871145471 -0.712139026928364 -0.0821317517398114 -0.70981115185058 -1.30462615342481E-06 4.390737131371E-06
5.1 2.65723657302092E-06 2.72485012343798E-06 -0.189991946549256 -0.697499942494685 -0.184918751588424 -0.698204816979893 -1.06085816167855E-06 3.36563028854923E-06
5.15 2.15755249502764E-06 1.12226331455679E-06 -0.270772307417224 -0.656102699782308 -0.272411625448233 -0.658153471996405 -1.10366640621159E-06 2.46570963026874E-06
5.2 1.55938258455069E-06 6.36396103067893E-10 -0.351219258794055 -0.595353161927673 -0.354478381962502 -0.591857621803614 -1.60296864654303E-06 1.76236465715811E-06
5.25 4.55447477762255E-07 -8.87192736219138E-07 -0.44830795783944 -0.547399567616752 -0.442362341641763 -0.550934268170544 -2.18152341490987E-06 7.89046314990444E-07
5.3 -9.88591848641288E-07 -1.2186278266969E-06 -0.51902725926075 -0.482231149304949 -0.522711174260015 -0.483108414965075 -2.70749772302766E-06 3.54614050765053E-07
5.35 -2.53381815543263E-06 -9.39971186366901E-07 -0.569260410396195 -0.403982933465087 -0.567623828492404 -0.401773769602074 -3.79400971872767E-06 6.85851151344079E-07
5.4 -3.92222232029241E-06 -8.98831713837468E-07 -0.609391086063082 -0.308850748954655 -0.609817977459313 -0.311998156213576 -5.05516294724512E-06 6.57213326706023E-07
5.45 -5.37693895909187E-06 -1.44348778311422E-07 -0.683179956939189 -0.229634896281163 -0.681708324318756 -0.227387836523557 -6.08831666523679E-06 1.39509339500981E-06
5.5 -6.67068981022203E-06 1.10396339105969E-06 -0.680535382841699 -0.125870919459294 -0.682508563974911 -0.132223975394947 -6.9722142838556E-06 2.19235629079765E-06
5.55 -7.18492614577213E-06 2.42729958991468E-06 -0.672720886500186 -0.0448169732148605 -0.671807936702086 -0.0351778935525947 -7.33552574802924E-06 3.0954730717291E-06
5.6 -7.80405470124346E-06 4.52520055688143E-06 -0.697787121783904 0.0826477732116347 -0.69733604602546 0.0683401766521924 -8.10159109263112E-06 4.87417189553261E-06
5.65 -7.36222610008685E-06 5.45163771945642E-06 -0.667681785341501 0.161840884566933 -0.671610113030985 0.172561442364821 -7.83057120553794E-06 5.41198317116747E-06
5.7 -6.21964053663875E-06 6.85808724937208E-06 -0.621644401811601 0.230011390891679 -0.614453789816312 0.228484941273494 -6.78152172710522E-06 6.54140240634989E-06
5.75 -5.1821451830106E-06 9.4246727330449E-06 -0.573575999934257 0.349313043400087 -0.58128440636519 0.345044266906065 -5.87310164531485E-06 9.04784138721496E-06
5.8 -4.61319292473228E-06 9.8601797995777E-06 -0.56513042147765 0.435585508269046 -0.555986790018821 0.442637749123908 -5.38178971161082E-06 9.33446004990112E-06
