# GHZ S RI R 50
0.5 5.29904407607636E-06 -3.40111290682917E-06 0.000741639326279815 -0.00528921540075892 0.000743951558596782 -0.00528586652705371 5.42531920506065E-06 -1.16966775316754E-06
0.55 4.78593911137616E-06 -4.30807634865029E-06 1.18784255531371E-05 -0.0068320185453221 2.13382390898663E-05 -0.00683473546128077 5.44484949435703E-06 -1.69346417239929E-06
0.6 4.0722703792602E-06 -5.141500685228E-06 -0.000958675487492798 -0.00665440832121424 -0.000967157226911537 -0.00665324767564457 5.31392160275253E-06 -2.33019968672215E-06
0.65 3.26342507439653E-06 -5.88855899955159E-06 -0.00203172036798261 -0.00705355134766198 -0.00202454502955854 -0.00705224637316924 5.07443867810027E-06 -2.93545480714659E-06
0.7 2.3856510005028E-06 -6.45324033287154E-06 -0.00342766962422532 -0.00754177834297925 -0.00342932531663398 -0.00754383575080883 4.80083078018794E-06 -3.51027605170875E-06
0.75 1.3757186692053E-06 -6.72375110308227E-06 -0.00451821992674076 -0.00718212438588995 -0.00451391422678642 -0.00718129678476658 4.41609398054435E-06 -4.01107735841632E-06
0.8 2.25284220486033E-07 -6.8057754896999E-06 -0.00565257668850107 -0.00659010742964701 -0.00565708056108998 -0.00658697433787772 3.86513051877941E-06 -4.55900026102215E-06
0.85 -8.17867987391608E-07 -6.7526717704328E-06 -0.00712987707369042 -0.00631211933423571 -0.00711922679852528 -0.00631576202984123 3.32887487806316E-06 -5.02870301149313E-06
0.9 -1.71490365000486E-06 -6.57091704339661E-06 -0.0082364436314244 -0.00542779314639069 -0.00824217867694122 -0.00543484403304746 2.77758614717888E-06 -5.41236500882932E-06
0.95 -2.47811228321075E-06 -6.09726863708661E-06 -0.0093122701934252 -0.00438239136951495 -0.00930948221910564 -0.00437126505768395 2.17535744377792E-06 -5.61572891909857E-06
1 -3.10991219220093E-06 -5.51076598849924E-06 -0.0105167841947026 -0.00327947355248358 -0.0105150299735131 -0.00329662044336645 1.51745115242633E-06 -5.71900893555868E-06
1.05 -3.56241810575345E-06 -4.79189295047375E-06 -0.0114883498495241 -0.00182115743981477 -0.0114943171314773 -0.00180219609576964 7.59757952113699E-07 -5.63166710594652E-06
1.1 -3.84895191562587E-06 -3.98857722063896E-06 -0.0118453212975318 -0.000243749735648523 -0.0118366695341429 -0.000250114198135697 8.44851182161687E-08 -5.40731626641165E-06
1.15 -3.97616042556132E-06 -3.2069131004441E-06 -0.0123093212863557 0.00156124241435068 -0.0123097459046575 0.00156533790968157 -5.34035325423329E-07 -5.05950458288161E-06
1.2 -3.99248045007111E-06 -2.53790523262789E-06 -0.0127532109591395 0.00342980756815008 -0.0127480886184326 0.00342436151936024 -1.11983086722951E-06 -4.70439555736973E-06
1.25 -3.82619721940728E-06 -1.98605081631866E-06 -0.012244898552768 0.00527105705962519 -0.0122549762937185 0.00525810916222312 -1.63591982254633E-06 -4.20632368283755E-06
1.3 -3.54595665988743E-06 -1.54098366610422E-06 -0.0117649390513997 0.0071467389577425 -0.0117531604661887 0.00716357536227909 -1.99532805728782E-06 -3.64184033941632E-06
1.35 -3.22565143014554E-06 -1.23978446159E-06 -0.0109290378921831 0.00897100287379487 -0.0109398301529584 0.0089428559191137 -2.21447459091316E-06 -3.05499827957398E-06
1.4 -2.85693767016363E-06 -1.09772670924962E-06 -0.00989871478344395 0.0108204461132609 -0.00990511058235833 0.0108404482337732 -2.30953802657588E-06 -2.46042047154546E-06
1.45 -2.46695413820363E-06 -1.07360022587554E-06 -0.00839948761367102 0.012171882620656 -0.00836877324893377 0.0121707391256373 -2.20458923811217E-06 -1.84687805964552E-06
1.5 -2.08129809974448E-06 -1.14811513847697E-06 -0.00680539969421644 0.013819644643602 -0.00684263393324391 0.0138116581582335 -1.87183892902141E-06 -1.29140325661662E-06
1.55 -1.88487797806648E-06 -1.33056283015873E-06 -0.00484455457049783 0.0146278862763915 -0.00481702715472405 0.014634927525896 -1.53654303551837E-06 -8.79103434642364E-07
1.6 -1.69151255768321E-06 -1.64895887159141E-06 -0.00281090890901224 0.0156380772443692 -0.00285070779565419 0.0156297874962097 -9.67208939578207E-07 -5.79657854945484E-07
1.65 -1.72823968389804E-06 -1.94433151622865E-06 -0.000579153827407986 0.0162498659701348 -0.000542828793048372 0.0162625966858953 -4.30585603335736E-07 -3.94678720987084E-07
1.7 -1.88561336911892E-06 -2.30993400637335E-06 0.00172923993160594 0.016701551304085 0.00170867314719437 0.0166858563173673 1.68758104397982E-07 -4.20318412872908E-07
1.75 -2.17853942429326E-06 -2.66108323391058E-06 0.0042145066687074 0.0167835312890134 0.00423422265553151 0.0168031899272535 7.56745677225843E-07 -6.26185481147559E-07
1.8 -2.49723245057404E-06 -2.91135660804375E-06 0.00664897623378167 0.0164475635207572 0.00666595219069828 0.0164094247101382 1.22937584977093E-06 -9.52840529784496E-07
1.85 -2.95147784680827E-06 -3.02865148090697E-06 0.00903159469436068 0.0154610378067261 0.00900561762264733 0.0154896406175569 1.56165946838611E-06 -1.4826897830632E-06
1.9 -3.44325647098789E-06 -3.08705850103298E-06 0.0114199603721191 0.0145144714497511 0.0114732989186354 0.0144724745923685 1.7961502191632E-06 -2.09179156437729E-06
1.95 -4.01578668957902E-06 -3.04384013456686E-06 0.0135111892927707 0.0129376495244822 0.0134825714184806 0.0129365892166654 1.85506635617166E-06 -2.7670502561392E-06
2 -4.50513286643136E-06 -2.80229245811354E-06 0.0156069256995709 0.0110904285447354 0.0156236445819084 0.0110913287385284 1.71078828853836E-06 -3.42792639597177E-06
2.05 -5.0149851399381E-06 -2.37859407482655E-06 0.0174454749450612 0.00922076180973312 0.0174359270396803 0.00919026281640319 1.4044413466571E-06 -4.06101323930371E-06
2.1 -5.39183062790367E-06 -1.77301368528278E-06 0.0186935957684473 0.0064627883215673 0.0186799137081009 0.00645474952882474 8.5835692168235E-07 -4.54068619538941E-06
2.15 -5.81862613889224E-06 -1.08423511186458E-06 0.0197833759590682 0.00408642156355891 0.0197602473383059 0.0040939123321173 1.58052507730817E-07 -5.03592964279685E-06
2.2 -6.02197590702587E-06 -3.58262721755977E-07 0.0203392242345244 0.00111453918193665 0.0203342563626114 0.00111128690979615 -6.59532636948316E-07 -5.36197657960196E-06
2.25 -6.17113301144935E-06 2.55505964313947E-07 0.0207871636827839 -0.00176683570369925 0.0207448612413745 -0.00176561702250738 -1.35211544484929E-06 -5.54801637373215E-06
2.3 -5.93850902257461E-06 9.08222091891627E-07 0.0203234749031924 -0.00458148953632383 0.0203292739163809 -0.00449041640079857 -2.12426190776938E-06 -5.38598992589105E-06
2.35 -5.58471521567573E-06 1.5253000376975E-06 0.0191943521409372 -0.00739546673660955 0.0191820175289877 -0.00743992369416623 -2.84180558504624E-06 -4.99521443433612E-06
2.4 -5.08008139021414E-06 2.15803332763885E-06 0.0180710774786126 -0.00992730624860277 0.0180476336375975 -0.00985425054541476 -3.46659099476705E-06 -4.47082404540819E-06
2.45 -4.5277461412937E-06 2.68644008308393E-06 0.0166143632153041 -0.0126215030382436 0.0166504522482558 -0.0125989925271801 -3.98727614416157E-06 -3.86259907650276E-06
2.5 -3.84024036008164E-06 2.99909441745337E-06 0.0146584163196256 -0.014622048080455 0.0146573009278383 -0.0145763605796379 -4.30280133206264E-06 -3.20278359684198E-06
2.55 -3.10005512367119E-06 3.15160320801969E-06 0.0130817795472251 -0.0175743638232712 0.0131571250265332 -0.0175479470394578 -4.45983560602855E-06 -2.47494444483104E-06
2.6 -2.36579544208708E-06 3.11726610272528E-06 0.0108043788593289 -0.0196063578201852 0.0107955167714376 -0.019581323179371 -4.37016032403847E-06 -1.77567240678004E-06
2.65 -1.68939123733965E-06 2.86819481012012E-06 0.00793417655324757 -0.0211476540823478 0.00806729460685299 -0.0211121242619877 -4.19836166048138E-06 -1.19373766799913E-06
2.7 -1.13987027340834E-06 2.43425752064156E-06 0.00487775452384499 -0.0215011389244172 0.0048325350722261 -0.021541452772881 -3.8132147389047E-06 -7.84648110811464E-07
2.75 -6.82301475302524E-07 1.96626596858106E-06 0.00176534494059437 -0.0221194609047498 0.00179139521295885 -0.0220791957664628 -3.33832182465981E-06 -5.31320035383572E-07
2.8 -3.73621081043348E-07 1.35241242969739E-06 -0.0013939171653659 -0.0226542388248834 -0.0013579828444269 -0.0226940995647772 -2.77263639971057E-06 -3.79292077428465E-07
2.85 -2.82460874812778E-07 6.6345000851609E-07 -0.00452945238610432 -0.0223494742994466 -0.00456056240583124 -0.0223366263692947 -2.30689344721424E-06 -4.52619050637509E-07
2.9 -3.42225539958665E-07 -9.71706138706552E-08 -0.00772349000380674 -0.0215669576658921 -0.00768017296338514 -0.0215944069020054 -1.91541084887812E-06 -6.75131412541291E-07
2.95 -6.05170267610695E-07 -7.50254436974551E-07 -0.0107680312602322 -0.0206436094256081 -0.0108280309964982 -0.0206132647904628 -1.65202771502176E-06 -1.07517000292977E-06
3 -1.0904435094034E-06 -1.27498423715746E-06 -0.0139241371356399 -0.0191640869735302 -0.0138373263989829 -0.019193937714219 -1.54860627720541E-06 -1.50561418490927E-06
3.05 -1.80708209000034E-06 -1.71118426833582E-06 -0.016353859027062 -0.0171608517903804 -0.0164370691942436 -0.0171593040527786 -1.68636482031617E-06 -2.07527354996877E-06
3.1 -2.36392868018474E-06 -2.0387019872458E-06 -0.0188548298737678 -0.0148252403548902 -0.0187897742582952 -0.014758147320247 -1.94608514104599E-06 -2.54812999668384E-06
3.15 -3.06161679904589E-06 -2.12130620142402E-06 -0.0207132427354871 -0.0117148804294684 -0.0207031199763337 -0.0118745009822507 -2.23954859737403E-06 -3.00434114976978E-06
3.2 -3.82836096615771E-06 -1.67967559016615E-06 -0.0226134935001128 -0.00946847493342074 -0.0226431915216097 -0.00930925263723373 -2.90321073792448E-06 -2.92387239807075E-06
3.25 -4.72641486253588E-06 -1.3019391476563E-06 -0.0232095247789618 -0.00541826101988464 -0.023169869832564 -0.00561494485371849 -3.6889053667721E-06 -3.05398004580908E-06
3.3 -5.77499765049303E-06 -6.13754543934299E-07 -0.0248028378391382 -0.00276328764611486 -0.0248575760935025 -0.00256866537075853 -4.81082927007392E-06 -3.09497809698227E-06
3.35 -6.04378308015766E-06 -3.18381899297054E-07 -0.0248484983557215 0.000981770262688129 -0.0247710295224494 0.000720557103165257 -5.20791215411704E-06 -3.07465584809097E-06
3.4 -6.30510146221296E-06 4.07123800335966E-07 -0.0241902261824683 0.00455900632084139 -0.0243160480506505 0.00468833979740112 -5.70266062677765E-06 -2.61807699947882E-06
3.45 -5.85287839137292E-06 1.31551559785508E-06 -0.0237800032140661 0.00755808153957069 -0.0236158646429128 0.00746639804664733 -5.82254351046E-06 -1.47413379101084E-06
3.5 -5.75367130997245E-06 2.38072953730574E-06 -0.022285480375215 0.0115405186238842 -0.022583134590882 0.0113936612776622 -6.23258059073447E-06 -5.30924055586108E-07
3.55 -5.18378567074295E-06 3.46349386706545E-06 -0.0208440515283027 0.0137657627976958 -0.0206318016480357 0.0139616034647983 -6.48341965029258E-06 6.11081680301415E-07
3.6 -4.75393545845965E-06 4.20185476798045E-06 -0.0175539736474676 0.0164753111873296 -0.0178069417788513 0.0162590036446117 -6.4464238235009E-06 1.25652875016849E-06
3.65 -4.09243706465964E-06 4.787636167651E-06 -0.0161206146371381 0.0192664485431134 -0.0159604142846379 0.0194798724467374 -6.04280727279962E-06 2.11188753909861E-06
3.7 -3.44752739594626E-06 4.69787603284719E-06 -0.0130354525175197 0.0212860325001147 -0.0131668108474869 0.0211268508106398 -5.61719970120343E-06 2.39949615127843E-06
3.75 -2.42162859352957E-06 4.88203492293941E-06 -0.00987432484850504 0.0231375739752851 -0.00978584998172312 0.0232670902698774 -4.8528314128764E-06 2.77772756853511E-06
3.8 -1.63255399426788E-06 4.47607077772458E-06 -0.00682880976142917 0.0244176063106645 -0.00692767454107044 0.0242976369208141 -3.88798420994736E-06 2.91209199909618E-06
3.85 -7.49207918938394E-07 3.94435476254355E-06 -0.00293361553632034 0.025337516987892 -0.00307148164182818 0.0254437383167864 -2.83138283109155E-06 3.13811161063465E-06
3.9 -1.68333840329269E-07 3.20261389121449E-06 0.000239397771655074 0.0247202290572827 0.000316810508661274 0.0246742183360677 -2.06579831910088E-06 2.99830245785845E-06
3.95 3.3564944689363E-07 2.65428086667557E-06 0.00400958807213925 0.0243228498540943 0.00394474654088794 0.0244202121711562 -1.27430541464753E-06 2.51590006959736E-06
4 -7.67917964368605E-09 2.0552058595187E-06 0.00741779714205529 0.0240230268521463 0.00754478055101204 0.0240152810496055 -1.2335902061868E-06 1.68612440401057E-06
4.05 -2.5665147729947E-07 9.39249937450092E-07 0.0107103168086331 0.0228114575130367 0.0107519305872207 0.0227814682362406 -9.97614531169229E-07 8.55882047948197E-07
4.1 -6.55289996261197E-07 1.82956808564207E-07 0.0139218609998008 0.0211638095165192 0.0139284312897004 0.0211429342364346 -1.00310167979124E-06 -1.53442171517481E-07
4.15 -1.06832520928788E-06 -3.10349166262776E-07 0.0169308544524948 0.0192060831801656 0.0169743770988694 0.0191781168496824 -1.35483073488905E-06 -5.86361227231134E-07
4.2 -2.12533671007678E-06 -3.75049436741345E-07 0.0200213060583424 0.017346223324322 0.0199193059035777 0.0173439216676499 -2.08766206077516E-06 -1.14689891481333E-06
4.25 -3.24587468408748E-06 -5.0549649573464E-07 0.0213846494198667 0.0134520165072967 0.0214165238404085 0.0135090712363751 -3.03316282217094E-06 -1.75840485918346E-06
4.3 -4.30572875413675E-06 -4.21082088196589E-07 0.0234373450520095 0.0106888158850117 0.0233872015234268 0.0106296951604452 -3.79323190126837E-06 -2.05268855937768E-06
4.35 -4.94427446181945E-06 -6.57609306503494E-08 0.0246898381417376 0.0074274057859569 0.0246842481838318 0.00765056721955829 -4.66720174067932E-06 -1.99592202698402E-06
4.4 -5.78703260790882E-06 9.08943340808437E-07 0.0252339125352294 0.00357865699035866 0.0252570920497825 0.00335941408999247 -5.69823413832742E-06 -1.46218368640879E-06
4.45 -6.3147746829796E-06 1.99996667777241E-06 0.0247715519341655 0.000170870540153709 0.0247378408573492 0.000431328367915909 -6.58952809387743E-06 -7.7443748889113E-07
4.5 -6.55134432769336E-06 2.95003534897465E-06 0.0248281206687727 -0.00328507598077827 0.0249370029351052 -0.00341319120276771 -7.11526198568964E-06 -9.71706138706547E-08
4.55 -6.40952699165859E-06 4.17941119874559E-06 0.0245919981498301 -0.00681664752253572 0.0245128569221738 -0.00683342299058243 -7.43709456607887E-06 9.23453171958383E-07
4.6 -5.99772214443117E-06 5.45097303908211E-06 0.023175558419686 -0.010460739811513 0.0232816440856591 -0.0104475526101865 -7.58545971090744E-06 2.11334417906786E-06
4.65 -5.20953849971377E-06 6.51663952687273E-06 0.0216532359653904 -0.0131719251772183 0.0216083302971899 -0.013264846251029 -7.19554688962556E-06 3.31832484488785E-06
4.7 -4.97525988097105E-06 7.09723076276939E-06 0.0195117660424014 -0.0160519526733743 0.0195064471818009 -0.0161307913472748 -7.29056789888141E-06 3.90967824599417E-06
4.75 -3.14258052549175E-06 7.38831834031263E-06 0.0165929442796408 -0.0191102088673551 0.0165389239008395 -0.0191402206669473 -6.10752168541382E-06 4.80425317700889E-06
4.8 -1.79366120329342E-06 7.56778204137778E-06 0.0141754551143462 -0.0204409823249919 0.0142219616409761 -0.0204694370020322 -5.13933693847757E-06 5.27271141954498E-06
4.85 -6.66462283403945E-07 8.07719590868019E-06 0.0108794372921066 -0.0225993970020532 0.010708471989065 -0.0227188398318794 -4.65532234675538E-06 6.10842678209373E-06
4.9 5.33116086607786E-07 7.13576808234405E-06 0.00774296421055548 -0.0245842703740854 0.00764100424943762 -0.0245585541013694 -3.56011293764678E-06 5.93873529674458E-06
4.95 1.59724108161542E-06 6.27803341462914E-06 0.00423689713788751 -0.0245545528423871 0.00426230378294344 -0.024568059438002 -2.65326263291066E-06 5.62135748907682E-06
5 2.45218974861245E-06 5.18879198675375E-06 0.000701804213090783 -0.0243618686805721 0.000578316532292293 -0.0243871549048811 -1.87960296147883E-06 5.05742568894492E-06
5.05 2.78897056635598E-06 4.12220626014759E-06 -0.00281590244644895 -0.0250999063946916 -0.00289479891250039 -0.0250178585861297 -1.30462615342481E-06 4.390737131371E-06
5.1 2.65723657302092E-06 2.72485012343798E-06 -0.00655051919302682 -0.0240483180652188 -0.00637560619505785 -0.0240726206418695 -1.06085816167855E-06 3.36563028854923E-06
5.15 2.15755249502764E-06 1.12226331455679E-06 -0.00938897595265361 -0.0227502307362446 -0.00944581897961861 -0.0228213408552453 -1.10366640621159E-06 2.46570963026874E-06
5.2 1.55938258455069E-06 6.36396103067893E-10 -0.012465320351717 -0.0211300140866925 -0.0125809917260599 -0.0210059519051416 -1.60296864654303E-06 1.76236465715811E-06
5.25 4.55447477762255E-07 -8.87192736219138E-07 -0.0158442733870494 -0.0193464074183995 -0.0156341411178288 -0.0194713321736627 -2.18152341490987E-06 7.89046314990444E-07
5.3 -9.88591848641288E-07 -1.2186278266969E-06 -0.0181036997769977 -0.0168202494076471 -0.0182321949378215 -0.0168508484828444 -2.70749772302766E-06 3.54614050765053E-07
5.35 -2.53381815543263E-06 -9.39971186366901E-07 -0.0195042283338055 -0.0138414251779422 -0.0194481551086952 -0.013765733920261 -3.79400971872767E-06 6.85851151344079E-07
5.4 -3.92222232029241E-06 -8.98831713837468E-07 -0.0217229280441687 -0.0110095844021503 -0.0217381454165508 -0.0111217798427711 -5.05516294724512E-06 6.57213326706023E-07
5.45 -5.37693895909187E-06 -1.44348778311422E-07 -0.0236192716370145 -0.00793906340124849 -0.0235683935480734 -0.0078613768206332 -6.08831666523679E-06 1.39509339500981E-06
5.5 -6.67068981022203E-06 1.10396339105969E-06 -0.0235779743575455 -0.00436095078404211 -0.0236463376129098 -0.00458106011813344 -6.9722142838556E-06 2.19235629079765E-06
5.55 -7.18492614577213E-06 2.42729958991468E-06 -0.0234662837240098 -0.00156333455704437 -0.0234344376204951 -0.00122709796512015 -7.33552574802924E-06 3.0954730717291E-06
5.6 -7.80405470124346E-06 4.52520055688143E-06 -0.0242794622283822 0.00287572445135096 -0.0242637670736604 0.00237789246305655 -8.10159109263112E-06 4.87417189553261E-06
5.65 -7.36222610008685E-06 5.45163771945642E-06 -0.0235899194344784 0.00571801344885566 -0.0237287114994135 0.00609678234789864 -7.83057120553794E-06 5.41198317116747E-06
5.7 -6.21964053663875E-06 6.85808724937208E-06 -0.0213526637540179 0.00790058733737695 -0.0211056757337389 0.00784815581006076 -6.78152172710522E-06 6.54140240634989E-06
5.75 -5.1821451830106E-06 9.4246727330449E-06 -0.0195489559270721 0.011905493414931 -0.0198116783868744 0.0117600024537441 -5.87310164531485E-06 9.04784138721496E-06
5.8 -4.61319292473228E-06 9.8601797995777E-06 -0.0190675944801556 0.0146967275472271 -0.0187590868328818 0.0149346713274351 -5.38178971161082E-06 9.33446004990112E-06
