# GHZ S RI R 50
0.5 5.29904407607636E-06 -3.40111290682917E-06 0.131586092123425 -0.938444281907335 0.13199634223273 -0.937850104672838 5.42531920506065E-06 -1.16966775316754E-06
0.55 4.78593911137616E-06 -4.30807634865029E-06 0.00141253186053835 -0.812434596141208 0.00253745266385584 -0.812757680234875 5.44484949435703E-06 -1.69346417239929E-06
0.6 4.0722703792602E-06 -5.141500685228E-06 -0.119548234518038 -0.829814443930153 -0.120605919820709 -0.829669709731183 5.31392160275253E-06 -2.33019968672215E-06
0.65 3.26342507439653E-06 -5.88855899955159E-06 -0.25221411233191 -0.875615178138206 -0.251323378725146 -0.875453180951738 5.07443867810027E-06 -2.93545480714659E-06
0.7 2.3856510005028E-06 -6.45324033287154E-06 -0.36641858589625 -0.806217651796585 -0.366595579754343 -0.806437589115574 4.80083078018794E-06 -3.51027605170875E-06
0.75 1.3757186692053E-06 -6.72375110308227E-06 -0.463987267359611 -0.737550256888392 -0.46354510429799 -0.737465268465977 4.41609398054435E-06 -4.01107735841632E-06
0.8 2.25284220486033E-07 -6.8057754896999E-06 -0.556634320219453 -0.648957134316646 -0.557077836547499 -0.648648604861269 3.86513051877941E-06 -4.55900026102215E-06
0.85 -8.17867987391608E-07 -6.7526717704328E-06 -0.662974793102093 -0.586935225726775 -0.66198447252558 -0.587273943398965 3.32887487806316E-06 -5.02870301149313E-06
0.9 -1.71490365000486E-06 -6.57091704339661E-06 -0.721329036886783 -0.475353802916707 -0.721831299154854 -0.475971303564914 2.77758614717888E-06 -5.41236500882932E-06
0.95 -2.47811228321075E-06 -6.09726863708661E-06 -0.776847822068418 -0.365587673053429 -0.776615243789099 -0.364659494324286 2.17535744377792E-06 -5.61572891909857E-06
1 -3.10991219220093E-06 -5.51076598849924E-06 -0.813130237832837 -0.253560314667356 -0.812994606040208 -0.254886067407315 1.51745115242633E-06 -5.71900893555868E-06
1.05 -3.56241810575345E-06 -4.79189295047375E-06 -0.850693602635661 -0.134853743464902 -0.851135470149209 -0.133449686808564 7.59757952113699E-07 -5.63166710594652E-06
1.1 -3.84895191562587E-06 -3.98857722063896E-06 -0.876405730412394 -0.0180344339966012 -0.875765608053386 -0.0185053246761065 8.44851182161687E-08 -5.40731626641165E-06
1.15 -3.97616042556132E-06 -3.2069131004441E-06 -0.856576340438595 0.108643139837806 -0.856605888614535 0.108928135600059 -5.34035325423329E-07 -5.05950458288161E-06
1.2 -3.99248045007111E-06 -2.53790523262789E-06 -0.829521135842132 0.223088748297768 -0.829187957798191 0.222734514952733 -1.11983086722951E-06 -4.70439555736973E-06
1.25 -3.82619721940728E-06 -1.98605081631866E-06 -0.807705036942213 0.347692495672549 -0.808369790683673 0.346838419021411 -1.63591982254633E-06 -4.20632368283755E-06
1.3 -3.54595665988743E-06 -1.54098366610422E-06 -0.744955847082554 0.452531453914292 -0.744210027160751 0.453597534915527 -1.99532805728782E-06 -3.64184033941632E-06
1.35 -3.22565143014554E-06 -1.23978446159E-06 -0.656498937434432 0.538881273216184 -0.657147220275187 0.5371905072016 -2.21447459091316E-06 -3.05499827957398E-06
1.4 -2.85693767016363E-06 -1.09772670924962E-06 -0.580884670291669 0.634974480063107 -0.581259993919525 0.636148261249162 -2.30953802657588E-06 -2.46042047154546E-06
1.45 -2.46695413820363E-06 -1.07360022587554E-06 -0.489228635450813 0.708951997938411 -0.487439675523699 0.708885395005781 -2.20458923811217E-06 -1.84687805964552E-06
1.5 -2.08129809974448E-06 -1.14811513847697E-06 -0.370494603520619 0.752359008006319 -0.372521682787925 0.75192421359848 -1.87183892902141E-06 -1.29140325661662E-06
1.55 -1.88487797806648E-06 -1.33056283015873E-06 -0.267264363557004 0.806991160684204 -0.265745731214218 0.807379612303454 -1.53654303551837E-06 -8.79103434642364E-07
1.6 -1.69151255768321E-06 -1.64895887159141E-06 -0.147286185512627 0.819404975625602 -0.149371570130517 0.818970608869225 -9.67208939578207E-07 -5.79657854945484E-07
1.65 -1.72823968389804E-06 -1.94433151622865E-06 -0.0296181683783455 0.831024925766317 -0.0277604909650279 0.831675979882039 -4.30585603335736E-07 -3.94678720987084E-07
1.7 -1.88561336911892E-06 -2.30993400637335E-06 0.0857768186248193 0.828459897773213 0.0847566285957071 0.827681367272966 1.68758104397982E-07 -4.20318412872908E-07
1.75 -2.17853942429326E-06 -2.66108323391058E-06 0.20068295789698 0.799184570769407 0.201621777755327 0.800120659849423 7.56745677225843E-07 -6.26185481147559E-07
1.8 -2.49723245057404E-06 -2.91135660804375E-06 0.309476642858498 0.765551953057707 0.310266788885667 0.763776781864733 1.22937584977093E-06 -9.52840529784496E-07
1.85 -2.95147784680827E-06 -3.02865148090697E-06 0.416843600089022 0.713587675108177 0.415644656108562 0.714907807271195 1.56165946838611E-06 -1.4826897830632E-06
1.9 -3.44325647098789E-06 -3.08705850103298E-06 0.509780999468983 0.647918339583971 0.512162004014299 0.646043622051384 1.7961502191632E-06 -2.09179156437729E-06
1.95 -4.01578668957902E-06 -3.04384013456686E-06 0.584287886200972 0.559485307271463 0.583050313629515 0.559439454534181 1.85506635617166E-06 -2.7670502561392E-06
2 -4.50513286643136E-06 -2.80229245811354E-06 0.669358152024324 0.475652213559652 0.670075200365604 0.475690821551085 1.71078828853836E-06 -3.42792639597177E-06
2.05 -5.0149851399381E-06 -2.37859407482655E-06 0.719498348390409 0.380289038498349 0.719104567070395 0.379031177912864 1.4044413466571E-06 -4.06101323930371E-06
2.1 -5.39183062790367E-06 -1.77301368528278E-06 0.758987664165041 0.262398774047466 0.758432152258617 0.262072387160644 8.5835692168235E-07 -4.54068619538941E-06
2.15 -5.81862613889224E-06 -1.08423511186458E-06 0.781763110253894 0.161479700832964 0.780849155904525 0.161775707264754 1.58052507730817E-07 -5.03592964279685E-06
2.2 -6.02197590702587E-06 -3.58262721755977E-07 0.802182460922657 0.0439576147768242 0.801986527210005 0.0438293446108051 -6.59532636948316E-07 -5.36197657960196E-06
2.25 -6.17113301144935E-06 2.55505964313947E-07 0.809473091630703 -0.0688023619432721 0.807825791953183 -0.068754905270147 -1.35211544484929E-06 -5.54801637373215E-06
2.3 -5.93850902257461E-06 9.08222091891627E-07 0.78171673012076 -0.176221194282823 0.78193978182079 -0.172718181434687 -2.12426190776938E-06 -5.38598992589105E-06
2.35 -5.58471521567573E-06 1.5253000376975E-06 0.752100396977943 -0.289779692880513 0.751617084674633 -0.291521668602398 -2.84180558504624E-06 -4.99521443433612E-06
2.4 -5.08008139021414E-06 2.15803332763885E-06 0.705963051981528 -0.387819233552253 0.705047197043005 -0.384965246165595 -3.46659099476705E-06 -4.47082404540819E-06
2.45 -4.5277461412937E-06 2.68644008308393E-06 0.633460151176663 -0.481223331828799 0.634836127130309 -0.480365067713795 -3.98727614416157E-06 -3.86259907650276E-06
2.5 -3.84024036008164E-06 2.99909441745337E-06 0.563434487612818 -0.562036579424398 0.563391614618459 -0.560280461092657 -4.30280133206264E-06 -3.20278359684198E-06
2.55 -3.10005512367119E-06 3.15160320801969E-06 0.472262537628944 -0.634448365868765 0.474982568732394 -0.633494699181853 -4.45983560602855E-06 -2.47494444483104E-06
2.6 -2.36579544208708E-06 3.11726610272528E-06 0.382601061479894 -0.694293805449122 0.382287240178523 -0.693407287096333 -4.37016032403847E-06 -1.77567240678004E-06
2.65 -1.68939123733965E-06 2.86819481012012E-06 0.277668499792577 -0.740094116102619 0.282327167266368 -0.738850696341149 -4.19836166048138E-06 -1.19373766799913E-06
2.7 -1.13987027340834E-06 2.43425752064156E-06 0.172563211912225 -0.760658531385802 0.17096345657929 -0.762084738289296 -3.8132147389047E-06 -7.84648110811464E-07
2.75 -6.82301475302524E-07 1.96626596858106E-06 0.0629227490676768 -0.78841095358579 0.0638512671796006 -0.786975770503806 -3.33832182465981E-06 -5.31320035383572E-07
2.8 -3.73621081043348E-07 1.35241242969739E-06 -0.0479257486717932 -0.778899480721397 -0.0466902525628391 -0.780269975216688 -2.77263639971057E-06 -3.79292077428465E-07
2.85 -2.82460874812778E-07 6.6345000851609E-07 -0.155319499095514 -0.766386056709098 -0.156386293107006 -0.765945488202026 -2.30689344721424E-06 -4.52619050637509E-07
2.9 -3.42225539958665E-07 -9.71706138706552E-08 -0.26332887708116 -0.735315607506078 -0.261852002299542 -0.736251476720501 -1.91541084887812E-06 -6.75131412541291E-07
2.95 -6.05170267610695E-07 -7.50254436974551E-07 -0.361298100068198 -0.692651858429072 -0.363311262009655 -0.691633709543698 -1.65202771502176E-06 -1.07517000292977E-06
3 -1.0904435094034E-06 -1.27498423715746E-06 -0.462026333749103 -0.635896699219214 -0.459145807221892 -0.636887197096804 -1.54860627720541E-06 -1.50561418490927E-06
3.05 -1.80708209000034E-06 -1.71118426833582E-06 -0.539091791113431 -0.565693657588678 -0.541834747255499 -0.565642637665211 -1.68636482031617E-06 -2.07527354996877E-06
3.1 -2.36392868018474E-06 -2.0387019872458E-06 -0.612588222972991 -0.481667970750818 -0.610474583966773 -0.479488136557611 -1.94608514104599E-06 -2.54812999668384E-06
3.15 -3.06161679904589E-06 -2.12130620142402E-06 -0.667694752323793 -0.377631078182447 -0.667368443534191 -0.382776472692463 -2.23954859737403E-06 -3.00434114976978E-06
3.2 -3.82836096615771E-06 -1.67967559016615E-06 -0.721339523432352 -0.302031404217611 -0.722286849712272 -0.296952430672423 -2.90321073792448E-06 -2.92387239807075E-06
3.25 -4.72641486253588E-06 -1.3019391476563E-06 -0.751960787760373 -0.175545163617349 -0.75067601502091 -0.18191748412102 -3.6889053667721E-06 -3.05398004580908E-06
3.3 -5.77499765049303E-06 -6.13754543934299E-07 -0.779689840953468 -0.0868653546534187 -0.78141056586068 -0.0807473042955227 -4.81082927007392E-06 -3.09497809698227E-06
3.35 -6.04378308015766E-06 -3.18381899297054E-07 -0.780213032130736 0.0308264082014968 -0.777780603722482 0.0226246284276755 -5.20791215411704E-06 -3.07465584809097E-06
3.4 -6.30510146221296E-06 4.07123800335966E-07 -0.753852946480702 0.142074750441202 -0.757774000601708 0.146105238690783 -5.70266062677765E-06 -2.61807699947882E-06
3.45 -5.85287839137292E-06 1.31551559785508E-06 -0.739225273302262 0.234950552421502 -0.734122861034779 0.232100479000423 -5.82254351046E-06 -1.47413379101084E-06
3.5 -5.75367130997245E-06 2.38072953730574E-06 -0.670303979566481 0.347116392808565 -0.679256840439889 0.342699208976589 -6.23258059073447E-06 -5.30924055586108E-07
3.55 -5.18378567074295E-06 3.46349386706545E-06 -0.645829215896622 0.426516494731516 -0.639252894898719 0.432584394933343 -6.48341965029258E-06 6.11081680301415E-07
3.6 -4.75393545845965E-06 4.20185476798045E-06 -0.55329828173439 0.519299023346997 -0.561271794469403 0.512481046168977 -6.4464238235009E-06 1.25652875016849E-06
3.65 -4.09243706465964E-06 4.787636167651E-06 -0.492016352124059 0.588030167828106 -0.48712688637971 0.594544066515024 -6.04280727279962E-06 2.11188753909861E-06
3.7 -3.44752739594626E-06 4.69787603284719E-06 -0.388113993026499 0.633764501708547 -0.392025019965711 0.629025069683786 -5.61719970120343E-06 2.39949615127843E-06
3.75 -2.42162859352957E-06 4.88203492293941E-06 -0.296092264661986 0.693805073484452 -0.29343925049919 0.697688759059396 -4.8528314128764E-06 2.77772756853511E-06
3.8 -1.63255399426788E-06 4.47607077772458E-06 -0.202929977964418 0.72561170740975 -0.205867917115598 0.722046608001613 -3.88798420994736E-06 2.91209199909618E-06
3.85 -7.49207918938394E-07 3.94435476254355E-06 -0.0853239161870631 0.736939162305798 -0.0893337381578532 0.740028599095198 -2.83138283109155E-06 3.13811161063465E-06
3.9 -1.68333840329269E-07 3.20261389121449E-06 0.00732467858456697 0.756346774364936 0.00969321949871966 0.754939017968483 -2.06579831910088E-06 2.99830245785845E-06
3.95 3.3564944689363E-07 2.65428086667557E-06 0.120561843480108 0.731348847896723 0.118612163263317 0.734276375667479 -1.27430541464753E-06 2.51590006959736E-06
4 -7.67917964368605E-09 2.0552058595187E-06 0.22108069816251 0.715984469073479 0.224865323189265 0.715753612472693 -1.2335902061868E-06 1.68612440401057E-06
4.05 -2.5665147729947E-07 9.39249937450092E-07 0.316434625184123 0.67396092356698 0.317664097725894 0.673074895101895 -9.97614531169229E-07 8.55882047948197E-07
4.1 -6.55289996261197E-07 1.82956808564207E-07 0.406210136295211 0.617514709301735 0.406401843305908 0.616905613264324 -1.00310167979124E-06 -1.53442171517481E-07
4.15 -1.06832520928788E-06 -3.10349166262776E-07 0.49813280515287 0.565073671702701 0.499413310988361 0.564250857550438 -1.35483073488905E-06 -5.86361227231134E-07
4.2 -2.12533671007678E-06 -3.75049436741345E-07 0.568548368407845 0.492583597710503 0.565651852995722 0.492518237181984 -2.08766206077516E-06 -1.14689891481333E-06
4.25 -3.24587468408748E-06 -5.0549649573464E-07 0.629714746758017 0.396122143597424 0.630653354273412 0.397802236806694 -3.03316282217094E-06 -1.75840485918346E-06
4.3 -4.30572875413675E-06 -4.21082088196589E-07 0.668717070547462 0.30497454512807 0.667286369524529 0.303287705699243 -3.79323190126837E-06 -2.05268855937768E-06
4.35 -4.94427446181945E-06 -6.57609306503494E-08 0.701054791173925 0.210897227529235 0.700896067299359 0.217233777462587 -4.66720174067932E-06 -1.99592202698402E-06
4.4 -5.78703260790882E-06 9.08943340808437E-07 0.731780501873912 0.103780632701453 0.732452705075422 0.0974226143228814 -5.69823413832742E-06 -1.46218368640879E-06
4.45 -6.3147746829796E-06 1.99996667777241E-06 0.728947665546525 0.00502817432217194 0.727955656212044 0.0126926164219305 -6.58952809387743E-06 -7.7443748889113E-07
4.5 -6.55134432769336E-06 2.95003534897465E-06 0.713838500612558 -0.0944499079814166 0.716968997470496 -0.0981333755781251 -7.11526198568964E-06 -9.71706138706547E-08
4.55 -6.40952699165859E-06 4.17941119874559E-06 0.704502402812998 -0.19528077911753 0.702235194402126 -0.1957613564775 -7.43709456607887E-06 9.23453171958383E-07
4.6 -5.99772214443117E-06 5.45097303908211E-06 0.668075417308894 -0.301548855409673 0.671133519481967 -0.301168711601708 -7.58545971090744E-06 2.11334417906786E-06
4.65 -5.20953849971377E-06 6.51663952687273E-06 0.610774657303053 -0.371541606944841 0.60950799932408 -0.374162639528776 -7.19554688962556E-06 3.31832484488785E-06
4.7 -4.97525988097105E-06 7.09723076276939E-06 0.556277930880239 -0.457639098394663 0.556126290851191 -0.459886778809416 -7.29056789888141E-06 3.90967824599417E-06
4.75 -3.14258052549175E-06 7.38831834031263E-06 0.477794387148264 -0.550279105394001 0.476238868528549 -0.551143296170016 -6.10752168541382E-06 4.80425317700889E-06
4.8 -1.79366120329342E-06 7.56778204137778E-06 0.399310476081664 -0.575805031861642 0.40062052525749 -0.576606575836355 -5.13933693847757E-06 5.27271141954498E-06
4.85 -6.66462283403945E-07 8.07719590868019E-06 0.311897576674715 -0.647891703403107 0.30699625114818 -0.651315954876203 -4.65532234675538E-06 6.10842678209373E-06
4.9 5.33116086607786E-07 7.13576808234405E-06 0.220050975816239 -0.698672050966336 0.217153327276473 -0.697941208003405 -3.56011293764678E-06 5.93873529674458E-06
4.95 1.59724108161542E-06 6.27803341462914E-06 0.123385534884802 -0.715069669552008 0.124125418905545 -0.715463004218907 -2.65326263291066E-06 5.62135748907682E-06
5 2.45218974861245E-06 5.18879198675375E-06 0.0200350260446686 -0.695479828145348 0.0165097139207965 -0.696201696371776 -1.87960296147883E-06 5.05742568894492E-06
5.05 2.78897056635598E-06 4.12220626014759E-06 -0.0810199314083966 -0.722181514853113 -0.0832899625580602 -0.719820812396861 -1.30462615342481E-06 4.390737131371E-06
5.1 2.65723657302092E-06 2.72485012343798E-06 -0.190045690334218 -0.697697247104706 -0.184971060298353 -0.698402320980591 -1.06085816167855E-06 3.36563028854923E-06
5.15 2.15755249502764E-06 1.12226331455679E-06 -0.265296224392504 -0.64283371784312 -0.26690238895325 -0.644843015362052 -1.10366640621159E-06 2.46570963026874E-06
5.2 1.55938258455069E-06 6.36396103067893E-10 -0.35766320880495 -0.606276327210417 -0.360982128315001 -0.602716653115179 -1.60296864654303E-06 1.76236465715811E-06
5.25 4.55447477762255E-07 -8.87192736219138E-07 -0.446943331585903 -0.545733311624455 -0.441015813536642 -0.549257252732447 -2.18152341490987E-06 7.89046314990444E-07
5.3 -9.88591848641288E-07 -1.2186278266969E-06 -0.528295807288029 -0.490842609469775 -0.53204550793244 -0.491735540933109 -2.70749772302766E-06 3.54614050765053E-07
5.35 -2.53381815543263E-06 -9.39971186366901E-07 -0.578481397898615 -0.410526725221271 -0.576818306332453 -0.408281776905309 -3.79400971872767E-06 6.85851151344079E-07
5.4 -3.92222232029241E-06 -8.98831713837468E-07 -0.624289647644374 -0.316401617367346 -0.624726975799365 -0.319625973308223 -5.05516294724512E-06 6.57213326706023E-07
5.45 -5.37693895909187E-06 -1.44348778311422E-07 -0.67662183212394 -0.227430536658999 -0.675164326309056 -0.225205047350303 -6.08831666523679E-06 1.39509339500981E-06
5.5 -6.67068981022203E-06 1.10396339105969E-06 -0.687802163464818 -0.127214973540246 -0.689796414295192 -0.13363586762941 -6.9722142838556E-06 2.19235629079765E-06
5.55 -7.18492614577213E-06 2.42729958991468E-06 -0.696860376873081 -0.0464251571068321 -0.695914667362441 -0.0364401948127346 -7.33552574802924E-06 3.0954730717291E-06
5.6 -7.80405470124346E-06 4.52520055688143E-06 -0.693668293423214 0.0821599281631597 -0.693219880229855 0.0679367850604273 -8.10159109263112E-06 4.87417189553261E-06
5.65 -7.36222610008685E-06 5.45163771945642E-06 -0.690741161121297 0.167430298350109 -0.694805159404717 0.178521106432276 -7.83057120553794E-06 5.41198317116747E-06
5.7 -6.21964053663875E-06 6.85808724937208E-06 -0.651843440483225 0.241185179102768 -0.644303513720385 0.239584575658191 -6.78152172710522E-06 6.54140240634989E-06
5.75 -5.1821451830106E-06 9.4246727330449E-06 -0.589293376887661 0.358885070086157 -0.597213012396517 0.354499318737374 -5.87310164531485E-06 9.04784138721496E-06
5.8 -4.61319292473228E-06 9.8601797995777E-06 -0.554367839922263 0.427290034553735 -0.545398343628607 0.434207969566151 -5.38178971161082E-06 9.33446004990112E-06
