# GHZ S RI R 50
0.5 0.0001 0.0001 0.959355691090584 0 0.959355691090584 0 0.0001 0.0001
0.55 0.0001 0.0001 0.821519942886811 0 0.821519942886811 0 0.0001 0.0001
0.6 0.0001 0.0001 0.849413777245031 0 0.849413777245031 0 0.0001 0.0001
0.65 0.0001 0.0001 0.922857446058134 0 0.922857446058134 0 0.0001 0.0001
0.7 0.0001 0.0001 0.898267260326515 0 0.898267260326515 0 0.0001 0.0001
0.75 0.0001 0.0001 0.884215245471009 0 0.884215245471009 0 0.0001 0.0001
0.8 0.0001 0.0001 0.866701691517369 0 0.866701691517369 0 0.0001 0.0001
0.85 0.0001 0.0001 0.900895535371947 0 0.900895535371947 0 0.0001 0.0001
0.9 0.0001 0.0001 0.876433719523391 0 0.876433719523391 0 0.0001 0.0001
0.95 0.0001 0.0001 0.873876809444969 0 0.873876809444969 0 0.0001 0.0001
1 0.0001 0.0001 0.865746619231371 0 0.865746619231371 0 0.0001 0.0001
1.05 0.0001 0.0001 0.877043444435739 0 0.877043444435739 0 0.0001 0.0001
1.1 0.0001 0.0001 0.89220260250019 0 0.89220260250019 0 0.0001 0.0001
1.15 0.0001 0.0001 0.879109877011061 0 0.879109877011061 0 0.0001 0.0001
1.2 0.0001 0.0001 0.876259947624812 0 0.876259947624812 0 0.0001 0.0001
1.25 0.0001 0.0001 0.89575070093221 0 0.89575070093221 0 0.0001 0.0001
1.3 0.0001 0.0001 0.890081939356609 0 0.890081939356609 0 0.0001 0.0001
1.35 0.0001 0.0001 0.865842820594257 0 0.865842820594257 0 0.0001 0.0001
1.4 0.0001 0.0001 0.87976319145004 0 0.87976319145004 0 0.0001 0.0001
1.45 0.0001 0.0001 0.879072620083192 0 0.879072620083192 0 0.0001 0.0001
1.5 0.0001 0.0001 0.856706100733862 0 0.856706100733862 0 0.0001 0.0001
1.55 0.0001 0.0001 0.869695260962806 0 0.869695260962806 0 0.0001 0.0001
1.6 0.0001 0.0001 0.850861504391937 0 0.850861504391937 0 0.0001 0.0001
1.65 0.0001 0.0001 0.851153962468721 0 0.851153962468721 0 0.0001 0.0001
1.7 0.0001 0.0001 0.85259323492033 0 0.85259323492033 0 0.0001 0.0001
1.75 0.0001 0.0001 0.843866462904492 0 0.843866462904492 0 0.0001 0.0001
1.8 0.0001 0.0001 0.846190243727838 0 0.846190243727838 0 0.0001 0.0001
1.85 0.0001 0.0001 0.846311032937771 0 0.846311032937771 0 0.0001 0.0001
1.9 0.0001 0.0001 0.846922118788288 0 0.846922118788288 0 0.0001 0.0001
1.95 0.0001 0.0001 0.828069134424299 0 0.828069134424299 0 0.0001 0.0001
2 0.0001 0.0001 0.844491546164112 0 0.844491546164112 0 0.0001 0.0001
2.05 0.0001 0.0001 0.834643960249493 0 0.834643960249493 0 0.0001 0.0001
2.1 0.0001 0.0001 0.824488163762392 0 0.824488163762392 0 0.0001 0.0001
2.15 0.0001 0.0001 0.822215313980714 0 0.822215313980714 0 0.0001 0.0001
2.2 0.0001 0.0001 0.823387929229967 0 0.823387929229967 0 0.0001 0.0001
2.25 0.0001 0.0001 0.838381886939115 0 0.838381886939115 0 0.0001 0.0001
2.3 0.0001 0.0001 0.822863388388354 0 0.822863388388354 0 0.0001 0.0001
2.35 0.0001 0.0001 0.831357623814298 0 0.831357623814298 0 0.0001 0.0001
2.4 0.0001 0.0001 0.828780968575527 0 0.828780968575527 0 0.0001 0.0001
2.45 0.0001 0.0001 0.820295766955088 0 0.820295766955088 0 0.0001 0.0001
2.5 0.0001 0.0001 0.820499699553003 0 0.820499699553003 0 0.0001 0.0001
2.55 0.0001 0.0001 0.815544240521082 0 0.815544240521082 0 0.0001 0.0001
2.6 0.0001 0.0001 0.818415206272155 0 0.818415206272155 0 0.0001 0.0001
2.65 0.0001 0.0001 0.815703822369579 0 0.815703822369579 0 0.0001 0.0001
2.7 0.0001 0.0001 0.806432906996163 0 0.806432906996163 0 0.0001 0.0001
2.75 0.0001 0.0001 0.815863435444299 0 0.815863435444299 0 0.0001 0.0001
2.8 0.0001 0.0001 0.807538148532493 0 0.807538148532493 0 0.0001 0.0001
2.85 0.0001 0.0001 0.808057178788453 0 0.808057178788453 0 0.0001 0.0001
2.9 0.0001 0.0001 0.808129933525516 0 0.808129933525516 0 0.0001 0.0001
2.95 0.0001 0.0001 0.808055049480177 0 0.808055049480177 0 0.0001 0.0001
3 0.0001 0.0001 0.812919837855354 0 0.812919837855354 0 0.0001 0.0001
3.05 0.0001 0.0001 0.811702060471917 0 0.811702060471917 0 0.0001 0.0001
3.1 0.0001 0.0001 0.80360820980561 0 0.80360820980561 0 0.0001 0.0001
3.15 0.0001 0.0001 0.798615512630513 0 0.798615512630513 0 0.0001 0.0001
3.2 0.0001 0.0001 0.810786052339204 0 0.810786052339204 0 0.0001 0.0001
3.25 0.0001 0.0001 0.79887317165745 0 0.79887317165745 0 0.0001 0.0001
3.3 0.0001 0.0001 0.820909699771103 0 0.820909699771103 0 0.0001 0.0001
3.35 0.0001 0.0001 0.804690495823907 0 0.804690495823907 0 0.0001 0.0001
3.4 0.0001 0.0001 0.803675004823821 0 0.803675004823821 0 0.0001 0.0001
3.45 0.0001 0.0001 0.802220466070676 0 0.802220466070676 0 0.0001 0.0001
3.5 0.0001 0.0001 0.788050087446768 0 0.788050087446768 0 0.0001 0.0001
3.55 0.0001 0.0001 0.806936537154397 0 0.806936537154397 0 0.0001 0.0001
3.6 0.0001 0.0001 0.786478034646931 0 0.786478034646931 0 0.0001 0.0001
3.65 0.0001 0.0001 0.804078646010429 0 0.804078646010429 0 0.0001 0.0001
3.7 0.0001 0.0001 0.768908433353019 0 0.768908433353019 0 0.0001 0.0001
3.75 0.0001 0.0001 0.78984973972055 0 0.78984973972055 0 0.0001 0.0001
3.8 0.0001 0.0001 0.781568989575852 0 0.781568989575852 0 0.0001 0.0001
3.85 0.0001 0.0001 0.773174515142279 0 0.773174515142279 0 0.0001 0.0001
3.9 0.0001 0.0001 0.788606256084429 0 0.788606256084429 0 0.0001 0.0001
3.95 0.0001 0.0001 0.771428577028674 0 0.771428577028674 0 0.0001 0.0001
4 0.0001 0.0001 0.782673324254439 0 0.782673324254439 0 0.0001 0.0001
4.05 0.0001 0.0001 0.776622827376728 0 0.776622827376728 0 0.0001 0.0001
4.1 0.0001 0.0001 0.770820842612733 0 0.770820842612733 0 0.0001 0.0001
4.15 0.0001 0.0001 0.787468476156503 0 0.787468476156503 0 0.0001 0.0001
4.2 0.0001 0.0001 0.785183527639395 0 0.785183527639395 0 0.0001 0.0001
4.25 0.0001 0.0001 0.775845043684191 0 0.775845043684191 0 0.0001 0.0001
4.3 0.0001 0.0001 0.770800530984046 0 0.770800530984046 0 0.0001 0.0001
4.35 0.0001 0.0001 0.763651622690928 0 0.763651622690928 0 0.0001 0.0001
4.4 0.0001 0.0001 0.772549119147391 0 0.772549119147391 0 0.0001 0.0001
4.45 0.0001 0.0001 0.764132377800938 0 0.764132377800938 0 0.0001 0.0001
4.5 0.0001 0.0001 0.753998780783204 0 0.753998780783204 0 0.0001 0.0001
4.55 0.0001 0.0001 0.763667721244792 0 0.763667721244792 0 0.0001 0.0001
4.6 0.0001 0.0001 0.767234008193381 0 0.767234008193381 0 0.0001 0.0001
4.65 0.0001 0.0001 0.752982524156121 0 0.752982524156121 0 0.0001 0.0001
4.7 0.0001 0.0001 0.7477150038925 0 0.7477150038925 0 0.0001 0.0001
4.75 0.0001 0.0001 0.76531525497714 0 0.76531525497714 0 0.0001 0.0001
4.8 0.0001 0.0001 0.737223875904514 0 0.737223875904514 0 0.0001 0.0001
4.85 0.0001 0.0001 0.747809912864797 0 0.747809912864797 0 0.0001 0.0001
4.9 0.0001 0.0001 0.770998253586978 0 0.770998253586978 0 0.0001 0.0001
4.95 0.0001 0.0001 0.760699099364556 0 0.760699099364556 0 0.0001 0.0001
5 0.0001 0.0001 0.731377760533662 0 0.731377760533662 0 0.0001 0.0001
5.05 0.0001 0.0001 0.759449141269008 0 0.759449141269008 0 0.0001 0.0001
5.1 0.0001 0.0001 0.760204478422624 0 0.760204478422624 0 0.0001 0.0001
5.15 0.0001 0.0001 0.733056394232984 0 0.733056394232984 0 0.0001 0.0001
5.2 0.0001 0.0001 0.738085948491151 0 0.738085948491151 0 0.0001 0.0001
5.25 0.0001 0.0001 0.741056469562234 0 0.741056469562234 0 0.0001 0.0001
5.3 0.0001 0.0001 0.761508185236035 0 0.761508185236035 0 0.0001 0.0001
5.35 0.0001 0.0001 0.746555395294584 0 0.746555395294584 0 0.0001 0.0001
5.4 0.0001 0.0001 0.735821640550512 0 0.735821640550512 0 0.0001 0.0001
5.45 0.0001 0.0001 0.750341258240871 0 0.750341258240871 0 0.0001 0.0001
5.5 0.0001 0.0001 0.741834726360841 0 0.741834726360841 0 0.0001 0.0001
5.55 0.0001 0.0001 0.733855416659771 0 0.733855416659771 0 0.0001 0.0001
5.6 0.0001 0.0001 0.729186070212035 0 0.729186070212035 0 0.0001 0.0001
5.65 0.0001 0.0001 0.760588524834906 0 0.760588524834906 0 0.0001 0.0001
5.7 0.0001 0.0001 0.726080867322064 0 0.726080867322064 0 0.0001 0.0001
5.75 0.0001 0.0001 0.724623126044227 0 0.724623126044227 0 0.0001 0.0001
5.8 0.0001 0.0001 0.744776993706005 0 0.744776993706005 0 0.0001 0.0001
