!Keysight Technologies,E5080A,MY55100170,A.11.70.00
!Date: Tuesday, August 20, 2019 22:39:36
!Correction: S11(Full 2 Port(1,2)) 
!S21(Full 2 Port(1,2)) 
!S12(Full 2 Port(1,2)) 
!S22(Full 2 Port(1,2)) 
!S2P File: Measurements: S11, S21, S12, S22:
# Hz S  dB   R 50
1000000000 -34.495544 -66.117867 -0.046426397 -142.62596 -0.038299866 -142.61922 -30.855516 -69.403908
1025000000 -32.360447 -62.545341 -0.058183644 15.772616 -0.055221401 15.837469 -27.034147 -25.981441
1050000000 -43.569695 -78.709183 -0.053437382 174.1765 -0.054190528 174.18709 -49.467468 -78.475861
1075000000 -38.075882 8.6187983 -0.083176449 -27.464495 -0.07951729 -27.546335 -25.517687 29.22142
1100000000 -37.206589 0.037036229 -0.048130546 130.86494 -0.043587688 130.89301 -26.093227 93.937561
1125000000 -33.158848 56.415665 -0.048111364 -70.732384 -0.049723428 -70.679344 -21.612545 75.169052
1150000000 -45.813488 36.393925 -0.063100144 87.731529 -0.063286684 87.622093 -25.804983 113.69169
1175000000 -39.566822 30.74469 -0.040512521 -113.97427 -0.042637788 -113.9294 -35.038303 -101.71221
1200000000 -32.988045 161.93289 -0.041822046 44.323273 -0.043576084 44.466057 -26.816227 -178.20799
1225000000 -42.728989 -137.75731 -0.045550048 -157.16615 -0.047194734 -157.14703 -28.740126 -129.1886
1250000000 -25.206791 -161.00334 -0.077245057 1.4233685 -0.065059207 1.3548625 -23.829271 -123.61208
1275000000 -30.46825 -128.11044 -0.055659823 159.53233 -0.04954014 159.52617 -30.284363 -119.81194
1300000000 -22.636881 -135.81152 -0.057040229 -42.286541 -0.076012231 -42.223328 -22.435984 -83.276245
1325000000 -26.977777 -69.518837 -0.065001674 116.4884 -0.049019001 116.46482 -31.985603 -10.852714
1350000000 -21.599899 -75.262138 -0.097105175 -84.949982 -0.070106111 -85.001762 -22.481941 -34.698887
1375000000 -21.997295 -25.575714 -0.068489186 72.913597 -0.086044304 72.984093 -25.328051 8.6449366
1400000000 -33.680233 16.118326 -0.047288518 -128.49805 -0.046434652 -128.50629 -38.62513 -74.578484
1425000000 -24.95812 16.345684 -0.046949089 29.97645 -0.052908748 29.940189 -24.885014 37.929092
1450000000 -32.436451 67.323952 -0.052661221 -171.89679 -0.05126287 -171.79051 -33.107948 160.47789
1475000000 -23.471796 107.79189 -0.041144434 -13.55879 -0.053388227 -13.550117 -30.470839 113.88171
1500000000 -32.097446 126.72956 -0.035597846 145.06764 -0.037095405 145.02432 -27.853209 147.52283
1525000000 -20.811745 146.5181 -0.05913271 -56.37804 -0.04760316 -56.372456 -24.939274 159.52315
1550000000 -34.923882 -131.37631 -0.060063545 101.74084 -0.060712818 101.71134 -34.914658 156.50597
1575000000 -25.181887 -172.68803 -0.058727946 -99.983131 -0.063997909 -100.0291 -24.359005 -141.57886
1600000000 -25.473858 -94.934662 -0.06618759 58.655273 -0.060284711 58.681927 -31.22121 -67.458023
1625000000 -36.544754 -35.162373 -0.055509567 -143.11989 -0.057390392 -143.10004 -31.932981 -107.37091
1650000000 -21.054205 -93.22493 -0.081186146 15.207981 -0.093769215 15.210011 -24.501627 -66.429573
1675000000 -31.580103 -3.97525 -0.059154361 173.66414 -0.047242269 173.64662 -35.074059 161.98128
1700000000 -29.889236 -69.635597 -0.073239103 -27.895073 -0.069044352 -27.897247 -29.792953 -34.280399
1725000000 -26.871016 15.913337 -0.064510182 130.34607 -0.063762732 130.38622 -28.803322 67.526489
1750000000 -29.441668 55.826912 -0.079515494 -71.180473 -0.065804794 -71.281158 -30.295254 14.499259
1775000000 -39.768341 7.1572089 -0.062556386 87.215294 -0.057380438 87.228409 -29.165335 56.011524
1800000000 -24.500898 124.45256 -0.066316895 -114.39823 -0.075630106 -114.36726 -29.368097 101.73036
1825000000 -27.018452 -110.54851 -0.066839129 43.982185 -0.062462971 43.942104 -39.973366 -17.59273
1850000000 -38.049839 7.9829903 -0.055324066 -157.67328 -0.050192639 -157.65636 -33.136513 -154.37524
1875000000 -24.195261 -102.47195 -0.075059466 0.7261098 -0.071590833 0.78812402 -27.775824 -123.30926
1900000000 -31.924402 2.5223463 -0.062283609 159.08173 -0.056525465 159.06311 -33.13633 154.71773
1925000000 -35.606617 -81.377327 -0.070466854 -42.495296 -0.056569804 -42.538784 -28.903227 -100.81119
1950000000 -29.318054 10.29855 -0.064849272 115.85118 -0.059387371 115.81602 -32.664959 53.867203
1975000000 -29.26895 105.65546 -0.072069392 -85.752213 -0.070654444 -85.731941 -43.00206 -111.82088
2000000000 -29.55673 -46.450634 -0.069777966 72.609673 -0.065313555 72.641319 -27.272675 3.3234475
2025000000 -30.393677 140.4353 -0.069560252 -129.04448 -0.074314602 -128.97981 -39.629272 44.28429
2050000000 -28.563972 -105.32892 -0.066663578 29.397343 -0.062556297 29.392237 -35.467747 -58.775124
2075000000 -35.484627 32.016956 -0.054544952 -172.26201 -0.051429264 -172.2462 -34.074898 163.61606
2100000000 -28.816702 -132.38356 -0.064459369 -13.847499 -0.064235449 -13.816889 -32.810944 -130.0426
2125000000 -34.855541 -0.6040231 -0.057727128 144.49915 -0.059185978 144.48395 -34.065685 124.76748
2150000000 -29.092188 -149.83585 -0.060379773 -57.132595 -0.069211841 -57.108593 -28.001823 -122.77296
2175000000 -26.834776 -34.352329 -0.065942518 101.26931 -0.071756087 101.33606 -30.07795 29.794577
2200000000 -38.459476 -103.13199 -0.077294692 -100.38688 -0.085239768 -100.26098 -30.641481 -83.953636
2225000000 -21.858112 -38.343712 -0.075092144 58.035324 -0.092567213 57.933502 -23.498024 -24.082712
2250000000 -25.646267 -5.9011779 -0.056195006 -143.65997 -0.055086497 -143.73096 -27.416304 -10.324896
2275000000 -31.778107 -87.16774 -0.076141648 14.798952 -0.081485324 14.91593 -27.729681 -0.54865044
2300000000 -31.805658 41.506165 -0.055125605 173.17455 -0.057168849 173.18781 -29.898661 122.57031
2325000000 -29.199415 -169.58736 -0.051274478 -28.424837 -0.037166979 -28.446802 -29.990042 107.50282
2350000000 -29.931431 2.790056 -0.059873626 129.95706 -0.062193383 129.95085 -28.457777 100.91611
2375000000 -33.771206 178.49529 -0.074160181 -71.657104 -0.092425585 -71.606712 -24.525375 159.76878
2400000000 -26.576511 -30.051054 -0.067664504 86.682365 -0.05185416 86.720573 -40.98608 -1.9120389
2425000000 -32.505619 142.31786 -0.067728065 -114.86176 -0.058169812 -114.82133 -20.563131 -153.42891
2450000000 -26.425537 -64.508507 -0.072116211 43.621628 -0.086346127 43.663284 -21.949434 -84.781761
2475000000 -30.249573 165.69724 -0.078212857 -157.99063 -0.087785058 -158.2049 -20.233217 -126.38999
2500000000 -22.583771 -131.46872 -0.091624185 0.27093765 -0.083479919 0.25290975 -23.011971 -67.091537
2525000000 -33.016209 25.925529 -0.056054834 158.63448 -0.057653368 158.63208 -30.703512 83.388565
2550000000 -24.069777 -118.71715 -0.052322783 -42.98867 -0.05711107 -43.051048 -23.910374 -17.795107
2575000000 -26.313759 -8.8856859 -0.073434442 115.35088 -0.067647874 115.40749 -26.15538 45.40366
2600000000 -31.645901 -29.267973 -0.071559973 -86.318771 -0.062065627 -86.262329 -29.349562 39.265957
2625000000 -24.152172 -33.550812 -0.061511803 72.140495 -0.068146221 72.087883 -27.542776 24.909267
2650000000 -30.294004 56.673397 -0.042437609 -129.33011 -0.053058956 -129.42839 -24.240669 104.95445
2675000000 -24.598406 -72.060165 -0.073939428 29.028418 -0.065172173 28.983515 -27.877378 -69.857498
2700000000 -34.547852 56.965881 -0.086600363 -172.74414 -0.071908206 -172.69817 -28.326942 165.75616
2725000000 -28.310907 -138.10533 -0.067008652 -14.29541 -0.058586445 -14.246365 -32.980965 -107.75694
2750000000 -27.065653 31.258102 -0.063058645 144.03731 -0.065359704 144.05092 -27.864851 76.746559
2775000000 -23.951456 148.80954 -0.07265918 -57.471691 -0.070159264 -57.48378 -30.678814 -99.728416
2800000000 -28.233692 -12.183646 -0.0658198 100.81241 -0.068191215 100.77938 -28.000938 24.063362
2825000000 -25.517363 161.67236 -0.075272948 -100.80706 -0.049417552 -100.83758 -34.313095 -137.14798
2850000000 -24.095522 -84.703094 -0.064957857 57.70639 -0.063208252 57.676617 -28.75869 -9.3544798
2875000000 -24.197359 -135.73653 -0.063118577 -144.0123 -0.066273756 -143.88602 -35.590763 -140.35828
2900000000 -21.113823 -97.398178 -0.067864858 14.482211 -0.084747992 14.415659 -26.567904 -82.439377
2925000000 -22.408602 -92.496895 -0.071460478 172.83997 -0.084682636 172.54576 -31.76177 -110.94843
2950000000 -31.117046 -109.66311 -0.072394446 -28.828186 -0.04941142 -28.819511 -34.528435 -42.017776
2975000000 -26.187029 7.0152035 -0.065208718 129.5183 -0.069375411 129.48492 -26.676752 59.577274
3000000000 -36.045231 12.475053 -0.065313041 -72.221489 -0.081179626 -72.190758 -24.141821 16.877827
3025000000 -25.752186 -29.126616 -0.067399204 86.30896 -0.068022184 86.245956 -27.048183 15.603598
3050000000 -42.904514 53.407574 -0.081434779 -115.29503 -0.07104902 -115.36248 -32.274593 110.60485
3075000000 -30.338369 -56.2472 -0.069497876 43.01403 -0.061966244 42.972275 -44.138332 115.63
3100000000 -26.925989 81.469002 -0.0922333 -158.72061 -0.083130069 -158.70775 -20.722692 150.73332
3125000000 -25.190912 -161.24503 -0.047533941 -0.016211452 -0.049483158 0.025278883 -26.389771 -132.82198
3150000000 -22.46163 168.08984 -0.047092408 158.39709 -0.073151007 158.38159 -20.352858 -168.1017
3175000000 -22.595812 -156.222 -0.086034127 -43.607307 -0.063266777 -43.540897 -24.073133 -100.62913
3200000000 -26.300943 -21.214872 -0.063773789 114.96194 -0.062832534 115.01238 -27.759014 38.056889
3225000000 -22.388556 -78.119316 -0.05540232 -86.371445 -0.087397635 -86.289238 -20.998375 -39.004768
3250000000 -22.976099 -36.173012 -0.075631708 71.674438 -0.082927294 71.626907 -24.027945 -14.389754
3275000000 -21.224974 -0.84820318 -0.05824665 -129.94067 -0.04940423 -130.08812 -34.91523 -51.393471
3300000000 -27.742785 -47.307056 -0.069992423 28.512779 -0.075311437 28.570278 -33.710968 5.3075228
3325000000 -21.704809 34.983753 -0.12674938 -173.18008 -0.12923606 -173.09605 -23.705975 112.01833
3350000000 -27.826405 141.03069 -0.030198595 -14.775858 -0.034136739 -14.995472 -29.479013 143.49715
3375000000 -25.770121 119.19583 0.037925281 143.67252 -0.014963841 143.60632 -16.020918 146.38
3400000000 -22.909567 130.15916 -0.094948389 -58.0438 -0.086302355 -58.006031 -26.423073 -118.10047
3425000000 -28.806343 -32.209686 -0.053902488 100.36244 -0.049912203 100.35095 -31.497299 33.086098
3450000000 -45.253784 -134.32123 -0.0082694013 -101.12615 -0.033280715 -101.08623 -18.395479 -87.249466
3475000000 -24.333923 -89.732681 -0.072820261 57.290333 -0.083386414 57.249966 -24.679684 -33.306126
3500000000 -22.039259 -109.12263 -0.11129512 -144.34128 -0.13496581 -144.65414 -19.405569 -65.388443
3525000000 -26.305571 -96.645668 -0.038684886 13.795356 -0.036007714 13.89373 -27.907526 10.111629
3550000000 -19.557589 -56.360367 -0.0095305676 172.61412 0.0053201658 172.64317 -22.377314 33.401321
3575000000 -27.655863 -4.0406628 -0.11116233 -29.235537 -0.11379422 -29.299425 -22.384066 42.75074
3600000000 -15.566361 -12.311832 -0.23319355 128.86369 -0.20692256 129.12172 -16.495975 59.423515
3625000000 -19.837822 50.567219 -0.011357997 -72.583908 0.0053556259 -72.607338 -29.9039 141.18497
3650000000 -29.734644 -25.614063 -0.058193084 85.83416 -0.065206014 85.855797 -32.339622 43.962685
3675000000 -24.858204 79.341965 -0.1209906 -116.01018 -0.098496996 -115.90784 -29.898024 -160.76057
3700000000 -31.178913 -124.79684 -0.046960134 42.516949 -0.038311116 42.560089 -32.498947 -70.236008
3725000000 -25.84866 141.33662 0.015443773 -159.07701 -0.011288953 -159.01189 -18.851196 -144.82817
3750000000 -30.275084 -169.25597 -0.068753585 -0.56397212 -0.073955424 -0.66692871 -31.26265 -129.64505
3775000000 -28.516634 -157.3889 -0.097137138 157.67863 -0.10424049 157.43394 -26.111437 -148.35069
3800000000 -34.945465 173.17178 -0.055661298 -44.074142 -0.050208606 -43.905609 -27.418095 -16.220654
3825000000 -23.006586 -113.3511 -0.058920588 114.63958 -0.022761952 114.64917 -26.488369 -27.855753
3850000000 -39.334843 -38.829891 -0.079210714 -87.026108 -0.084472783 -87.187622 -23.53533 -68.038391
3875000000 -27.974977 -59.740379 -0.06267035 71.203064 -0.059969842 71.235008 -33.270817 17.466675
3900000000 -20.358128 -46.186409 -0.06513197 -130.38148 -0.055786129 -130.37337 -29.962036 -46.638248
3925000000 -28.221794 -72.780785 -0.065469578 27.967255 -0.07617791 28.109098 -28.78602 -3.6825669
3950000000 -18.863554 -20.015882 -0.11032447 -173.70824 -0.0989106 -173.28714 -37.332245 150.12572
3975000000 -26.684843 60.730553 -0.060455326 -15.28393 -0.068166763 -15.329757 -30.280176 67.927444
4000000000 -18.3368 20.32593 -0.11374832 142.95789 -0.1172646 142.9301 -19.997105 97.876694
4025000000 -23.753759 82.540443 -0.071496457 -58.450241 -0.074873984 -58.488338 -31.563692 10.435967
4050000000 -26.53286 63.345844 -0.050957631 99.92009 -0.10635793 99.927986 -25.107117 132.75465
4075000000 -29.568176 76.511322 -0.062910095 -101.71965 -0.080467433 -101.57291 -22.497011 -153.23592
4100000000 -33.004154 -57.846889 -0.055588152 56.687828 -0.053179696 56.698395 -44.198196 -49.852421
4125000000 -33.123596 -12.874294 -0.06148389 -144.86288 -0.073458299 -144.91518 -21.273556 -138.83247
4150000000 -30.029671 -149.01512 -0.065327615 13.491647 -0.057434898 13.490838 -29.223022 -49.274338
4175000000 -38.898994 -131.97426 -0.084933467 171.83322 -0.080816373 171.661 -22.382948 -103.18947
4200000000 -29.249983 169.43123 -0.061074309 -29.86904 -0.055096295 -29.872484 -25.414963 -40.189068
4225000000 -29.505632 -83.714798 -0.035133965 128.65692 -0.0065319915 128.76831 -20.604082 -8.84797
4250000000 -31.419704 -62.005539 -0.073907673 -72.886108 -0.069904901 -72.886879 -22.113247 1.7272056
4275000000 -19.98982 -80.891602 -0.14726914 85.639153 -0.13892227 85.635818 -16.312094 15.100673
4300000000 -27.491169 -6.8385658 -0.037290554 -116.3083 -0.047636148 -116.42841 -34.291164 34.618465
4325000000 -33.690727 -53.666885 -0.053142805 42.174644 -0.059099171 42.165493 -43.335953 87.009605
4350000000 -27.281116 7.3542652 -0.10893834 -159.34859 -0.083301552 -159.19125 -19.083624 130.85603
4375000000 -33.772736 -149.91069 -0.059697662 -1.1896292 -0.054132804 -1.1649232 -43.333492 86.757347
4400000000 -30.034376 8.2550001 -0.021384561 156.98062 -0.070370987 157.20026 -17.379229 153.37448
4425000000 -28.017843 110.99284 -0.064948551 -44.145954 -0.054683097 -44.205444 -26.286058 -113.46202
4450000000 -26.15221 26.720509 -0.12164422 114.36752 -0.062498882 114.03672 -22.727898 -174.86417
4475000000 -27.726227 92.017067 -0.072041012 -87.912804 -0.054651003 -87.542725 -24.18018 -77.983627
4500000000 -24.388632 166.32309 0.0072289165 70.422989 0.0075285849 70.787781 -20.432467 -72.179131
4525000000 -23.899561 159.0424 -0.035019301 -130.52118 -0.058251057 -130.75417 -22.431952 -95.17852
4550000000 -29.727293 -102.80554 -0.055101313 27.561216 -0.046529356 27.555847 -35.8307 -50.496574
4575000000 -20.721235 -110.56593 -0.019082839 -174.39128 -0.020791039 -174.39917 -34.022491 16.873327
4600000000 -30.359753 -93.531548 -0.044302423 -15.575336 -0.050436519 -15.501411 -26.995529 14.769775
4625000000 -17.24486 -60.464867 -0.067301705 143.24284 -0.069960542 143.40329 -20.980227 53.263054
4650000000 -28.130857 32.281303 -0.048100729 -59.013805 -0.06804537 -59.026241 -29.972837 -34.613743
4675000000 -16.521008 -21.08671 -0.057459649 99.338524 -0.09282884 99.135155 -22.526215 69.463158
4700000000 -26.461777 36.322598 -0.067340776 -101.98703 -0.047443554 -101.99796 -33.090618 170.48514
4725000000 -25.161642 -21.422213 -0.087184668 56.296032 -0.070538782 56.339371 -25.123661 81.335892
4750000000 -26.313068 54.421734 -0.063548826 -145.46725 -0.067735553 -145.39362 -23.385807 -166.50697
4775000000 -37.788746 -148.01962 -0.047220506 13.055053 -0.046072382 13.018202 -35.924416 -110.0555
4800000000 -22.336529 70.623207 -0.075835876 171.35274 -0.070700273 171.32188 -21.187391 156.37151
4825000000 -29.054293 153.18372 -0.054928541 -30.244703 -0.057391305 -30.211845 -31.172497 -27.392147
4850000000 -32.776272 107.35412 -0.054795582 128.00601 -0.072719954 128.01848 -31.074549 14.36106
4875000000 -28.719378 141.92227 -0.062073231 -73.503189 -0.049148563 -73.394165 -23.212769 -85.938011
4900000000 -21.766504 -112.41487 -0.0484639 85.169991 -0.03286976 85.247696 -30.887646 -17.275341
4925000000 -32.628239 -103.89228 -0.032891456 -116.73936 -0.069279395 -116.68736 -30.412134 -118.54605
4950000000 -16.565058 -100.90821 -0.097630672 41.997269 -0.11374363 41.697102 -21.022175 -14.397832
4975000000 -30.789742 -7.0079336 -0.043431163 -159.84738 -0.042030871 -159.79825 -37.650452 176.00047
5000000000 -33.407593 -123.6307 -0.044409767 -1.4508727 -0.048797086 -1.4783815 -34.244534 -61.033985
5025000000 -25.490335 -5.5866733 -0.075509772 156.99905 -0.070808075 157.07851 -21.051455 100.04924
5050000000 -41.071255 149.9501 -0.043408796 -44.722549 -0.051423743 -44.768108 -31.978209 18.439056
5075000000 -25.721504 -30.930105 -0.066579342 113.61243 -0.065772995 113.49538 -21.340343 68.471497
5100000000 -26.68437 60.443439 -0.055086646 -87.836548 -0.050725106 -87.801765 -26.726126 -114.65993
5125000000 -23.387724 -10.102571 -0.084318317 70.645271 -0.056886636 70.502678 -30.888725 156.21863
5150000000 -27.17642 68.059372 -0.086533479 -131.39439 -0.040711574 -131.24432 -22.188717 -169.79379
5175000000 -30.98023 -178.21245 -0.030411247 27.08456 0.011692167 27.217861 -26.006111 -124.90448
5200000000 -20.968737 110.35712 -0.027280781 -174.32275 -0.054946087 -174.50427 -25.24559 -167.97942
5225000000 -28.517822 -167.97563 -0.046719033 -16.036068 -0.047504738 -16.071747 -28.013699 -70.102219
5250000000 -28.960167 -144.54735 -0.021677202 142.11041 -0.0080982381 142.04442 -31.542063 58.852245
5275000000 -28.719364 -145.15567 -0.025859023 -59.171413 -0.028860144 -59.180443 -28.242949 -45.41888
5300000000 -18.981939 -84.353859 -0.029690966 100.04385 -0.050555933 99.943146 -17.120279 -4.2186666
5325000000 -34.50349 -27.72061 -0.045203198 -102.5685 -0.060861163 -102.63844 -27.026018 -78.442963
5350000000 -15.635889 -65.552177 -0.062209304 55.593418 -0.11102389 55.333755 -19.659111 8.8020144
5375000000 -24.423752 1.609304 -0.020435153 -145.34386 -0.0056660632 -145.32872 -22.809902 125.36221
5400000000 -19.414978 -46.967289 -0.058025762 13.18697 -0.0075302552 13.129688 -19.409397 60.633797
5425000000 -21.252016 41.691593 -0.098441064 170.75197 -0.086119093 170.76331 -20.037769 107.26656
5450000000 -29.800804 127.3802 -0.0099575156 -30.460352 -0.014495139 -30.473022 -30.119499 -91.679291
5475000000 -17.620995 51.205959 -0.0084589226 127.97674 -0.017015925 127.74072 -21.666426 133.04961
5500000000 -26.8242 128.80391 -0.054905318 -73.812454 -0.041003559 -73.817986 -29.870674 -129.48474
5525000000 -23.562511 120.13892 -0.035965525 83.93679 -0.041212413 84.334625 -27.513956 -74.754921
5550000000 -22.739059 162.3541 0.01497118 -117.05256 0.0010963903 -117.1209 -21.433695 -111.41216
5575000000 -15.656898 -157.23831 0.11122489 42.097904 0.081344135 41.994465 -17.526398 -83.821785
5600000000 -23.318871 -101.7112 0.004997211 -160.43004 -0.023551207 -160.35986 -31.240173 -168.55595
5625000000 -12.695866 -117.10857 -0.069145635 -1.9483243 -0.11048849 -2.4495683 -21.50083 -52.434124
5650000000 -19.98443 -26.379301 0.002376603 156.97073 -0.013368258 156.98032 -20.144882 45.798347
5675000000 -31.334238 88.779999 -0.01212473 -45.129299 -0.016349981 -45.077114 -29.316774 -62.211803
5700000000 -15.76244 7.4032516 -0.079677179 113.16614 -0.098345466 112.94181 -21.229593 50.461266
5725000000 -27.506805 108.94585 -0.021460924 -88.287209 -0.018496409 -88.256973 -27.844454 -173.93811
5750000000 -23.554123 27.730635 -0.022653157 69.923363 -0.021408832 70.112656 -29.47574 52.287601
5775000000 -25.895761 125.27448 -0.010950346 -131.7417 -0.019290149 -131.73814 -25.339849 -159.87074
5800000000 -25.292135 -137.89873 0.030208007 26.992308 0.0035843977 27.051191 -22.278391 -100.98405
5825000000 -34.84341 74.929482 -0.0167892 -174.89105 -0.0083286408 -174.80569 -22.808249 154.50841
5850000000 -19.491838 -137.06442 -0.0073042298 -16.369175 -0.035831898 -16.517277 -27.34679 -78.570328
5875000000 -25.562984 20.991646 -0.0067650187 142.06802 -0.027367791 142.13585 -20.599169 36.804722
