!Keysight Technologies,E5080A,MY55100170,A.11.70.00
!Date: Tuesday, August 20, 2019 22:40:56
!Correction: S11(Full 2 Port(1,2)) 
!S21(Full 2 Port(1,2)) 
!S12(Full 2 Port(1,2)) 
!S22(Full 2 Port(1,2)) 
!S2P File: Measurements: S11, S21, S12, S22:
# Hz S  dB   R 50
1000000000 -34.77774 -67.147743 -0.04911346 -142.60371 -0.042548135 -142.63681 -31.099512 -69.318893
1025000000 -32.196018 -62.413948 -0.063977592 15.77099 -0.059115373 15.875241 -27.043581 -25.684437
1050000000 -43.843456 -78.173561 -0.058600381 174.18544 -0.059251852 174.19801 -50.584053 -78.168106
1075000000 -37.995949 4.8772492 -0.090330362 -27.447079 -0.086489245 -27.534271 -25.647579 29.717056
1100000000 -37.32777 1.4522616 -0.054180644 130.88141 -0.046802714 130.91301 -26.087664 93.727669
1125000000 -33.295158 56.233906 -0.053837448 -70.704155 -0.055966303 -70.660439 -21.649021 75.482819
1150000000 -44.671749 37.178345 -0.06900385 87.740601 -0.06526392 87.616348 -25.912004 113.33557
1175000000 -39.436775 35.387451 -0.046041626 -113.92785 -0.047159277 -113.92666 -35.024143 -102.66103
1200000000 -33.439381 160.35779 -0.050884493 44.306557 -0.051353801 44.450405 -26.83556 -177.99153
1225000000 -42.022034 -143.77286 -0.049228821 -157.17859 -0.055351604 -157.14099 -28.91033 -129.35703
1250000000 -25.192188 -160.14171 -0.082765914 1.4292181 -0.066911623 1.3720802 -23.806107 -123.81097
1275000000 -30.550932 -129.2491 -0.062137265 159.50551 -0.056044992 159.54225 -30.417902 -119.14462
1300000000 -22.568268 -135.68895 -0.064558677 -42.277328 -0.082638741 -42.204842 -22.42478 -83.812523
1325000000 -26.944393 -69.692886 -0.069130182 116.51087 -0.055128399 116.49194 -31.765202 -9.3015766
1350000000 -21.595322 -75.855629 -0.099953793 -84.966141 -0.069985099 -84.999275 -22.573866 -35.066959
1375000000 -21.924719 -25.589956 -0.074129827 72.919022 -0.091154478 72.971153 -25.313105 7.8904815
1400000000 -33.741238 16.36256 -0.050862327 -128.49289 -0.052252714 -128.48225 -38.901291 -75.66951
1425000000 -24.863844 16.330343 -0.051874153 29.976177 -0.058172595 29.95767 -24.909435 37.677631
1450000000 -32.357597 69.058655 -0.054430671 -171.86481 -0.058650218 -171.7657 -33.213081 158.82097
1475000000 -23.544191 107.63359 -0.046997696 -13.545117 -0.060039591 -13.531471 -30.601936 114.70351
1500000000 -31.797232 126.2456 -0.0427077 145.08551 -0.045707896 145.04128 -27.958328 146.75127
1525000000 -20.832876 147.15533 -0.06382902 -56.357407 -0.053730361 -56.355904 -24.877941 160.23647
1550000000 -35.032578 -133.64262 -0.066021122 101.723 -0.066311762 101.68844 -35.205959 156.48346
1575000000 -24.981686 -172.30222 -0.065125182 -99.981445 -0.071865864 -100.00862 -24.413622 -141.86113
1600000000 -25.520283 -94.211143 -0.072935283 58.692329 -0.064118043 58.694454 -30.946993 -67.625221
1625000000 -36.666508 -37.470707 -0.060838483 -143.11111 -0.057524893 -143.08568 -32.244877 -107.80862
1650000000 -21.014835 -92.662285 -0.08814922 15.245776 -0.10160103 15.200627 -24.457384 -66.984215
1675000000 -31.563173 -2.8633449 -0.064193115 173.6571 -0.055080287 173.65825 -34.976387 159.32518
1700000000 -29.802691 -69.49295 -0.077772535 -27.892546 -0.077929996 -27.882208 -29.93401 -35.654816
1725000000 -26.881313 16.851448 -0.068868525 130.34996 -0.069474034 130.40538 -28.640652 66.46006
1750000000 -29.543396 55.745377 -0.084017783 -71.189201 -0.074993506 -71.255447 -30.590477 15.355464
1775000000 -39.544022 11.311175 -0.06815619 87.242523 -0.064940073 87.2192 -29.320208 54.712112
1800000000 -24.490408 125.2322 -0.070865445 -114.3868 -0.081183366 -114.34422 -29.159756 101.91625
1825000000 -27.071926 -109.97211 -0.068779849 43.999077 -0.069349431 43.943531 -39.691551 -21.709587
1850000000 -38.769157 8.9918003 -0.057480011 -157.6449 -0.056144122 -157.65784 -33.171185 -154.21359
1875000000 -24.138517 -101.7975 -0.084530301 0.75554359 -0.084744528 0.78006124 -27.662851 -124.11639
1900000000 -31.895067 3.1046915 -0.066002913 159.0764 -0.062144782 159.08313 -33.218525 152.77786
1925000000 -35.023602 -80.978302 -0.072932579 -42.466911 -0.065079436 -42.497189 -28.90918 -102.30064
1950000000 -29.234303 11.610653 -0.074781276 115.85731 -0.066836536 115.826 -32.649868 50.328793
1975000000 -29.394674 106.52239 -0.079937048 -85.741753 -0.075981982 -85.715706 -42.513184 -118.75616
2000000000 -29.3736 -44.710785 -0.078304984 72.62838 -0.070110962 72.65358 -27.273262 3.0891461
2025000000 -30.152849 142.04172 -0.073580377 -129.05675 -0.082630239 -128.96097 -39.228958 45.044697
2050000000 -28.621229 -104.03304 -0.071776472 29.403507 -0.06881021 29.422878 -35.207172 -60.609623
2075000000 -35.712738 35.905861 -0.063071385 -172.25706 -0.059100639 -172.23364 -34.382084 162.24112
2100000000 -28.677288 -131.31209 -0.069668874 -13.835184 -0.067676 -13.822631 -32.594696 -130.68565
2125000000 -35.05851 -0.75035614 -0.062773861 144.52426 -0.06419152 144.5071 -34.143452 123.30602
2150000000 -28.885735 -148.13179 -0.067022152 -57.103241 -0.07650324 -57.108631 -28.125561 -124.06277
2175000000 -26.852757 -32.607166 -0.073457494 101.28025 -0.077613927 101.35246 -29.944958 27.629551
2200000000 -37.778767 -104.68524 -0.080931582 -100.36988 -0.094965957 -100.2486 -30.782869 -85.817986
2225000000 -21.815979 -37.915173 -0.079611287 58.041775 -0.098894224 57.963062 -23.428175 -24.310802
2250000000 -25.740772 -5.9668078 -0.063842937 -143.66611 -0.060581535 -143.68855 -27.435659 -9.8293896
2275000000 -31.75705 -85.475647 -0.08177536 14.804005 -0.086915702 14.961547 -27.743225 -1.7679807
2300000000 -31.772091 43.658741 -0.061521325 173.17332 -0.064352848 173.21468 -29.862402 120.94086
2325000000 -29.295811 -168.40935 -0.055241484 -28.374178 -0.044610135 -28.446157 -29.977089 109.36199
2350000000 -30.008308 4.1922956 -0.068432577 129.97533 -0.07117521 129.95732 -28.597361 99.933144
2375000000 -33.716923 -179.00305 -0.079822436 -71.639229 -0.095771894 -71.584526 -24.413664 159.26489
2400000000 -26.613392 -29.018524 -0.072595477 86.69973 -0.05868623 86.734802 -40.600479 -7.2211819
2425000000 -32.55209 144.55153 -0.069520056 -114.85829 -0.068095662 -114.80972 -20.623991 -153.8253
2450000000 -26.386362 -63.851349 -0.073558286 43.637329 -0.093472607 43.669281 -21.894171 -85.293404
2475000000 -29.983351 165.54132 -0.087003484 -157.97784 -0.09172716 -158.16954 -20.356663 -126.38615
2500000000 -22.588818 -131.05925 -0.096208461 0.28694543 -0.090703264 0.28182057 -23.070623 -67.537857
2525000000 -33.184906 27.840006 -0.062750235 158.68922 -0.064905286 158.62802 -30.776657 81.495529
2550000000 -23.994032 -118.24985 -0.057536565 -42.95512 -0.062872276 -43.005802 -24.093027 -17.984386
2575000000 -26.429174 -7.8784037 -0.080060087 115.38651 -0.075643346 115.42868 -26.170944 44.764343
2600000000 -31.583097 -31.230795 -0.077997208 -86.317749 -0.073631145 -86.262245 -29.2246 41.053253
2625000000 -24.138428 -33.183598 -0.067458346 72.147163 -0.077786103 72.099648 -27.589121 23.882294
2650000000 -30.587202 57.393406 -0.047308959 -129.29764 -0.063130446 -129.3999 -24.169292 104.59688
2675000000 -24.576576 -71.145386 -0.079824388 29.050417 -0.072387986 28.994102 -27.771482 -71.187836
2700000000 -34.696133 59.526192 -0.095077313 -172.75368 -0.077553205 -172.67932 -28.433765 164.90733
2725000000 -28.315792 -137.59354 -0.07345318 -14.279301 -0.067792803 -14.234644 -33.242199 -110.71597
2750000000 -27.191271 31.752888 -0.071412586 144.06126 -0.068785563 144.0416 -27.916286 75.69915
2775000000 -24.039869 149.08839 -0.078825027 -57.456543 -0.077497177 -57.471909 -30.851995 -102.16167
2800000000 -28.298294 -11.050812 -0.080214955 100.85323 -0.074684702 100.79716 -27.989542 23.458191
2825000000 -25.584721 162.31221 -0.085506156 -100.80871 -0.056915116 -100.8092 -34.769997 -139.8286
2850000000 -24.235418 -84.107651 -0.073545255 57.707737 -0.077226222 57.713322 -28.808178 -10.392036
2875000000 -24.056122 -136.05949 -0.070027985 -144.01183 -0.076442532 -143.85588 -36.064468 -139.72752
2900000000 -21.164219 -96.931145 -0.080150567 14.505726 -0.090684474 14.451545 -26.52033 -83.775726
2925000000 -22.448109 -93.130203 -0.07616102 172.88255 -0.092820376 172.57967 -31.865177 -108.99644
2950000000 -30.950333 -107.7519 -0.076095432 -28.767565 -0.058522251 -28.805971 -35.048164 -41.021408
2975000000 -26.302837 7.714726 -0.075029373 129.51656 -0.08026658 129.54977 -26.765499 58.131023
3000000000 -36.012562 9.7115602 -0.072835438 -72.149261 -0.091789283 -72.170395 -24.22617 17.725729
3025000000 -25.780907 -28.243528 -0.0735882 86.327095 -0.0750743 86.27935 -27.144791 14.468091
3050000000 -44.414169 54.055145 -0.08972057 -115.27842 -0.078304015 -115.33205 -31.911497 110.09273
3075000000 -30.348082 -53.667049 -0.079000361 43.032524 -0.072468452 43.018227 -44.09901 127.96925
3100000000 -26.99552 82.529518 -0.094575837 -158.7081 -0.092797533 -158.67924 -20.796385 150.25383
3125000000 -25.328785 -161.16844 -0.05278153 0.020383155 -0.060529906 0.028049083 -26.141699 -133.79137
3150000000 -22.364197 167.84428 -0.056064323 158.44418 -0.078619368 158.36606 -20.397715 -167.71091
3175000000 -22.612225 -155.37897 -0.090657309 -43.578915 -0.069500685 -43.522804 -24.194586 -101.33933
3200000000 -26.423429 -20.340696 -0.073666528 115.0295 -0.07326778 115.0179 -27.918222 36.222469
3225000000 -22.319874 -78.320976 -0.063590318 -86.325752 -0.095826134 -86.271751 -21.044903 -38.527096
3250000000 -23.00703 -35.418392 -0.085118011 71.70726 -0.091593154 71.661156 -24.127369 -15.650359
3275000000 -21.253563 -1.3971509 -0.066288859 -129.88266 -0.060804695 -130.06346 -35.15942 -47.522797
3300000000 -27.767759 -45.730301 -0.077061526 28.530464 -0.082934499 28.618546 -34.198235 3.3669965
3325000000 -21.810572 35.15979 -0.13648191 -173.14644 -0.1353237 -173.08595 -23.755926 111.21867
3350000000 -28.028763 140.14378 -0.037216686 -14.716804 -0.043103937 -14.955234 -29.181339 144.12366
3375000000 -25.705391 120.0287 0.031617522 143.69371 -0.025097582 143.6514 -16.091002 146.46924
3400000000 -23.076624 130.18301 -0.10240965 -57.994446 -0.098660856 -57.956184 -26.649982 -119.80664
3425000000 -29.044178 -31.022839 -0.064785309 100.4041 -0.06281019 100.36742 -31.476849 31.468611
3450000000 -43.891296 -130.69914 -0.015735867 -101.10826 -0.040779758 -101.03925 -18.470285 -86.64534
3475000000 -24.512238 -88.742439 -0.07538157 57.330948 -0.095246062 57.305302 -24.769575 -35.049366
3500000000 -21.940529 -109.68681 -0.11990666 -144.31323 -0.14553216 -144.60287 -19.429729 -64.633247
3525000000 -26.507156 -95.158195 -0.045044411 13.813066 -0.044268642 13.932614 -28.146387 11.035957
3550000000 -19.611149 -56.615704 -0.017078634 172.64688 -0.0064267707 172.65508 -22.252611 32.700562
3575000000 -27.46912 -3.7147319 -0.12011386 -29.222975 -0.12477926 -29.312601 -22.414312 44.025185
3600000000 -15.641004 -12.220345 -0.24195287 128.91635 -0.21501113 129.15842 -16.573078 59.202209
3625000000 -19.870798 50.032284 -0.02435628 -72.539665 -0.0019249124 -72.566666 -29.609798 139.72499
3650000000 -29.925755 -24.652176 -0.070141397 85.844193 -0.075930126 85.889099 -32.695095 42.057808
3675000000 -25.021082 79.181831 -0.12919348 -115.99077 -0.11269294 -115.86289 -30.31403 -161.58966
3700000000 -31.619287 -126.71313 -0.053271368 42.517826 -0.043625928 42.582867 -32.227276 -73.782166
3725000000 -25.834461 142.74142 0.0075641051 -159.0251 -0.017754434 -158.9603 -18.95097 -144.4182
3750000000 -30.594698 -169.52127 -0.083211951 -0.54636836 -0.082346857 -0.64150602 -31.399513 -131.61142
3775000000 -28.330509 -157.19418 -0.10383626 157.73589 -0.11585373 157.51476 -26.24394 -146.42514
3800000000 -35.884636 174.09634 -0.066946752 -44.027252 -0.059058953 -43.867672 -27.597897 -16.075661
3825000000 -23.043385 -114.48874 -0.065938719 114.67902 -0.036937814 114.67226 -26.456545 -29.05224
3850000000 -38.884747 -41.913441 -0.089617923 -86.979103 -0.096850604 -87.132874 -23.688456 -66.768143
3875000000 -28.244846 -58.696236 -0.073056705 71.24984 -0.069611244 71.260765 -33.842056 15.261151
3900000000 -20.376297 -46.681313 -0.077317521 -130.34137 -0.067882612 -130.32924 -29.88039 -44.026833
3925000000 -28.365505 -70.832748 -0.070339955 28.000463 -0.082986921 28.136589 -29.075251 -4.4872422
3950000000 -18.958933 -20.311457 -0.11657206 -173.66116 -0.10339141 -173.29329 -37.762287 150.40135
3975000000 -26.538227 59.310093 -0.075293884 -15.235654 -0.078404129 -15.268084 -30.186989 70.594261
4000000000 -18.442556 20.483736 -0.12254246 143.00075 -0.12865436 142.98608 -20.150911 97.652069
4025000000 -23.960722 81.328857 -0.084450684 -58.452152 -0.085777864 -58.423779 -31.405428 14.193604
4050000000 -26.511831 64.862968 -0.058646105 99.990082 -0.11228175 99.991295 -25.284449 134.02348
4075000000 -29.903791 74.653496 -0.06950327 -101.68971 -0.09428557 -101.53594 -22.652853 -153.57591
4100000000 -33.478092 -53.812393 -0.064529672 56.733669 -0.065394193 56.710484 -44.654057 -63.735947
4125000000 -33.127247 -15.819801 -0.071911365 -144.82707 -0.083760813 -144.87579 -21.451883 -137.84624
4150000000 -30.501053 -149.64139 -0.073061243 13.527185 -0.06980285 13.526583 -29.36323 -50.455879
4175000000 -38.161438 -134.11829 -0.096744649 171.88884 -0.091943368 171.71375 -22.309517 -102.22407
4200000000 -29.602575 169.51466 -0.074625783 -29.8283 -0.06843809 -29.82233 -25.809862 -39.101509
4225000000 -29.644871 -86.582458 -0.044455312 128.66331 -0.016069504 128.79498 -20.553671 -9.5151978
4250000000 -30.930723 -61.567715 -0.08216279 -72.867577 -0.080638908 -72.823318 -22.062553 2.7052455
4275000000 -20.107531 -81.422157 -0.15541382 85.658318 -0.15297155 85.713585 -16.404743 14.738891
4300000000 -27.559725 -9.5269299 -0.04805278 -116.32025 -0.052118562 -116.39151 -33.361805 34.037704
4325000000 -34.032375 -47.84787 -0.067540139 42.205589 -0.069738783 42.180168 -43.166729 105.18882
4350000000 -27.402798 5.6963749 -0.12022228 -159.31352 -0.092398688 -159.1185 -19.229183 130.43866
4375000000 -34.721424 -149.50856 -0.068365753 -1.1235881 -0.062044039 -1.1335496 -42.851593 96.539589
4400000000 -30.674477 7.1161571 -0.031254422 157.00932 -0.080026671 157.25638 -17.463978 153.83365
4425000000 -28.238846 108.55952 -0.074857727 -44.112484 -0.067707829 -44.155006 -26.616049 -115.75259
4450000000 -26.416325 28.513546 -0.12830392 114.43545 -0.076623872 114.08569 -22.677496 -173.49184
4475000000 -27.98653 91.153679 -0.082846694 -87.883072 -0.063506693 -87.525665 -24.266434 -76.686142
4500000000 -24.22879 165.3981 -0.0085114669 70.452858 -0.010302924 70.834122 -20.335354 -73.141434
4525000000 -24.061285 160.86919 -0.04591627 -130.46082 -0.071012981 -130.68307 -22.486238 -94.218147
4550000000 -30.16062 -101.8814 -0.067703284 27.591883 -0.058012158 27.608961 -36.996567 -54.361942
4575000000 -20.525242 -110.78659 -0.029639581 -174.34526 -0.033534985 -174.33768 -33.327324 12.604734
4600000000 -30.604441 -89.302353 -0.059377506 -15.517307 -0.060314629 -15.465214 -27.132553 17.592979
4625000000 -17.305111 -60.895275 -0.079258792 143.27255 -0.079246581 143.47952 -21.192131 52.315628
4650000000 -27.861599 29.999722 -0.062991336 -58.945004 -0.083734468 -58.978638 -30.215944 -31.85589
4675000000 -16.636761 -20.395298 -0.063485153 99.41436 -0.098415449 99.226875 -22.79908 70.231636
4700000000 -26.669559 34.11834 -0.077932797 -101.9725 -0.056689966 -101.94833 -33.916325 165.54593
4725000000 -25.339296 -19.6765 -0.09789446 56.351833 -0.080181837 56.401146 -25.376736 82.725273
4750000000 -26.712961 53.964375 -0.076022573 -145.43546 -0.080078259 -145.37299 -23.586355 -165.7726
4775000000 -39.343124 -150.58914 -0.061702967 13.104079 -0.057108145 13.077672 -36.019917 -117.89293
4800000000 -22.556229 71.835007 -0.085192032 171.40501 -0.083918095 171.38036 -21.418768 156.78242
4825000000 -29.578623 150.70523 -0.068172283 -30.178112 -0.073197536 -30.158403 -31.658195 -24.050638
4850000000 -32.607601 112.37151 -0.066842049 128.07497 -0.085399717 128.07793 -31.383884 10.079432
4875000000 -29.306934 141.5163 -0.073373966 -73.429474 -0.06287498 -73.318001 -23.498337 -85.383301
4900000000 -21.965689 -113.68338 -0.056400273 85.191711 -0.047911841 85.298508 -31.330652 -20.511326
4925000000 -31.978024 -101.26315 -0.048343677 -116.67409 -0.086636461 -116.61768 -30.974718 -115.24595
4950000000 -16.773235 -100.85014 -0.10791369 42.045063 -0.12295094 41.76199 -21.201403 -15.041422
4975000000 -30.953592 -11.167391 -0.060297374 -159.79385 -0.048973098 -159.74394 -39.178799 -177.91508
5000000000 -34.317802 -122.46368 -0.059593104 -1.3793103 -0.059865955 -1.4373374 -35.616978 -62.354794
5025000000 -25.840008 -7.2216268 -0.089144535 157.04262 -0.081507139 157.11087 -21.260447 99.899918
5050000000 -43.034237 144.15402 -0.058830291 -44.666885 -0.065045126 -44.72496 -31.672775 22.917423
5075000000 -26.196699 -32.210609 -0.078719996 113.64149 -0.079388134 113.5489 -21.650898 68.681732
5100000000 -26.888067 57.149784 -0.060158391 -87.769943 -0.063071482 -87.758286 -27.245138 -113.5726
5125000000 -23.59211 -7.9995332 -0.10327942 70.700394 -0.07287965 70.577667 -30.323942 159.46727
5150000000 -27.714428 66.374519 -0.099615216 -131.28894 -0.052335981 -131.20741 -22.503645 -169.5919
5175000000 -31.483986 176.75769 -0.046334751 27.125799 -0.0021272982 27.278433 -25.969065 -126.80415
5200000000 -21.115211 112.06122 -0.042241577 -174.23227 -0.071083069 -174.43861 -25.517645 -164.69884
5225000000 -29.126492 -168.99138 -0.061579905 -15.994729 -0.060616862 -15.998043 -28.50712 -72.236145
5250000000 -28.313135 -146.49382 -0.032038387 142.16434 -0.023458479 142.11353 -32.109474 56.55389
5275000000 -29.023291 -141.7141 -0.034759969 -59.095646 -0.03820565 -59.078186 -28.452332 -41.389565
5300000000 -19.115208 -85.240662 -0.039300911 100.10413 -0.061741322 100.00296 -17.222416 -5.191175
5325000000 -33.473236 -29.670389 -0.058287419 -102.49415 -0.073100038 -102.56184 -27.093111 -75.429451
5350000000 -15.774432 -65.331146 -0.072016515 55.640339 -0.11932236 55.362041 -19.940348 8.7779102
5375000000 -24.427303 -1.0647038 -0.028219622 -145.30389 -0.021533648 -145.31149 -22.996338 124.02328
5400000000 -19.45966 -45.150547 -0.074449569 13.241724 -0.018212784 13.21453 -19.384468 61.841156
5425000000 -21.590994 41.710953 -0.11448594 170.80893 -0.098820254 170.84335 -20.357866 107.13997
5450000000 -30.098827 121.62988 -0.025963254 -30.404577 -0.029287871 -30.445562 -31.002769 -93.432739
5475000000 -17.701683 52.629948 -0.026799146 128.06023 -0.027754605 127.80516 -21.874704 135.06937
5500000000 -27.270615 127.56867 -0.062609471 -73.789871 -0.053179696 -73.729027 -30.863602 -129.4417
5525000000 -23.199043 120.80534 -0.048498072 84.002037 -0.056140877 84.382561 -27.309868 -78.146935
5550000000 -22.888647 164.8007 0.0040091439 -116.99501 -0.009043755 -117.03845 -21.572157 -109.67404
5575000000 -15.759876 -158.24376 0.093224511 42.10355 0.061638001 42.021015 -17.591461 -85.119881
5600000000 -22.923943 -101.93104 -0.008948056 -160.34253 -0.040060278 -160.3093 -32.134403 -164.87953
5625000000 -12.809663 -116.89027 -0.082484558 -1.8883721 -0.12167485 -2.3687708 -21.763527 -52.684189
5650000000 -20.160347 -27.423346 -0.015478678 157.00342 -0.027154088 157.05255 -20.304392 44.252029
5675000000 -31.29421 82.264046 -0.02738042 -45.053238 -0.031053292 -45.001102 -30.006891 -60.21833
5700000000 -15.913315 7.9903593 -0.094702989 113.21812 -0.11362353 112.97968 -21.550434 50.904598
5725000000 -28.193169 106.2333 -0.030331358 -88.26059 -0.031521216 -88.210281 -28.593746 -176.35052
5750000000 -23.611273 30.712732 -0.037060607 69.956619 -0.035184987 70.198051 -30.108852 54.918167
5775000000 -26.435587 126.99827 -0.02403078 -131.66069 -0.029123669 -131.67371 -25.754324 -157.62685
5800000000 -25.75004 -139.93109 0.017786929 27.002913 -0.013124271 27.099411 -22.38455 -103.40726
5825000000 -36.739468 76.318626 -0.027233209 -174.82123 -0.028950451 -174.72269 -23.233282 155.63409
5850000000 -19.707108 -136.99675 -0.025250383 -16.312719 -0.048074659 -16.44912 -28.072281 -78.17366
5875000000 -26.215448 20.906832 -0.015907899 142.13139 -0.042123504 142.22118 -20.804819 35.460068
