!Keysight Technologies,E5080A,MY55100170,A.11.70.00
!Date: Tuesday, August 20, 2019 22:42:16
!Correction: S11(Full 2 Port(1,2)) 
!S21(Full 2 Port(1,2)) 
!S12(Full 2 Port(1,2)) 
!S22(Full 2 Port(1,2)) 
!S2P File: Measurements: S11, S21, S12, S22:
# Hz S  dB   R 50
1000000000 -39.33543 -83.958519 -0.050308783 -143.43951 -0.045833848 -143.46156 -33.798092 -73.92276
1025000000 -29.749926 -65.421562 -0.07059741 14.914388 -0.064185292 14.993817 -26.031267 -35.577385
1050000000 -51.005909 55.985512 -0.065053456 173.32089 -0.063245758 173.33951 -44.051121 58.833733
1075000000 -38.681004 -37.771351 -0.095512599 -28.350559 -0.090708062 -28.450209 -27.049971 23.487514
1100000000 -33.523304 18.37841 -0.055957098 129.96773 -0.052820336 129.993 -25.319258 83.711555
1125000000 -37.016403 72.093933 -0.055973604 -71.647186 -0.056020144 -71.555565 -21.98917 79.732033
1150000000 -36.94714 14.439995 -0.072552063 86.756264 -0.072347097 86.642738 -26.791754 101.65642
1175000000 -41.278294 91.24192 -0.049020976 -114.93719 -0.052620403 -114.91989 -35.62347 -135.33398
1200000000 -37.951702 171.84488 -0.052749433 43.304531 -0.053476099 43.465309 -27.681795 -168.32475
1225000000 -38.695847 159.17114 -0.049016792 -158.15959 -0.057835076 -158.17583 -30.284683 -146.31897
1250000000 -24.858274 -152.27701 -0.086000614 0.42000064 -0.079676129 0.36396059 -22.600368 -122.29498
1275000000 -33.67281 -144.17651 -0.063899338 158.45253 -0.056902774 158.48351 -33.777763 -120.13254
1300000000 -21.442745 -135.85568 -0.076544113 -43.33812 -0.092005715 -43.274769 -21.806187 -91.419281
1325000000 -27.248545 -57.624996 -0.070278935 115.43514 -0.064435191 115.3795 -29.064051 -4.2995815
1350000000 -21.523762 -85.081223 -0.10042564 -86.111328 -0.072743125 -86.146988 -23.692608 -41.408325
1375000000 -20.882217 -25.599331 -0.087981716 71.802101 -0.10300574 71.871162 -24.02478 0.22703587
1400000000 -36.319927 45.587299 -0.057630416 -129.63358 -0.055997517 -129.65994 -46.41988 -147.53905
1425000000 -24.12307 3.7152967 -0.061523564 28.758673 -0.065823033 28.721895 -25.340635 24.580017
1450000000 -29.432247 78.003693 -0.065291427 -173.06401 -0.067243561 -173.00056 -31.094034 133.57759
1475000000 -25.170345 109.05259 -0.049616437 -14.751907 -0.063064508 -14.696066 -32.467003 132.48265
1500000000 -29.57127 105.00129 -0.051656485 143.83118 -0.049470291 143.76288 -28.263632 126.87225
1525000000 -20.557093 151.69652 -0.068526961 -57.557129 -0.068061747 -57.566078 -23.579939 164.36493
1550000000 -41.636772 -96.408318 -0.073595665 100.44732 -0.071624324 100.43986 -41.556686 117.85509
1575000000 -23.340971 -176.01001 -0.075670548 -101.2599 -0.082356378 -101.35553 -23.543716 -153.46643
1600000000 -24.854801 -84.054428 -0.077624142 57.388966 -0.072556838 57.404587 -27.967327 -63.605564
1625000000 -53.020348 -12.53871 -0.064761415 -144.45171 -0.064533755 -144.41246 -35.32193 -138.41843
1650000000 -19.972908 -91.280945 -0.100402 13.895866 -0.1161638 13.862384 -22.898455 -72.723572
1675000000 -31.054073 22.66614 -0.074073419 172.3035 -0.064755909 172.28687 -33.227348 121.61067
1700000000 -27.009958 -81.274742 -0.086147912 -29.280857 -0.078973137 -29.278667 -29.60309 -60.356407
1725000000 -24.830317 21.85899 -0.076748796 128.95361 -0.079625659 128.98199 -26.50478 53.632034
1750000000 -33.439613 65.101707 -0.088911965 -72.623032 -0.079165615 -72.653656 -35.373852 19.52182
1775000000 -31.955587 8.7202148 -0.079768807 85.763069 -0.070904508 85.758102 -27.824675 33.410496
1800000000 -23.133551 130.67093 -0.081923977 -115.80862 -0.093027666 -115.81602 -26.799717 110.13585
1825000000 -26.241877 -95.804047 -0.077900298 42.5233 -0.076697782 42.499359 -32.863388 -46.724796
1850000000 -37.270248 71.388435 -0.066130064 -159.174 -0.066967212 -159.16338 -33.229515 165.23442
1875000000 -22.541119 -99.227982 -0.092407152 -0.75736743 -0.094750747 -0.7179808 -25.242804 -121.34978
1900000000 -30.096235 28.132732 -0.074236698 157.56482 -0.071262725 157.53156 -32.393661 113.58453
1925000000 -30.287123 -99.344879 -0.085825101 -44.034267 -0.071203925 -44.064274 -26.610386 -117.30565
1950000000 -26.350792 17.323879 -0.08409629 114.2591 -0.082641475 114.21829 -29.066896 32.581642
1975000000 -29.121227 127.53198 -0.085254684 -87.330925 -0.081664935 -87.261497 -34.975357 -168.78342
2000000000 -26.759485 -34.287941 -0.088854268 71.018257 -0.080420472 71.020485 -25.132736 -8.8418312
2025000000 -27.004259 144.25458 -0.079932757 -130.66714 -0.090611346 -130.58708 -34.04974 88.60955
2050000000 -26.650181 -89.914719 -0.083060764 27.739594 -0.077895209 27.774155 -29.980301 -69.867874
2075000000 -32.023045 70.515785 -0.068255849 -173.91449 -0.064702921 -173.92499 -31.672312 124.85464
2100000000 -26.289465 -121.1865 -0.08052256 -15.509094 -0.080309853 -15.507706 -28.424427 -129.77492
2125000000 -31.427912 30.87796 -0.070426047 142.77364 -0.07599026 142.7655 -31.710564 83.690521
2150000000 -25.934347 -146.05876 -0.08050178 -58.85141 -0.087159887 -58.859287 -25.709475 -137.66797
2175000000 -25.263147 -21.066214 -0.084580131 99.524323 -0.086745903 99.604637 -26.923737 13.884264
2200000000 -32.151508 -144.74561 -0.095387734 -102.18661 -0.098810114 -102.01361 -32.465633 -119.87682
2225000000 -20.286095 -36.656952 -0.10397491 56.262833 -0.11543161 56.132046 -21.793678 -32.85495
2250000000 -28.129107 0.36243537 -0.058750972 -145.46495 -0.0677744 -145.44897 -28.555264 7.806715
2275000000 -27.772345 -76.613037 -0.089313954 12.987411 -0.094825447 13.098874 -27.214731 -25.236172
2300000000 -28.549585 62.670593 -0.073619209 171.33276 -0.080570273 171.34229 -27.364269 99.417534
2325000000 -27.555859 -150.06506 -0.065556578 -30.257008 -0.052429844 -30.243877 -30.778931 133.48895
2350000000 -27.330271 19.627304 -0.081218891 128.07422 -0.07955537 128.06659 -27.247391 74.390129
2375000000 -29.261486 -164.72975 -0.087591566 -73.512543 -0.1158089 -73.481033 -22.483374 159.72203
2400000000 -24.487846 -20.107849 -0.083803065 84.754379 -0.070204012 84.822556 -32.186455 -20.663397
2425000000 -28.470207 155.07726 -0.084578723 -116.8102 -0.072947048 -116.79616 -20.046579 -166.71205
2450000000 -24.146606 -56.812099 -0.091317214 41.696594 -0.11292433 41.706955 -20.318924 -85.185654
2475000000 -26.803801 151.74524 -0.093917497 -159.99786 -0.094558269 -160.14886 -21.449205 -136.90768
2500000000 -21.680428 -123.76997 -0.1099419 -1.6609352 -0.1039366 -1.7297193 -21.63806 -78.927406
2525000000 -29.370604 52.068886 -0.074862123 156.61609 -0.078618631 156.57573 -27.135542 65.742569
2550000000 -22.033426 -120.44119 -0.07355836 -45.007462 -0.070951551 -45.072857 -25.604366 -34.482109
2575000000 -24.465078 3.0602126 -0.093970127 113.32172 -0.094321869 113.35038 -24.021341 30.66407
2600000000 -32.990715 -74.351471 -0.089657202 -88.411346 -0.078165449 -88.297585 -30.624302 64.39286
2625000000 -22.324472 -28.200544 -0.08360102 70.041718 -0.094827391 69.978828 -25.700804 2.3598137
2650000000 -31.213694 88.088753 -0.053209893 -131.42401 -0.072552606 -131.49905 -22.219475 104.01056
2675000000 -22.687325 -66.514153 -0.095857881 26.92848 -0.085548401 26.905622 -24.941566 -77.546814
2700000000 -30.44408 84.495911 -0.10332091 -174.90485 -0.086923331 -174.88211 -27.797125 135.38806
2725000000 -26.21468 -122.95744 -0.084440246 -16.442261 -0.083609566 -16.366844 -28.256475 -121.91386
2750000000 -24.699923 42.161064 -0.089382768 141.83905 -0.089532763 141.84218 -25.222561 58.767017
2775000000 -23.957916 160.5144 -0.082479544 -59.604759 -0.085946731 -59.613781 -28.69939 -128.41032
2800000000 -25.64447 0.74728018 -0.091181234 98.590797 -0.091110803 98.580399 -25.148598 8.3726234
2825000000 -23.495638 166.09853 -0.095325425 -103.00804 -0.067493357 -103.07265 -31.087803 -178.44048
2850000000 -23.653448 -72.231445 -0.0824764 55.466644 -0.089412607 55.495155 -26.278919 -29.384748
2875000000 -23.16234 -154.10612 -0.086613655 -146.3824 -0.080893904 -146.19933 -35.550251 148.28949
2900000000 -20.119047 -92.560471 -0.098412119 12.273664 -0.10813634 12.181361 -24.01976 -92.193871
2925000000 -24.440432 -103.76254 -0.067227446 170.46574 -0.097687796 170.30615 -40.469124 -80.861572
2950000000 -26.876272 -104.18986 -0.089350894 -31.131023 -0.062696137 -31.168636 -33.415028 -98.021736
2975000000 -24.379013 19.430395 -0.087539814 127.14883 -0.091789946 127.1638 -24.44075 41.938187
3000000000 -39.025326 -68.263481 -0.074989542 -74.546623 -0.095156088 -74.472672 -26.569752 23.554081
3025000000 -23.89049 -18.42042 -0.092040464 83.94281 -0.085137114 83.854736 -24.642937 -2.310508
3050000000 -37.390568 161.32014 -0.096080042 -117.68908 -0.092175014 -117.75413 -27.462534 110.3937
3075000000 -26.839905 -43.536572 -0.086480178 40.56583 -0.0817727 40.607994 -38.485142 -92.014999
3100000000 -24.927525 92.886856 -0.11465726 -161.16367 -0.10662241 -161.20552 -20.010347 135.76199
3125000000 -25.813335 -145.84497 -0.059979584 -2.4060218 -0.079889879 -2.4012823 -23.768002 -134.91885
3150000000 -21.672812 151.57982 -0.064584322 155.81104 -0.07576406 155.84648 -22.046288 -178.68892
3175000000 -21.425255 -150.17688 -0.10479541 -46.052349 -0.085554034 -46.042164 -22.928518 -117.77763
3200000000 -25.280748 -4.7394605 -0.080890208 112.47761 -0.085299797 112.48483 -25.171408 19.253716
3225000000 -21.397087 -93.88559 -0.071994208 -88.981766 -0.08806432 -88.824547 -23.02693 -46.182983
3250000000 -21.594255 -29.718901 -0.10552967 69.159058 -0.11552835 69.081604 -22.16077 -26.933043
3275000000 -23.392469 -4.5673137 -0.066872299 -132.50175 -0.072463438 -132.59294 -41.613895 12.971786
3300000000 -24.57406 -43.996109 -0.09137293 25.933578 -0.093311988 26.031334 -32.280098 -44.854336
3325000000 -21.879568 41.499302 -0.1385161 -175.66837 -0.15248224 -175.71144 -22.121305 95.66272
3350000000 -32.29792 152.87715 -0.041884065 -17.375448 -0.050489955 -17.531193 -27.782064 160.98891
3375000000 -23.644066 104.7089 0.0070952578 140.93234 -0.028330917 140.80312 -16.800579 135.7942
3400000000 -23.935938 138.6302 -0.10565799 -60.610172 -0.11283222 -60.660782 -25.048916 -140.371
3425000000 -27.390772 -9.7109632 -0.072851226 97.673935 -0.071020439 97.646729 -28.171057 3.7976043
3450000000 -32.308964 -157.86958 -0.020520594 -103.87664 -0.031453088 -103.91544 -19.58201 -98.044716
3475000000 -24.280787 -76.188347 -0.091763437 54.588326 -0.11280804 54.546505 -22.633673 -47.143936
3500000000 -21.687325 -127.51675 -0.12815784 -147.1203 -0.14095782 -147.28397 -20.843645 -64.517143
3525000000 -24.526772 -84.9403 -0.056982178 11.045008 -0.050759748 11.09823 -29.766373 -23.65416
3550000000 -21.361908 -60.706039 -0.0096867671 169.73422 -0.025025707 169.83626 -20.37266 29.805153
3575000000 -26.035202 -30.356663 -0.12850505 -32.041714 -0.12160667 -32.062748 -24.460941 45.234726
3600000000 -15.584543 -10.836029 -0.24922362 126.2748 -0.23783273 126.24133 -15.91283 47.737041
3625000000 -21.625854 43.119118 -0.019744715 -75.497978 -0.016985707 -75.422981 -26.14926 140.24161
3650000000 -26.978598 -6.1666965 -0.085955366 82.957047 -0.087655127 82.981819 -30.318218 -0.24215105
3675000000 -25.79146 90.936768 -0.12779586 -118.79488 -0.1234309 -118.83069 -28.241592 160.49911
3700000000 -32.724186 -85.191216 -0.066519499 39.574688 -0.05619574 39.709129 -27.692442 -83.986366
3725000000 -23.194263 138.05392 -0.016917819 -162.05676 -0.016667321 -162.05656 -20.380621 -156.54648
3750000000 -32.159294 -138.63147 -0.089206412 -3.4435444 -0.098427452 -3.6111925 -26.559675 -137.08026
3775000000 -28.030708 168.67107 -0.12141969 154.66211 -0.11841924 154.55627 -30.316324 -150.97112
3800000000 -32.748829 -142.63496 -0.070866868 -46.985531 -0.060458142 -46.916073 -32.585873 -34.066544
3825000000 -25.765999 -117.61179 -0.05891826 111.56443 -0.052812826 111.62464 -23.45027 -30.648327
3850000000 -33.796375 -108.58526 -0.10012705 -90.072311 -0.096413136 -90.17009 -25.890434 -81.375397
3875000000 -27.077761 -38.698204 -0.083235711 68.177757 -0.076505624 68.214684 -30.237532 -28.877037
3900000000 -21.60742 -61.57481 -0.070943572 -133.5825 -0.076430678 -133.50304 -34.135521 -12.970518
3925000000 -25.773306 -58.830307 -0.085164696 24.892488 -0.091879852 25.044704 -29.000904 -38.313988
3950000000 -20.288939 -22.34672 -0.10854833 -176.7209 -0.10615937 -176.39696 -33.128716 75.092392
3975000000 -27.623808 30.374678 -0.076555535 -18.440271 -0.087583818 -18.452394 -34.182678 101.6379
4000000000 -17.898714 22.912842 -0.1474504 139.96712 -0.14645715 139.83626 -19.9632 81.109566
4025000000 -26.835667 77.030632 -0.079927191 -61.610691 -0.084603325 -61.635006 -36.191708 53.879154
4050000000 -23.344501 53.469986 -0.084272929 96.629906 -0.1141197 96.761505 -29.45878 119.4866
4075000000 -33.185104 106.96137 -0.08195512 -104.95358 -0.10448368 -104.83981 -22.239815 -174.18324
4100000000 -29.828184 -25.844992 -0.079055436 53.478756 -0.078197658 53.46423 -31.910402 -83.056381
4125000000 -48.530041 -28.855579 -0.079201415 -148.13246 -0.086904906 -148.23976 -23.044882 -155.12912
4150000000 -32.151157 -115.55098 -0.079497196 10.250381 -0.08076103 10.253844 -27.643539 -81.923622
4175000000 -33.644421 155.95462 -0.10518052 168.54305 -0.094344951 168.45757 -24.016115 -95.473625
4200000000 -30.478445 -163.76007 -0.083765142 -33.139282 -0.069570079 -33.180519 -27.176689 -66.732407
4225000000 -38.848351 -87.071487 -0.056245312 125.24789 -0.041472189 125.44048 -19.02882 -16.140684
4250000000 -27.647577 -87.05793 -0.091898821 -76.23159 -0.078238375 -76.196281 -24.051468 7.3075452
4275000000 -20.938017 -76.298477 -0.15195386 82.323441 -0.16830948 82.229118 -15.917146 2.2215044
4300000000 -31.504597 -35.671021 -0.058102861 -119.77636 -0.068060525 -119.77032 -29.28681 58.801685
4325000000 -29.271986 -27.807878 -0.074380957 38.798622 -0.078620978 38.772541 -37.293163 -114.00513
4350000000 -31.064285 20.786337 -0.1199897 -162.7896 -0.10853575 -162.65834 -18.583529 115.40341
4375000000 -33.944073 -97.513016 -0.07756409 -4.6030121 -0.073551454 -4.5435185 -35.899399 -179.71338
4400000000 -30.478233 37.147736 -0.04912883 153.49486 -0.076002404 153.63992 -18.569992 140.2897
4425000000 -33.628822 113.30843 -0.072286628 -47.631145 -0.07744848 -47.68351 -25.129581 -140.14413
4450000000 -23.823839 36.763855 -0.1475794 110.92882 -0.074297935 110.64085 -24.435331 -168.73509
4475000000 -31.073931 106.34777 -0.087781638 -91.351227 -0.062138304 -91.157166 -27.523397 -96.927933
4500000000 -26.464447 139.38065 -0.02538481 66.725594 -0.046624403 67.303162 -18.923056 -79.751755
4525000000 -21.775787 161.50409 -0.068442531 -134.07076 -0.075116023 -134.25781 -25.192715 -99.327477
4550000000 -29.584751 -74.811836 -0.075472422 24.027782 -0.070346035 24.014751 -30.450052 -97.589478
4575000000 -20.909786 -130.4543 -0.049234103 -178.17554 -0.056673389 -177.9601 -28.083496 20.084835
4600000000 -26.820105 -79.238678 -0.067472778 -19.178467 -0.062997736 -19.066179 -32.161358 13.086781
4625000000 -18.584326 -65.454521 -0.058613542 139.60521 -0.090009943 139.74031 -19.859074 35.877335
4650000000 -29.660589 -4.0001307 -0.069705352 -62.703964 -0.090032294 -62.643826 -37.960777 -42.530777
4675000000 -16.507763 -19.213104 -0.089455932 95.798325 -0.1158546 95.436203 -23.7733 45.284477
4700000000 -30.638979 21.420977 -0.074669845 -105.72208 -0.068802133 -105.71577 -28.715397 132.78047
4725000000 -22.810303 -15.104284 -0.1177704 52.559906 -0.074135497 52.687347 -28.66268 73.059006
4750000000 -28.319668 72.292496 -0.085929193 -149.20509 -0.089915834 -149.18813 -25.299442 169.19037
4775000000 -38.005165 -55.711838 -0.070742443 9.3582973 -0.073034376 9.3367538 -29.022943 -132.51595
4800000000 -21.324114 78.988029 -0.10234445 167.56741 -0.084532574 167.56085 -22.730623 139.37178
4825000000 -34.715252 173.23022 -0.073278353 -33.978123 -0.078745902 -34.010963 -40.725124 -76.315147
4850000000 -26.897526 98.000908 -0.084266059 124.14869 -0.098258302 124.26637 -26.898685 -8.2843504
4875000000 -29.927298 168.31023 -0.079024814 -77.300201 -0.064839259 -77.18531 -25.457148 -103.52704
4900000000 -24.929543 -117.78574 -0.060115334 81.242035 -0.061669882 81.386734 -26.954531 -51.572285
4925000000 -27.76465 -128.99518 -0.059180852 -120.64087 -0.091044068 -120.56822 -36.012539 -165.27699
4950000000 -17.356379 -99.981888 -0.10568268 38.2029 -0.1328834 37.779507 -21.482649 -34.11861
4975000000 -43.866436 -31.733036 -0.069627203 -163.81593 -0.062801011 -163.75549 -36.312595 62.159832
5000000000 -32.358212 -80.422295 -0.065524019 -5.3619528 -0.06828092 -5.3599219 -31.837172 -118.45492
5025000000 -28.033005 9.9906998 -0.099337824 153.00862 -0.090777725 153.0946 -21.459764 79.489418
5050000000 -37.4683 -87.059952 -0.067651495 -48.677467 -0.074979752 -48.702732 -34.37941 71.368347
5075000000 -27.022394 -13.220065 -0.090114929 109.58976 -0.081794076 109.44973 -21.880707 47.573448
5100000000 -31.850882 43.872124 -0.065399311 -91.884033 -0.072887637 -91.860245 -29.814056 -147.95413
5125000000 -21.867893 -1.3529918 -0.11770555 66.682991 -0.077851951 66.600121 -31.118816 -166.16837
5150000000 -30.131624 85.638519 -0.10263466 -135.37462 -0.052244909 -135.35568 -23.132748 167.44119
5175000000 -45.45734 112.40152 -0.062576063 22.909857 -0.028636584 23.218527 -23.180012 -138.35922
5200000000 -19.688614 113.46822 -0.059880216 -178.38481 -0.071217939 -178.51503 -29.614193 175.94502
5225000000 -32.321674 -147.66098 -0.063146502 -20.088543 -0.066296481 -20.129423 -28.461929 -106.10925
5250000000 -27.809874 170.61157 -0.064577147 137.85751 -0.048066542 137.91841 -29.37923 13.029538
5275000000 -26.592716 -127.24331 -0.043233961 -63.305515 -0.041023761 -63.349949 -35.895828 -57.006912
5300000000 -21.153963 -90.117836 -0.018319145 95.784966 -0.071869865 95.707535 -16.575848 -18.731697
5325000000 -30.937243 -84.609177 -0.074198604 -106.78182 -0.082042485 -106.77361 -32.016537 -69.109749
5350000000 -16.071053 -65.121078 -0.087837495 51.548786 -0.13119896 51.0592 -20.44224 -12.048429
5375000000 -27.882875 -17.384623 -0.02106691 -149.68971 -0.032731269 -149.62242 -22.107885 102.32169
5400000000 -18.101065 -45.45776 -0.096156433 8.9930696 -0.0055468292 8.9838858 -20.721109 61.545509
5425000000 -22.297451 48.42487 -0.12151835 166.58475 -0.11863657 166.47534 -20.205196 85.591003
5450000000 -36.723083 91.566704 -0.030094944 -34.739384 -0.041851528 -34.762096 -30.788055 -138.19044
5475000000 -16.861298 52.302372 -0.045632809 123.74382 -0.030214138 123.46409 -24.4795 123.95839
5500000000 -30.932131 138.18811 -0.073305182 -78.094543 -0.062199544 -78.149628 -29.8922 -179.16376
5525000000 -21.48329 98.742577 -0.084567465 79.48568 -0.087896228 80.082085 -24.55937 -87.687355
5550000000 -21.575918 168.76862 -0.011367292 -121.37373 -0.017231056 -121.45527 -24.429039 -119.52313
5575000000 -17.227991 -169.7626 0.12013298 37.502113 0.060501531 37.373959 -16.575817 -98.307007
5600000000 -22.105959 -125.07761 -0.027325859 -164.93776 -0.054673187 -164.77158 -42.994164 142.86923
5625000000 -13.069382 -119.00045 -0.089200698 -6.1194911 -0.12825108 -6.7306061 -22.378613 -75.702705
5650000000 -22.517488 -34.815918 0.0027886643 152.43541 -0.030816002 152.47989 -19.057381 28.039955
5675000000 -34.188019 28.787899 -0.037102211 -49.583824 -0.037588455 -49.524803 -36.76704 -92.56617
5700000000 -15.881998 7.9379759 -0.10766491 108.85944 -0.12764424 108.52168 -21.723785 26.57687
5725000000 -33.462433 116.16325 -0.03402609 -92.770584 -0.038401302 -92.735748 -26.761484 150.24335
5750000000 -21.130819 30.223963 -0.062466156 65.397125 -0.045851357 65.664536 -36.807266 24.52697
5775000000 -25.51936 142.93483 -0.036516923 -136.25951 -0.037692726 -136.25237 -28.957388 170.23331
5800000000 -31.283348 -137.86623 0.013655169 22.366684 -0.024137644 22.48311 -20.84284 -119.08169
5825000000 -32.135319 127.245 -0.039949108 -179.4904 -0.032798827 -179.39268 -25.643585 135.88556
5850000000 -20.76775 -131.28596 -0.026809458 -20.864607 -0.060467765 -21.111755 -28.214317 -123.22173
5875000000 -27.389183 42.768505 -0.024015943 137.42346 -0.051921979 137.54442 -19.959446 17.466576
5900000000 -40.929523 -41.16275 -0.014463671 -64.235451 -0.022821084 -64.244995 -31.551014 -79.930191
