!Keysight Technologies,E5080A,MY55100170,A.11.70.00
!Date: Tuesday, August 20, 2019 22:43:20
!Correction: S11(Full 2 Port(1,2)) 
!S21(Full 2 Port(1,2)) 
!S12(Full 2 Port(1,2)) 
!S22(Full 2 Port(1,2)) 
!S2P File: Measurements: S11, S21, S12, S22:
# Hz S  dB   R 50
1000000000 -35.013695 -70.148117 -0.053720538 -142.59476 -0.043321129 -142.62439 -31.088778 -69.968216
1025000000 -32.173313 -61.68512 -0.065833643 15.752426 -0.058422368 15.853759 -27.037432 -26.884024
1050000000 -45.183975 -74.313393 -0.059571676 174.19711 -0.060746368 174.20119 -51.086182 -67.641785
1075000000 -38.181194 4.936296 -0.092225574 -27.468916 -0.079600058 -27.549194 -25.713718 29.684473
1100000000 -37.447514 3.5194814 -0.050671674 130.87912 -0.04881772 130.89987 -26.064148 92.913681
1125000000 -33.885658 56.188751 -0.057304896 -70.725777 -0.058337677 -70.658119 -21.659708 75.764908
1150000000 -44.464138 38.194466 -0.068802156 87.730125 -0.068793446 87.618187 -25.946041 113.27029
1175000000 -40.527699 33.562206 -0.046047442 -113.9623 -0.048967659 -113.94446 -35.45779 -103.60768
1200000000 -33.667793 159.64204 -0.048509024 44.310703 -0.050217167 44.461243 -26.720392 -176.52696
1225000000 -42.066093 -147.18417 -0.048756517 -157.16 -0.050039303 -157.14758 -29.02216 -130.04066
1250000000 -25.349133 -159.50072 -0.082522295 1.3969172 -0.069071509 1.3783617 -23.636526 -123.66118
1275000000 -30.707291 -130.31029 -0.061674174 159.50229 -0.052499931 159.53601 -30.660501 -118.01037
1300000000 -22.542746 -135.01671 -0.061888088 -42.27298 -0.079603389 -42.216583 -22.455696 -84.136406
1325000000 -27.172728 -69.129585 -0.069340311 116.48727 -0.056515701 116.45981 -31.441618 -11.25498
1350000000 -21.516336 -75.753944 -0.10187348 -84.977417 -0.073861644 -84.965904 -22.664877 -35.194176
1375000000 -21.916359 -25.03252 -0.07313782 72.894653 -0.092189834 72.978813 -25.303619 7.4832101
1400000000 -34.18288 16.906052 -0.04899735 -128.49706 -0.051161069 -128.47913 -39.438698 -74.14431
1425000000 -24.75054 15.98753 -0.053453021 29.981159 -0.060218759 29.938734 -25.004257 37.670921
1450000000 -32.385582 70.264687 -0.057326272 -171.88458 -0.059195206 -171.80254 -33.435963 157.9178
1475000000 -23.657415 107.05555 -0.047751993 -13.557871 -0.059361104 -13.542965 -30.561316 116.39729
1500000000 -31.606161 125.59804 -0.042565424 145.05603 -0.043008722 145.01961 -28.079351 145.76263
1525000000 -20.887308 147.44525 -0.063655987 -56.362091 -0.055857223 -56.377197 -24.761971 159.52979
1550000000 -35.424194 -132.89948 -0.069261938 101.7259 -0.064198673 101.68888 -35.614666 158.59676
1575000000 -25.023628 -171.43677 -0.065140896 -99.967682 -0.07077913 -100.0031 -24.511799 -142.59114
1600000000 -25.66379 -93.527542 -0.072485097 58.681187 -0.066163547 58.700893 -30.728842 -68.914581
1625000000 -36.959507 -40.211964 -0.061726078 -143.086 -0.059822578 -143.07684 -32.565693 -106.50049
1650000000 -21.031292 -92.085403 -0.086513259 15.214543 -0.10645337 15.21286 -24.417652 -68.023727
1675000000 -32.004719 -2.3061876 -0.06431073 173.68002 -0.054537699 173.6391 -35.778793 159.30063
1700000000 -29.367983 -68.565521 -0.079488039 -27.892471 -0.074359111 -27.889509 -30.255384 -36.444324
1725000000 -26.867229 18.149788 -0.068006292 130.35782 -0.068885088 130.3979 -28.825314 64.746696
1750000000 -29.818604 54.511745 -0.081362404 -71.187492 -0.071348138 -71.252907 -30.698042 17.259575
1775000000 -38.55994 16.759691 -0.067416072 87.202553 -0.063759945 87.207382 -29.466114 53.088432
1800000000 -24.492315 126.47524 -0.071960792 -114.37903 -0.081179231 -114.33957 -28.939371 100.12104
1825000000 -27.314341 -108.4006 -0.071653724 43.986465 -0.062551498 43.952969 -39.427944 -30.566637
1850000000 -39.700447 9.5634575 -0.060210258 -157.65337 -0.056336194 -157.66574 -33.927952 -154.14993
1875000000 -24.133734 -100.35287 -0.080586895 0.78532273 -0.07967487 0.77933896 -27.501114 -124.66383
1900000000 -32.481007 5.1693296 -0.066697709 159.08577 -0.062004499 159.0672 -33.728813 150.38669
1925000000 -34.400028 -80.024055 -0.078006886 -42.468277 -0.066413485 -42.527248 -29.039782 -104.1631
1950000000 -29.139381 13.991019 -0.074340507 115.82999 -0.066119924 115.83228 -32.724735 48.354637
1975000000 -29.769617 107.4738 -0.07822071 -85.755928 -0.076386929 -85.722404 -44.233322 -128.70802
2000000000 -29.599262 -42.079426 -0.073460013 72.627625 -0.071607441 72.660248 -27.297403 0.67095619
2025000000 -30.116322 144.77516 -0.074736126 -129.02744 -0.077255167 -128.93805 -37.995117 47.064281
2050000000 -28.722204 -102.1447 -0.070732221 29.391212 -0.06555514 29.41251 -35.328606 -64.292374
2075000000 -36.35482 39.8629 -0.062841155 -172.25299 -0.056541998 -172.23616 -34.784454 160.06531
2100000000 -28.871315 -128.24644 -0.071205184 -13.852854 -0.07112895 -13.838621 -32.106255 -134.71632
2125000000 -35.679401 4.9068351 -0.062615737 144.51077 -0.066768728 144.49936 -34.885281 120.4501
2150000000 -28.996338 -145.87514 -0.068079412 -57.124916 -0.0749112 -57.145622 -28.082245 -126.25915
2175000000 -27.070568 -31.171631 -0.075708285 101.27071 -0.077253073 101.35155 -30.122063 24.653877
2200000000 -36.686054 -105.76939 -0.085044064 -100.35169 -0.094103575 -100.2598 -31.473509 -84.351395
2225000000 -21.777082 -36.736572 -0.081798427 58.022934 -0.099779218 57.954914 -23.438793 -26.370947
2250000000 -25.939709 -7.6210942 -0.062983796 -143.64409 -0.05753696 -143.71036 -27.236845 -7.2988453
2275000000 -31.729485 -81.381302 -0.079321809 14.819164 -0.087645657 14.925835 -28.179436 -2.1256664
2300000000 -32.223358 47.750141 -0.061415873 173.17354 -0.064368434 173.20166 -30.161339 118.15684
2325000000 -29.560041 -165.65948 -0.055317763 -28.418539 -0.045195535 -28.432474 -29.643915 112.01855
2350000000 -30.271976 7.9855113 -0.070270978 129.96596 -0.069015369 129.97165 -28.940699 97.59697
2375000000 -33.967613 -173.18651 -0.083806813 -71.654655 -0.10219008 -71.600166 -24.218416 157.93294
2400000000 -26.674389 -26.242022 -0.071122676 86.690788 -0.054819565 86.735107 -40.294983 -19.759754
2425000000 -32.431931 150.12529 -0.072408579 -114.85233 -0.061706357 -114.8151 -20.735817 -154.88516
2450000000 -26.475607 -60.818821 -0.078360319 43.630016 -0.089346662 43.653038 -21.695787 -86.28215
2475000000 -29.35755 167.34464 -0.085742086 -157.99866 -0.089862488 -158.14894 -20.530033 -125.84332
2500000000 -22.770798 -129.3351 -0.096684404 0.28127703 -0.089575715 0.26475528 -23.102108 -69.361046
2525000000 -33.418602 33.812828 -0.064780258 158.65486 -0.066928029 158.63744 -30.891302 76.789948
2550000000 -23.907969 -116.22669 -0.05713962 -42.96595 -0.06513799 -43.010838 -24.38413 -17.600819
2575000000 -26.520906 -4.7161312 -0.080689818 115.36543 -0.074627712 115.4204 -26.220505 41.364361
2600000000 -31.165028 -35.030975 -0.080457658 -86.311447 -0.073999718 -86.232323 -28.914581 44.057564
2625000000 -24.185835 -30.821724 -0.064728931 72.153061 -0.077023685 72.116646 -27.88089 20.749466
2650000000 -31.324492 59.140095 -0.047659095 -129.31955 -0.063391574 -129.40628 -23.924107 102.89471
2675000000 -24.634016 -68.697014 -0.082953863 29.056694 -0.071270019 28.980257 -27.704714 -74.510803
2700000000 -35.49181 68.180008 -0.094278164 -172.73576 -0.077893704 -172.67963 -28.96454 162.83855
2725000000 -28.499464 -133.17653 -0.072431579 -14.303745 -0.069747493 -14.244933 -32.703152 -116.80371
2750000000 -27.322107 35.646332 -0.07175117 144.05264 -0.073407508 144.03983 -28.014591 71.644066
2775000000 -24.334694 150.38713 -0.077484459 -57.494301 -0.077522099 -57.471153 -31.437328 -105.86056
2800000000 -28.489752 -6.5422287 -0.080915637 100.8287 -0.076222673 100.8186 -27.983126 19.298231
2825000000 -25.545891 165.75072 -0.080758892 -100.77995 -0.058741674 -100.82127 -35.52169 -147.60358
2850000000 -24.478949 -81.975937 -0.07134337 57.700584 -0.074370824 57.699253 -28.95643 -16.21887
2875000000 -23.676712 -136.56532 -0.073644228 -144.01324 -0.077570543 -143.87636 -37.744392 -139.85669
2900000000 -21.240742 -95.182457 -0.0805749 14.516728 -0.094182044 14.453845 -26.45895 -86.733337
2925000000 -22.483599 -95.338058 -0.076630354 172.85332 -0.088271379 172.58186 -32.166283 -102.75251
2950000000 -30.705332 -102.31591 -0.080175251 -28.786659 -0.057731573 -28.791304 -36.533737 -45.844891
2975000000 -26.472242 10.947815 -0.074303918 129.5182 -0.079237938 129.53506 -26.83597 54.111874
3000000000 -35.768085 -2.1341045 -0.07327418 -72.161957 -0.089677863 -72.153008 -24.255594 20.312067
3025000000 -25.897396 -25.042944 -0.074711837 86.332619 -0.073795132 86.261528 -27.252316 10.965082
3050000000 -50.593006 50.407703 -0.09355063 -115.29877 -0.081829213 -115.3624 -31.131674 104.93983
3075000000 -30.259199 -48.253193 -0.079480357 43.022224 -0.071978226 43.005852 -43.854927 156.67908
3100000000 -27.278982 86.122841 -0.095189288 -158.69225 -0.090056159 -158.66344 -20.944588 149.11514
3125000000 -25.763062 -158.95615 -0.050288409 0.0076785735 -0.059733622 0.023873636 -25.843275 -135.77351
3150000000 -22.024906 167.24634 -0.057403091 158.41237 -0.077651471 158.3987 -20.659748 -166.89883
3175000000 -22.747953 -152.86624 -0.091016792 -43.577778 -0.070580974 -43.52737 -24.381947 -103.9124
3200000000 -26.87396 -17.179621 -0.072842687 115.01582 -0.07582958 115.03304 -27.899689 31.280966
3225000000 -21.932865 -79.035057 -0.065402046 -86.355965 -0.094645649 -86.265137 -21.344906 -37.483425
3250000000 -23.027088 -32.949612 -0.083650813 71.70079 -0.094798379 71.638794 -24.015564 -18.762146
3275000000 -21.526136 -3.3677688 -0.069579475 -129.91582 -0.061862446 -130.03136 -35.5495 -35.834122
3300000000 -27.445753 -41.880478 -0.078897879 28.521959 -0.083705172 28.604156 -35.403797 -2.282135
3325000000 -22.168846 36.885269 -0.13022576 -173.12585 -0.13370934 -173.11931 -23.767185 108.26402
3350000000 -28.86515 139.40877 -0.040930163 -14.740646 -0.049358632 -14.921858 -28.434595 146.81538
3375000000 -25.212803 121.13332 0.027921965 143.67287 -0.019757792 143.61232 -16.276756 145.97179
3400000000 -23.506819 130.90547 -0.10115985 -57.988636 -0.097042479 -57.991543 -26.843752 -123.60471
3425000000 -29.479597 -25.86878 -0.063498832 100.39368 -0.063130252 100.35667 -31.721931 22.745575
3450000000 -40.049278 -124.98121 -0.016438702 -101.11247 -0.032871626 -101.06866 -18.688574 -86.706558
3475000000 -24.922991 -86.661591 -0.08135023 57.319965 -0.095384561 57.291981 -24.618195 -37.744209
3500000000 -21.663374 -111.24896 -0.12358022 -144.32306 -0.14269401 -144.59648 -19.518356 -62.822926
3525000000 -26.583923 -90.776123 -0.050356358 13.827086 -0.03902211 13.917658 -28.96072 8.6102724
3550000000 -19.876015 -57.916618 -0.017089989 172.61295 -0.0086185625 172.66525 -21.94912 31.226
3575000000 -26.804893 -6.5334935 -0.120482 -29.231428 -0.12517393 -29.289528 -22.55188 46.708424
3600000000 -15.777808 -11.171241 -0.23468572 128.93275 -0.21698482 129.1075 -16.591995 57.591206
3625000000 -20.081276 48.291531 -0.019809784 -72.583778 -0.0074730646 -72.595299 -28.83003 136.95743
3650000000 -30.105848 -17.547367 -0.070974939 85.844612 -0.078442335 85.884483 -33.359993 34.23037
3675000000 -25.524902 81.237457 -0.12725796 -115.9709 -0.10794572 -115.88844 -30.92366 -168.27132
3700000000 -32.769703 -120.83554 -0.06019178 42.515594 -0.044605851 42.610355 -31.513542 -79.729919
3725000000 -25.362673 146.1944 0.0043776995 -159.03059 -0.016181372 -158.99117 -19.254225 -144.21454
3750000000 -31.76767 -167.15697 -0.080435716 -0.50968283 -0.083977245 -0.67366529 -30.207315 -136.68883
3775000000 -27.756676 -161.92531 -0.10816294 157.70039 -0.1068198 157.51088 -26.790195 -142.84514
3800000000 -37.106342 -172.65837 -0.065004796 -44.013058 -0.059502609 -43.839409 -28.454832 -13.105064
3825000000 -23.421186 -116.27389 -0.064884737 114.65452 -0.035273258 114.69642 -25.641256 -31.108524
3850000000 -36.853416 -54.107498 -0.089625567 -87.004333 -0.090509817 -87.145111 -24.289505 -66.322189
3875000000 -28.577999 -52.942055 -0.076021716 71.228668 -0.066677161 71.252602 -34.247456 3.5426872
3900000000 -20.390484 -49.293114 -0.073654898 -130.36821 -0.065283202 -130.34334 -30.18836 -35.946266
3925000000 -28.358547 -64.886986 -0.070906751 27.997112 -0.081100665 28.120302 -29.96788 -9.782443
3950000000 -19.257738 -20.976515 -0.11832372 -173.6573 -0.10393795 -173.27824 -39.815449 133.02542
3975000000 -26.410707 53.728767 -0.070114799 -15.268118 -0.079454191 -15.278262 -30.434315 79.25898
4000000000 -18.558167 22.712658 -0.11775487 143.02101 -0.123096 142.99236 -20.362022 95.403023
4025000000 -24.440737 79.391953 -0.081761397 -58.45414 -0.083851814 -58.46077 -32.197922 22.310064
4050000000 -25.755888 67.035645 -0.061072059 99.932343 -0.11014478 99.980629 -25.958269 135.96043
4075000000 -31.293499 75.27018 -0.069298729 -101.68005 -0.093508981 -101.5727 -22.912474 -156.81018
4100000000 -33.662109 -42.255054 -0.066811651 56.692959 -0.071419224 56.722736 -40.283264 -79.324135
4125000000 -34.403835 -25.161842 -0.070426293 -144.84737 -0.0817592 -144.89717 -21.936329 -138.11325
4150000000 -31.645067 -144.50665 -0.073298477 13.516318 -0.072713941 13.4913 -29.652552 -58.612122
4175000000 -36.41724 -151.65297 -0.093983643 171.88681 -0.092844762 171.70587 -22.462278 -98.664375
4200000000 -30.650558 174.13187 -0.072212093 -29.839071 -0.065364227 -29.843901 -26.483519 -40.777241
4225000000 -30.959021 -90.545685 -0.043686043 128.63016 -0.022300072 128.79677 -20.143951 -10.713701
4250000000 -29.621582 -64.318359 -0.089651108 -72.882683 -0.080830276 -72.816589 -22.279629 5.6942348
4275000000 -20.490187 -80.142487 -0.15070643 85.660706 -0.1523279 85.640167 -16.426504 13.005187
4300000000 -27.894932 -14.677088 -0.053707283 -116.30083 -0.059419964 -116.40351 -32.068714 42.157112
4325000000 -33.470917 -35.541409 -0.068183437 42.219082 -0.069450453 42.195431 -45.894653 143.95705
4350000000 -28.522423 4.825666 -0.11397026 -159.33061 -0.091153935 -159.15569 -19.257437 127.75309
4375000000 -36.287418 -137.25769 -0.069107711 -1.1402202 -0.068034194 -1.1222324 -41.389889 132.78445
4400000000 -31.801146 14.505268 -0.035023451 157.02472 -0.073018618 157.24023 -17.77939 153.24724
4425000000 -29.319761 105.77644 -0.073000267 -44.105865 -0.06766694 -44.172375 -26.694063 -121.77871
4450000000 -26.051704 34.389702 -0.13081466 114.38888 -0.072019786 114.10744 -22.959475 -170.07678
4475000000 -29.22501 93.154678 -0.080994606 -87.861954 -0.059303347 -87.542191 -25.010672 -77.079559
4500000000 -24.445168 160.60577 -0.0089162523 70.427635 -0.016602747 70.806503 -19.967794 -74.409492
4525000000 -23.609083 164.65195 -0.04779651 -130.45372 -0.066315077 -130.66046 -23.064541 -92.172066
4550000000 -30.782471 -93.335205 -0.067829028 27.587339 -0.060324382 27.606491 -35.973351 -75.131363
4575000000 -20.413389 -113.98498 -0.032633211 -174.38013 -0.037065204 -174.36288 -31.458565 13.849916
4600000000 -29.75415 -82.068871 -0.055325564 -15.53044 -0.057265975 -15.470472 -28.193668 19.477179
4625000000 -17.605335 -61.456902 -0.072557695 143.26103 -0.081647947 143.43176 -20.994669 49.342945
4650000000 -28.015579 23.15554 -0.06160729 -58.974792 -0.076726072 -58.971371 -31.908705 -28.141882
4675000000 -16.73871 -18.610947 -0.06580241 99.419113 -0.10057753 99.202553 -23.318735 66.607674
4700000000 -27.410254 30.253349 -0.077627927 -101.98158 -0.06016938 -101.95636 -33.087318 153.5486
4725000000 -24.883005 -14.67918 -0.1039231 56.335094 -0.079252601 56.427563 -26.261801 84.418274
4750000000 -27.634312 57.692852 -0.074986048 -145.42908 -0.077625811 -145.37131 -24.203106 -168.91023
4775000000 -43.729568 -127.16485 -0.06151453 13.105369 -0.060872275 13.072395 -33.871361 -126.90469
4800000000 -22.518719 75.806679 -0.087985881 171.37749 -0.078630388 171.37943 -21.90901 154.62587
4825000000 -30.980682 153.72505 -0.063708693 -30.208387 -0.07115598 -30.170677 -33.718517 -25.882805
4850000000 -30.811047 112.82634 -0.068883598 128.04578 -0.084033765 128.0937 -30.215584 2.4128127
4875000000 -30.386742 150.11931 -0.073365815 -73.444992 -0.062236916 -73.322601 -24.230932 -87.008972
4900000000 -22.598154 -114.22308 -0.058800608 85.159195 -0.050609209 85.291519 -30.169678 -31.153374
4925000000 -30.37014 -105.85459 -0.045095466 -116.70732 -0.081855066 -116.64484 -32.888287 -118.8376
4950000000 -16.974695 -99.213112 -0.10591404 42.038513 -0.12184537 41.716953 -21.485235 -18.90621
4975000000 -32.682156 -15.216531 -0.058125302 -159.79883 -0.048729956 -159.76408 -43.722076 151.08633
5000000000 -34.63633 -103.57674 -0.057342999 -1.4078321 -0.058981121 -1.4246588 -35.777927 -82.300781
5025000000 -26.826054 -3.3610811 -0.089773513 157.00856 -0.082929686 157.11174 -21.488859 96.224167
5050000000 -54.515232 -173.78772 -0.055388458 -44.672783 -0.06414526 -44.733257 -32.685902 35.419319
5075000000 -26.841877 -26.09247 -0.077661939 113.61421 -0.073632717 113.51144 -21.907822 65.347282
5100000000 -27.935446 53.941875 -0.060986709 -87.801872 -0.062919334 -87.796745 -28.063456 -119.85311
5125000000 -23.316128 -3.7298141 -0.10278813 70.702705 -0.069939956 70.589401 -30.635809 171.47926
5150000000 -28.897831 70.957405 -0.095549062 -131.32184 -0.048919171 -131.2382 -22.996387 -173.28563
5175000000 -33.395706 171.60289 -0.050515093 27.104769 -0.0075855935 27.280729 -24.94319 -128.61617
5200000000 -20.862265 115.42012 -0.044571444 -174.27011 -0.065311432 -174.43449 -26.538671 -166.26556
5225000000 -30.263657 -161.82106 -0.059097208 -15.988711 -0.060338933 -16.026424 -29.000462 -80.687592
5250000000 -28.19425 -155.80846 -0.036961734 142.09836 -0.026818048 142.10101 -31.642513 42.123306
5275000000 -28.526537 -132.82272 -0.034643166 -59.116531 -0.033835467 -59.118649 -30.087828 -40.998352
5300000000 -19.669161 -85.01033 -0.036619231 100.03844 -0.064388469 99.952049 -17.050392 -7.4561191
5325000000 -33.148121 -46.434486 -0.059293997 -102.54661 -0.07410787 -102.60788 -28.59967 -72.628021
5350000000 -15.870588 -63.240246 -0.071914747 55.65057 -0.12200311 55.301025 -20.200722 5.346354
5375000000 -25.390522 -3.8314104 -0.024254212 -145.3463 -0.02507133 -145.29822 -22.812346 118.51917
5400000000 -19.106058 -42.856533 -0.08123377 13.230977 -0.016795479 13.203864 -19.840189 64.225311
5425000000 -21.842297 45.76263 -0.11090003 170.81067 -0.094867773 170.79851 -20.459641 103.19895
5450000000 -31.866053 118.55093 -0.024750505 -30.383408 -0.030322487 -30.440214 -31.234564 -106.94754
5475000000 -17.550341 54.79414 -0.030950634 128.05045 -0.025962973 127.81516 -22.607269 134.06715
5500000000 -28.375006 132.2119 -0.064149044 -73.805206 -0.053714953 -73.762787 -31.412626 -142.03011
5525000000 -22.665527 117.00207 -0.055531718 83.947807 -0.061299626 84.405258 -25.990643 -79.19677
5550000000 -22.652153 169.34903 0.0013811069 -116.97662 -0.0061344784 -117.02303 -22.338442 -110.16851
5575000000 -16.104233 -158.65808 0.10178497 42.049606 0.06006686 41.974815 -17.279255 -87.094086
5600000000 -22.605787 -107.10977 -0.0104196 -160.40744 -0.03940947 -160.32449 -34.694267 -169.34903
5625000000 -12.846422 -115.23576 -0.081147052 -1.8509547 -0.11513115 -2.3684096 -22.083841 -56.985855
5650000000 -20.723679 -26.933268 -0.0065280059 156.9814 -0.025581308 157.03293 -19.9674 41.333336
5675000000 -33.05508 71.651192 -0.02807379 -45.090076 -0.03147658 -45.036865 -31.824009 -66.980316
5700000000 -15.881611 10.091806 -0.096226938 113.21658 -0.11225776 112.95842 -21.605959 45.68787
5725000000 -29.404367 111.64444 -0.029318528 -88.251167 -0.031027038 -88.196762 -27.947826 174.76404
5750000000 -22.811075 32.904949 -0.041538205 69.945488 -0.034782086 70.17028 -31.923027 46.704971
5775000000 -26.247574 134.84483 -0.026099812 -131.67989 -0.027956409 -131.66853 -26.671785 -163.50127
5800000000 -26.848021 -136.15321 0.015685895 27.026278 -0.012681903 27.118298 -21.718966 -106.38704
5825000000 -36.232262 102.9516 -0.028004838 -174.84361 -0.025348373 -174.73386 -23.906218 151.17896
5850000000 -19.94936 -133.32843 -0.023094222 -16.299328 -0.049696527 -16.4986 -28.145523 -88.877541
5875000000 -26.453478 29.04483 -0.020769766 142.11339 -0.043840375 142.18579 -20.51951 31.565975
5900000000 -44.220284 87.592628 -0.0080379304 -59.598621 -0.016751712 -59.54298 -27.724081 -71.480125
