!Keysight Technologies,E5080A,MY55100170,A.11.70.00
!Date: Tuesday, August 20, 2019 22:48:50
!Correction: S11(Full 2 Port(1,2)) 
!S21(Full 2 Port(1,2)) 
!S12(Full 2 Port(1,2)) 
!S22(Full 2 Port(1,2)) 
!S2P File: Measurements: S11, S21, S12, S22:
# Hz S  dB   R 50
1000000000 -31.979662 -11.302455 -0.003169683 -97.231926 0.00017669878 -97.201698 -31.464441 10.287488
1025000000 -34.660656 52.585133 -0.024068888 62.364662 -0.030227361 62.406353 -28.537062 84.171608
1050000000 -36.995731 -44.540691 -0.010669809 -138.19925 -0.009564314 -138.22992 -45.348991 -109.39839
1075000000 -35.489735 95.348061 -0.019183312 21.238403 -0.014124488 21.293022 -23.773033 133.87306
1100000000 -37.058353 -114.51412 -0.0021241314 -179.07082 -0.00010164873 -179.10394 -25.396872 -165.50917
1125000000 -32.316654 149.44034 -0.026742762 -19.521955 -0.019309632 -19.620234 -21.701248 173.11285
1150000000 -30.240398 -158.31563 -0.021583082 139.8239 -0.014188742 139.85542 -24.683378 -136.17216
1175000000 -40.548409 16.684828 0.0060728104 -60.61858 0.00037982772 -60.608292 -36.251385 -10.774545
1200000000 -27.301008 -133.62833 -0.0055307029 98.965851 -0.019569524 98.93718 -27.782076 -87.315712
1225000000 -30.345346 -36.701744 -0.014168656 -101.62744 -0.0093892906 -101.59784 -27.710045 -22.297619
1250000000 -27.167225 -67.128433 -0.036181033 57.726192 -0.029231194 57.880825 -24.098726 -18.247547
1275000000 -26.558565 -41.078659 -0.0052066124 -142.57336 -0.0051817144 -142.6259 -28.93881 -23.411263
1300000000 -25.664415 -2.5175042 -0.0059119612 17.128489 0.00141784 16.931179 -23.671124 34.710533
1325000000 -31.763508 6.4432278 -0.034511372 176.3922 -0.01197633 176.4346 -38.658249 128.83397
1350000000 -20.987785 55.384953 -0.067925498 -24.326038 -0.048501465 -24.180559 -23.227543 89.419197
1375000000 -24.312523 114.18621 0.023720503 135.56931 0.0071442304 135.54004 -27.759989 154.65962
1400000000 -41.463722 66.328079 -0.0068695098 -65.067207 -0.0003217331 -65.027985 -41.452839 34.233124
1425000000 -20.629509 162.7718 -0.035827849 94.407608 -0.055559073 94.475563 -24.713453 -179.95058
1450000000 -30.798086 -89.054993 0.011818375 -105.98476 0.0067021274 -105.94654 -31.77882 -53.367268
1475000000 -20.334019 -143.3105 0.017298279 53.702663 0.022740195 53.721851 -27.64962 -105.35719
1500000000 -24.960747 -74.261345 -0.020661436 -146.96881 -0.024530424 -146.95833 -26.571535 -77.131378
1525000000 -22.128218 -90.570229 -0.023973551 12.424317 -0.043206818 12.413721 -26.547312 -70.592522
1550000000 -27.678904 -56.039825 -0.0095110107 172.13269 0.0024996323 172.02544 -31.488874 -60.556171
1575000000 -24.4704 -15.903173 -0.026772998 -28.232275 -0.014606386 -28.263906 -24.746288 -0.46462601
1600000000 -35.125984 4.6479168 -0.020520762 130.98952 -0.016012298 131.05818 -33.525913 94.152512
1625000000 -31.752188 32.55101 -0.0037138802 -69.440964 -0.00082604954 -69.430313 -32.916454 26.858715
1650000000 -26.709293 84.597961 0.0029739987 90.141815 -0.0052475729 90.125343 -29.543114 106.68198
1675000000 -37.913734 -31.936964 -0.010435654 -110.44353 -0.004704278 -110.42522 -36.157269 -34.111816
1700000000 -25.244951 159.9017 -0.016018588 49.085575 -0.020095374 48.994404 -32.891609 125.01817
1725000000 -28.946404 -122.85571 -0.0027293174 -151.32092 0.0071435822 -151.2836 -30.425695 -114.35632
1750000000 -22.842953 -175.79756 -0.015710069 8.1409063 0.013713258 8.2700901 -29.702173 -161.17368
1775000000 -25.639965 -88.841583 -0.018020352 167.68878 -0.021757167 167.63147 -26.941582 -136.68835
1800000000 -27.702143 -102.84643 -0.026244033 -32.822842 -0.029676409 -32.885822 -33.096706 -138.69901
1825000000 -35.185539 -44.161068 -0.019784326 126.69154 -0.010312608 126.72135 -41.517918 -75.790199
1850000000 -32.037613 31.985254 -0.0049645766 -73.832184 4.1380245e-005 -73.862709 -31.939892 1.5394785
1875000000 -31.998158 75.606285 -0.013895194 85.708076 -0.0090207094 85.646423 -37.311909 15.254282
1900000000 -35.608955 -30.397444 -0.011627081 -114.80577 -0.0039717131 -114.76817 -32.68058 -28.721855
1925000000 -29.037487 177.92244 -0.020857556 44.731552 -0.02477894 44.7272 -32.497688 70.8983
1950000000 -28.811886 -89.565552 -0.014105402 -155.70663 -0.0019454837 -155.73895 -31.332613 -112.23702
1975000000 -27.520245 -142.86267 -0.018160172 3.7541897 -0.0045069 3.7960722 -31.511805 155.16954
2000000000 -30.716707 -93.977997 -0.004797759 163.25055 -0.016202034 163.30464 -29.450918 -153.92477
2025000000 -39.766537 -119.89008 -0.013898396 -37.200024 -0.023706362 -37.242004 -34.468536 -128.57021
2050000000 -37.668861 -116.96382 -0.011089687 122.31269 0.0035654735 122.32492 -39.409752 -129.35681
2075000000 -32.594215 11.482962 -0.0055527911 -78.212234 -0.0026159659 -78.190697 -31.958347 -8.0245533
2100000000 -45.668816 -72.050407 -0.0058522183 81.318901 -0.0076665943 81.256836 -35.42577 -0.74069887
2125000000 -31.471487 -14.766712 -0.0075105168 -119.16483 -0.0084537724 -119.18087 -30.622606 -37.667751
2150000000 -32.645489 87.618088 -0.020044435 40.303093 -0.028851576 40.337708 -36.385887 100.90504
2175000000 -33.828789 -112.14985 -0.0011807659 -160.15245 -0.003589717 -160.13377 -33.424183 -93.225372
2200000000 -23.550472 143.44296 -0.015098456 -0.61758792 0.0075914254 -0.5333845 -34.251717 143.94788
2225000000 -26.245045 -144.78369 0.0030378292 159.00024 -0.023493132 159.05196 -24.911875 -170.76231
2250000000 -22.519201 -170.57042 -0.0012055901 -41.530846 -0.056720193 -41.512115 -23.939018 -176.10381
2275000000 -30.699577 -100.73595 -0.0060749091 117.89659 0.0075062118 117.868 -30.18766 -118.99599
2300000000 -31.427725 -4.569891 -0.003356508 -82.549393 -0.0044844593 -82.533607 -29.979179 -19.294909
2325000000 -29.896338 -78.936966 -0.018063324 76.998413 -0.019446865 77.014549 -24.440895 -39.996204
2350000000 -31.946638 -26.837776 -0.0068713296 -123.58611 -0.0063336617 -123.6553 -28.692934 -48.383751
2375000000 -41.600807 -112.61016 -0.0081850262 35.925869 0.00047253733 36.006996 -25.16873 8.1405573
2400000000 -30.766018 -80.957024 -0.012953893 -164.51221 -0.0063837441 -164.49263 -37.782139 33.973904
2425000000 -31.938993 -171.1976 -0.039350316 -5.0656614 -0.01633732 -5.264524 -21.171663 59.475941
2450000000 -31.683281 -83.814056 -0.0044599627 154.47644 0.0028956328 154.59091 -25.496027 140.74924
2475000000 -38.586266 110.32001 0.0069369064 -46.047329 -0.0056072781 -45.836731 -19.316277 118.74799
2500000000 -31.222099 79.529907 0.00051932019 113.64851 -0.016358465 113.44328 -25.487869 157.67947
2525000000 -31.972584 28.923071 -0.0071208351 -86.97097 -0.0030659284 -87.021454 -33.44059 -31.203444
2550000000 -27.027529 127.0254 -0.023196369 72.372742 -0.010305525 72.491119 -24.18355 -123.17642
2575000000 -32.775795 -68.157173 -0.0025242709 -127.88783 -0.0021817074 -127.8763 -26.388247 -68.782707
2600000000 -26.423197 -157.75098 -0.0088445935 31.767712 0.0013607322 31.706511 -24.328922 -85.20385
2625000000 -27.30883 -97.948982 -0.012043565 -168.9157 -0.012197456 -168.91135 -27.670435 -83.543549
2650000000 -26.360201 -138.78703 -0.0057718959 -9.5408363 -0.023189953 -9.4778852 -29.665779 -45.541382
2675000000 -32.601421 -107.7583 -0.0028590322 150.16103 -0.00017466274 150.10477 -49.443356 59.167095
2700000000 -35.300797 -84.893829 -0.014511398 -50.284447 -0.011509513 -50.341946 -31.988894 37.81749
2725000000 -40.775116 9.6598463 -0.013124047 109.10191 -0.0043122917 109.1636 -37.214825 84.618088
2750000000 -28.053907 -5.5136495 -0.0086935665 -91.342316 -0.0082302671 -91.362411 -29.422884 -9.8680573
2775000000 -25.257507 -20.158659 -0.027579548 68.174782 -0.018581429 68.207901 -28.611729 -59.322521
2800000000 -30.61508 -21.88172 -0.016006283 -132.33591 -0.0085763838 -132.33986 -29.524076 -74.128143
2825000000 -32.817322 35.774113 -0.028618827 27.084816 -0.016550343 27.106087 -34.10231 -125.53572
2850000000 -34.235958 120.65839 0.00087729382 -173.31557 -0.00091010286 -173.34038 -39.143272 171.92938
2875000000 -23.527714 134.23053 -0.014308206 -13.721199 0.00010024747 -13.812002 -45.49667 72.653801
2900000000 -30.73971 173.63101 -0.0029091088 145.69914 -0.009692763 145.77031 -30.835423 134.02753
2925000000 -21.416658 179.03889 2.4636265e-005 -54.695427 -0.049874403 -54.82021 -31.428833 -164.22659
2950000000 -30.36027 -84.92244 -0.0060763112 104.79935 -0.0014997142 104.72826 -41.900787 -39.608959
2975000000 -31.046396 -17.503166 -0.00049608055 -95.720245 -0.0035673541 -95.719582 -30.575897 -32.879169
3000000000 -25.440674 -63.729408 -0.021679804 63.85141 -0.0381907 63.955685 -22.589499 -48.784107
3025000000 -30.607895 -56.083546 -0.0048115221 -136.68607 -0.008417557 -136.7509 -28.849031 -60.146305
3050000000 -29.587904 -91.100945 -0.017456565 22.853109 -0.014890214 22.75705 -27.912462 -19.022089
3075000000 -34.014317 -20.048336 -0.019916674 -177.65698 -0.010197082 -177.65466 -30.971491 89.801094
3100000000 -28.072599 11.631562 -0.048059773 -18.213675 -0.039533321 -18.159147 -21.171684 67.291252
3125000000 -27.970379 59.639305 0.0030697747 141.22803 -0.001160147 141.21939 -25.082853 105.19255
3150000000 -23.015907 98.343048 0.032013725 -59.165489 0.018133106 -59.13015 -21.676361 123.52805
3175000000 -29.007269 131.5244 -0.029946916 100.25573 -0.02094811 100.25523 -29.284412 -158.90431
3200000000 -37.097805 -39.170406 0.0050195274 -100.14863 0.0088903699 -100.1155 -32.635616 -51.037971
3225000000 -21.860416 -131.23138 0.038491324 59.604465 0.032915488 59.744629 -21.606592 -87.531174
3250000000 -26.895536 -73.013763 -0.014124956 -141.08382 -0.025308261 -141.09462 -25.573807 -71.483795
3275000000 -21.173475 -73.752251 -0.034069162 18.370098 -0.040824246 18.198099 -23.334454 -79.375046
3300000000 -27.784863 -46.533501 0.0016880512 178.00404 0.00021070532 178.08881 -35.251858 48.65308
3325000000 -22.081135 -44.043056 -0.027991014 -22.346836 -0.039818767 -22.182272 -24.663549 35.144245
3350000000 -24.609169 38.910732 -0.020734427 136.83554 -0.038583659 136.6107 -23.43288 61.828808
3375000000 -27.40353 57.21846 0.068497762 -63.704014 0.021332301 -63.76421 -18.50901 103.02002
3400000000 -24.36249 55.876728 -0.016843766 95.988754 -0.020289367 96.028 -38.799454 170.24609
3425000000 -40.188652 -7.4280825 0.0034653223 -104.55064 0.0036730869 -104.56007 -40.538506 -80.738503
3450000000 -38.747303 -129.45938 0.051700488 54.942345 0.029750841 54.991131 -20.511005 -119.52238
3475000000 -31.10281 -130.08876 0.0096560419 -145.37001 -0.011795433 -145.3669 -27.052002 -93.863182
3500000000 -19.950291 -145.00568 -0.039691031 14.479684 -0.071429104 14.236552 -18.613344 -93.347603
3525000000 -31.98291 -113.84026 0.011573484 173.33833 0.022252077 173.40468 -33.99947 -3.8321998
3550000000 -19.712729 -101.67435 0.063708834 -27.028671 0.0693492 -26.948225 -21.029625 -16.232586
3575000000 -23.774059 -32.840626 -0.047436316 132.90091 -0.046596464 132.88452 -20.821703 26.726698
3600000000 -16.851871 -42.749107 -0.13462509 -67.483948 -0.10798191 -67.476982 -16.776892 19.568949
3625000000 -19.38398 7.3878279 0.014800712 91.304955 0.045353718 91.352707 -27.469639 70.953827
3650000000 -33.001938 13.679571 -0.0020351349 -108.8695 -0.0024325165 -108.85612 -48.121563 -75.993423
3675000000 -27.013641 29.291393 -0.050147407 50.613991 -0.042220935 50.612576 -34.494415 124.13972
3700000000 -38.646683 122.96684 0.0091840401 -150.07541 0.014442955 -149.94766 -32.137756 -149.11421
3725000000 -25.538294 137.5585 0.075892411 9.4935474 0.059847381 9.5728598 -20.782816 -156.70148
3750000000 -35.414448 113.13301 -0.0062168464 169.2635 -0.013939002 169.14801 -28.292585 177.78336
3775000000 -25.161184 178.95685 -0.042418979 -31.269949 -0.039639082 -31.447786 -25.291229 -143.94699
3800000000 -42.085388 1.5058165 -0.0058038416 128.02248 0.012428838 128.12306 -29.056385 5.5744076
3825000000 -23.237167 -140.51286 0.020154398 -72.226707 0.033407405 -72.196396 -24.412121 -58.669338
3850000000 -29.74489 -58.93486 -0.017430333 87.384216 -0.015044499 87.236305 -24.538839 -58.441708
3875000000 -35.091919 -42.546967 -0.0012877912 -113.34492 0.0052805115 -113.3258 -39.760685 -78.929138
3900000000 -19.086676 -61.375916 -0.009823353 46.240211 -0.011061227 46.283302 -27.001064 -25.580755
3925000000 -30.657806 -37.357853 0.0031382595 -154.29106 -0.0092007732 -154.12657 -37.157085 -0.42741793
3950000000 -19.575844 -32.839336 -0.041897025 5.137249 -0.033933077 5.4904652 -40.461258 -15.532364
3975000000 -23.561878 45.625523 -0.012794299 164.7115 -0.0168158 164.70966 -26.81229 93.76545
4000000000 -19.912342 29.275253 -0.026564423 -35.828388 -0.031021258 -35.901936 -22.099171 95.94902
4025000000 -24.418713 65.543297 -0.011646497 123.73811 -0.019347411 123.72825 -28.791473 49.990894
4050000000 -24.129131 95.098679 0.0076380582 -76.579292 -0.04558374 -76.576485 -25.272562 162.74376
4075000000 -34.371765 30.317537 0.00090757431 82.785088 -0.011002903 82.920921 -25.206385 -152.84435
4100000000 -37.241425 22.865574 0.0058089094 -117.68192 0.0063322554 -117.6891 -34.158173 -127.15517
4125000000 -29.881178 -60.463493 -0.0039350996 41.986828 -0.0035453888 41.971214 -22.716 -110.57736
4150000000 -38.960205 -161.28648 -0.0052463054 -158.623 -0.0009682852 -158.63078 -32.965755 -73.064705
4175000000 -27.987774 -135.44432 -0.031539179 0.89029294 -0.028891316 0.78358269 -20.70067 -75.034958
4200000000 -42.019329 170.26309 0.0065152063 160.36336 0.014890495 160.3766 -29.515894 1.5567695
4225000000 -28.317282 -100.97136 0.029641109 -40.038094 0.048136592 -39.957039 -19.510462 1.6875997
4250000000 -25.628496 -35.709335 -0.031197114 119.54433 -0.029499287 119.61771 -20.708799 36.192352
4275000000 -22.94808 -66.696251 -0.067460515 -81.055481 -0.055286072 -81.044121 -17.727491 33.967152
4300000000 -25.06555 -12.39265 0.031337287 78.394417 0.019827336 78.280205 -28.154808 66.438881
4325000000 -34.210197 30.02602 0.0045047561 -122.0145 0.0027064525 -121.98465 -32.670765 -170.76108
4350000000 -30.22929 -20.655489 -0.040865384 37.507988 -0.0051312181 37.674854 -21.204254 153.99608
4375000000 -53.818676 -99.639984 0.013507188 -163.07874 0.01396218 -163.05559 -31.818865 -170.68739
4400000000 -43.399582 -177.30975 0.06356594 -3.5001287 0.0071337973 -3.3659337 -17.899977 -162.86723
4425000000 -30.291336 97.005165 -0.018155338 156.19508 0.0024521581 156.09389 -29.802042 -112.59029
4450000000 -31.005154 100.54528 -0.073719092 -44.455372 -0.017873581 -44.507217 -22.240513 -116.75716
4475000000 -37.577389 118.20481 0.026040582 114.77256 0.023377025 115.1408 -23.383362 -17.276808
4500000000 -20.144381 -166.41321 0.086535968 -85.404419 0.068501242 -85.278275 -18.688543 -42.622456
4525000000 -24.613012 -117.48933 -0.018781075 74.395889 -0.014619268 74.200363 -23.209492 -36.803341
4550000000 -32.852585 -31.481131 0.013405263 -126.44645 0.024608344 -126.42527 -39.35899 -130.06079
4575000000 -17.175999 -68.2071 0.059412085 32.995029 0.051354893 32.974186 -26.979212 35.421307
4600000000 -29.762543 -7.0838423 -0.0080263587 -167.31142 -0.00037523976 -167.27014 -29.873549 86.58847
4625000000 -18.629757 -21.862471 -0.046435971 -7.802382 -0.049720291 -7.5206823 -24.227226 102.48042
4650000000 -24.055853 56.644691 0.022413369 151.59062 0.0066289613 151.54585 -33.723206 97.347771
4675000000 -19.477318 38.02142 0.063556649 -48.825241 0.021241317 -48.982506 -22.922731 145.12775
4700000000 -28.426004 48.704655 -0.023251431 110.66574 0.00029482992 110.74932 -41.41544 96.597672
4725000000 -28.16213 110.94791 -0.032866161 -89.949966 -0.025296735 -89.892921 -27.621643 -160.63222
4750000000 -38.1548 46.9431 0.018386237 69.729683 0.020073043 69.74868 -23.804638 -90.585533
4775000000 -39.707684 71.857971 0.0063702362 -130.73721 0.012199602 -130.7486 -30.796667 -130.46016
4800000000 -31.343803 171.03798 -0.0062607392 28.765663 -0.011259699 28.777729 -25.91259 -119.79359
4825000000 -34.67207 -168.05913 0.015578535 -171.78171 0.0087786345 -171.79001 -34.221172 47.028141
4850000000 -25.641125 -115.51705 0.017352339 -12.238315 0.021761255 -12.25664 -31.077887 -4.2488046
4875000000 -39.715725 -37.06118 0.0069146729 147.30673 0.0042701839 147.41551 -31.551218 -8.2179508
4900000000 -20.361517 -64.197639 -0.0072859284 -53.074909 -0.013341767 -52.909012 -29.141405 70.505005
4925000000 -23.16357 -12.854896 0.011596001 106.37448 -0.0038807509 106.27415 -27.185627 25.748468
4950000000 -18.653631 -31.031651 -0.016620915 -94.220749 -0.0035474615 -94.28141 -23.668476 41.746452
4975000000 -25.705462 20.332121 0.0076530846 65.403015 0.0091948537 65.514854 -34.82476 -115.81942
5000000000 -33.396786 6.3239121 0.014580672 -135.08266 0.012169829 -135.09845 -33.104805 -140.53476
5025000000 -30.058174 -19.203373 0.0075694206 24.424372 0.0054781577 24.517084 -23.67367 173.59007
5050000000 -45.427677 74.882339 0.017656546 -176.08342 0.01995364 -176.10663 -34.739395 107.33607
5075000000 -35.320969 -85.550682 0.0051995777 -16.454096 -0.0093860459 -16.535728 -25.863903 -162.24803
5100000000 -26.433485 94.926369 -0.0093926974 142.94853 0.002723536 142.99384 -30.252918 -43.456558
5125000000 -37.886467 143.21272 -0.018116338 -57.594574 0.025001541 -57.605083 -26.202435 -95.22403
5150000000 -39.313679 -10.316714 0.016121376 102.00035 0.035439432 102.15968 -25.607241 -30.299479
5175000000 -22.293888 -121.3978 0.0010372179 -98.00634 0.036881346 -98.089645 -20.661432 -31.186409
5200000000 -22.885273 -95.394913 -0.020329555 61.187752 -0.016446307 60.943771 -22.779516 -38.032215
5225000000 -30.594597 -43.144169 0.034672786 -139.49936 0.033664584 -139.44983 -35.295753 -112.85105
5250000000 -18.702044 -50.59124 0.085040249 20.405964 0.077334143 20.392208 -27.241751 114.66827
5275000000 -30.409483 5.5494275 0.0057362397 179.64764 -0.007741889 179.62825 -26.526821 80.780617
5300000000 -18.769201 2.0866554 -0.076747067 -21.013374 -0.080446988 -20.963051 -19.113125 89.558235
5325000000 -24.122541 63.632153 0.062411316 138.62651 0.041980565 138.46696 -47.987633 108.00469
5350000000 -19.687691 41.302788 0.11704657 -61.598118 0.058906723 -61.928001 -19.293167 141.63992
5375000000 -25.449991 76.938034 -0.034396242 97.630325 -0.00072604034 97.728661 -26.235565 -143.70045
5400000000 -24.423267 115.9781 -0.032646578 -103.32767 -0.0092328629 -103.12715 -21.752253 -152.84589
5425000000 -28.273825 146.81783 0.083687931 56.774529 0.073577546 56.717155 -20.597029 -98.590752
5450000000 -34.226772 -113.48711 0.032064293 -143.73161 0.034246624 -143.76306 -29.112848 -91.501045
5475000000 -21.204689 -141.52557 -0.0066691064 15.749561 -0.0084338821 15.685596 -23.732891 -90.978943
5500000000 -28.745022 -96.784332 0.067476675 175.22522 0.065906249 175.26808 -29.355299 50.254051
5525000000 -17.07658 -90.982063 0.095408984 -24.988993 0.12845792 -25.050085 -20.580585 18.535711
5550000000 -22.231464 -11.404428 0.020012124 134.37476 0.0085799359 134.38591 -23.578306 16.679693
5575000000 -13.642232 -34.504494 -0.048547883 -66.061195 -0.091490828 -65.843315 -20.05505 47.411591
5600000000 -18.478519 26.785713 0.052154098 93.462982 0.055264138 93.272438 -50.493397 75.705849
5625000000 -16.687288 19.710787 0.10679007 -107.13483 0.079769023 -107.11962 -22.556063 118.29669
5650000000 -20.21907 86.743202 0.019591695 52.044254 -0.009953415 52.178078 -25.812838 -160.44183
5675000000 -35.031654 -152.1991 0.054122269 -148.14812 0.052103717 -148.15623 -31.597944 -100.978
5700000000 -22.121094 -175.338 0.10102987 11.517365 0.080298722 11.498648 -21.135002 -140.06502
5725000000 -31.096067 -121.97663 0.058352053 170.75598 0.054249011 170.81003 -42.050552 82.17141
5750000000 -22.830275 -112.71626 0.066317536 -29.802732 0.066276729 -29.773556 -27.949656 -1.1308342
5775000000 -28.692635 13.214652 0.052618358 129.89651 0.046165939 129.98495 -24.519121 -4.4010596
5800000000 -20.549726 -33.703331 0.038296945 -70.499641 0.020802543 -70.455261 -24.671196 12.921417
5825000000 -25.664598 4.3713255 0.058011867 88.940468 0.057014983 88.895203 -39.36631 -83.937637
5850000000 -24.738985 -37.247128 0.067047812 -111.55074 0.056642041 -111.56345 -25.158625 79.019119
5875000000 -30.670845 56.767921 0.058567174 47.904762 0.037677031 47.944336 -29.394529 179.23003
