!Keysight Technologies,E5080A,MY55100170,A.11.70.00
!Date: Tuesday, August 20, 2019 22:47:41
!Correction: S11(Full 2 Port(1,2)) 
!S21(Full 2 Port(1,2)) 
!S12(Full 2 Port(1,2)) 
!S22(Full 2 Port(1,2)) 
!S2P File: Measurements: S11, S21, S12, S22:
# Hz S  dB   R 50
1000000000 -33.982288 -14.492995 -0.017198898 -96.158356 -0.014030417 -96.15554 -33.639755 11.678424
1025000000 -33.378529 38.616413 -0.038711149 63.413261 -0.044748191 63.449562 -28.625137 77.330093
1050000000 -41.643726 -55.491547 -0.023890018 -137.10742 -0.021819443 -137.10236 -42.866497 -164.27815
1075000000 -38.526356 80.193275 -0.035030413 22.375685 -0.025072526 22.429573 -24.587433 136.78693
1100000000 -39.587624 -134.59398 -0.014458238 -177.90509 -0.016848044 -177.93808 -25.310766 -169.75746
1125000000 -32.916901 168.18713 -0.043931402 -18.318645 -0.03860762 -18.429262 -21.766973 -179.94147
1150000000 -31.275944 -166.81606 -0.040992305 141.02663 -0.026507901 141.04965 -25.547638 -136.00453
1175000000 -46.88224 -32.487808 -0.003747087 -59.391342 -0.0091288164 -59.390667 -37.991554 -36.80069
1200000000 -28.656673 -127.83221 -0.019315222 100.2321 -0.03078042 100.21347 -28.245842 -75.638954
1225000000 -32.046791 -45.345993 -0.028745009 -100.33311 -0.022379326 -100.29744 -29.165319 -24.886393
1250000000 -26.29821 -58.496929 -0.05931361 59.063324 -0.050230205 59.212086 -23.216301 -16.051723
1275000000 -28.022465 -39.09174 -0.017654579 -141.23027 -0.020662321 -141.25493 -30.881214 -16.041304
1300000000 -25.005238 -5.4396162 -0.022645842 18.493488 -0.017683171 18.308573 -23.775928 31.331861
1325000000 -31.927628 24.868248 -0.051620957 177.80069 -0.024831589 177.82321 -34.855701 121.53662
1350000000 -21.700636 56.165218 -0.076875739 -22.87439 -0.055459585 -22.746773 -24.280415 94.526123
1375000000 -23.657677 111.9458 0.0036795998 136.99037 -0.0083550783 136.98538 -27.824839 147.91576
1400000000 -47.51796 144.86911 -0.01651636 -63.546413 -0.017265577 -63.516819 -73.746498 91.097443
1425000000 -21.140261 161.97873 -0.050480422 95.888344 -0.06400235 95.992233 -25.936811 -179.21783
1450000000 -30.52334 -102.83295 -0.0023769133 -104.44778 -0.0078497734 -104.38101 -33.538219 -65.877655
1475000000 -20.725838 -136.23296 -0.006710656 55.315292 0.0018189517 55.315071 -27.216808 -92.015785
1500000000 -25.990177 -77.101654 -0.034138888 -145.38377 -0.03792122 -145.36823 -27.932459 -79.98864
1525000000 -21.378082 -84.574173 -0.049441043 14.043492 -0.062163327 13.993203 -25.180241 -66.053658
1550000000 -29.427485 -46.513592 -0.023991127 173.791 -0.015683865 173.71175 -34.074337 -46.177666
1575000000 -24.409538 -20.827547 -0.043006863 -26.571642 -0.02474837 -26.602644 -25.081535 -5.7925129
1600000000 -32.644394 25.640148 -0.033393685 132.68611 -0.029875498 132.7433 -30.856045 86.83493
1625000000 -35.829334 34.076687 -0.017026016 -67.688316 -0.015088799 -67.681351 -37.295227 27.540112
1650000000 -26.051666 79.196045 -0.014011589 91.873695 -0.020633303 91.898773 -29.482363 96.19944
1675000000 -44.345524 -74.019882 -0.02419273 -108.62791 -0.017858721 -108.65322 -42.129868 -56.511322
1700000000 -26.662762 163.58267 -0.029818796 50.905964 -0.029434908 50.830257 -37.061916 117.14497
1725000000 -29.187723 -135.09213 -0.016369991 -149.51169 -0.0068366234 -149.44688 -31.484558 -128.29771
1750000000 -23.153252 -165.40012 -0.029802281 10.038065 -0.0084003657 10.175915 -28.974344 -141.7697
1775000000 -27.477085 -86.396454 -0.032405756 169.56471 -0.036287319 169.5401 -28.361603 -143.19148
1800000000 -25.98431 -100.2799 -0.045774288 -30.893854 -0.044940826 -30.974218 -30.244175 -128.09024
1825000000 -34.678616 -9.4043541 -0.034089673 128.62703 -0.029204719 128.66602 -40.671688 -5.848145
1850000000 -36.728207 34.150558 -0.020634739 -71.83754 -0.019023392 -71.846764 -35.725174 -7.7017136
1875000000 -30.380196 63.66153 -0.032630891 87.706245 -0.025661398 87.636864 -32.820232 14.146365
1900000000 -42.278351 -55.449863 -0.025241332 -112.76299 -0.018780937 -112.75522 -37.881142 -32.505089
1925000000 -31.317495 -168.02043 -0.03721121 46.806957 -0.03847532 46.769466 -33.206894 50.011406
1950000000 -30.690685 -99.196556 -0.025790764 -153.61169 -0.013876623 -153.66849 -32.891361 -129.92146
1975000000 -26.698172 -127.01117 -0.037076872 5.8691711 -0.024673926 5.9557076 -33.076538 179.29494
2000000000 -34.448418 -92.842903 -0.023553716 165.41074 -0.033058081 165.44968 -30.914928 -167.035
2025000000 -33.990536 -115.64896 -0.027149018 -34.994026 -0.037850518 -35.076813 -30.538149 -124.25355
2050000000 -50.30423 -66.922081 -0.034395341 124.50656 -0.015589389 124.50694 -51.824238 -56.726109
2075000000 -38.042751 0.41081631 -0.017484257 -75.981293 -0.018029455 -75.974274 -35.898659 -20.71932
2100000000 -38.277714 -13.205435 -0.021876357 83.595612 -0.030093759 83.507492 -31.276224 1.857604
2125000000 -36.433643 -12.812462 -0.021093378 -116.88131 -0.021966783 -116.89731 -34.995358 -41.260273
2150000000 -34.337765 63.616398 -0.03462838 42.600948 -0.045125216 42.636703 -41.39912 66.447617
2175000000 -35.101563 -143.17125 -0.016577439 -157.81862 -0.022874046 -157.79558 -38.088902 -113.71191
2200000000 -24.700268 154.20854 -0.032540169 1.7710762 -0.010080824 1.833407 -36.159462 -173.57945
2225000000 -27.366802 -151.54263 -0.010720152 161.33047 -0.03896568 161.42143 -25.614059 -177.00366
2250000000 -21.657179 -159.77307 -0.02708897 -39.036983 -0.084178649 -39.125771 -22.959995 -164.91406
2275000000 -33.396336 -78.260109 -0.020755276 120.31487 -0.010695619 120.3246 -33.112968 -97.203575
2300000000 -35.767296 -19.034248 -0.015850352 -80.093483 -0.020273151 -80.066322 -33.015137 -30.825405
2325000000 -29.195091 -56.657475 -0.041091226 79.480446 -0.044702549 79.49765 -23.044569 -31.530079
2350000000 -37.42588 -32.302132 -0.016652266 -121.02541 -0.016944589 -121.10545 -31.902563 -51.258396
2375000000 -35.534176 -67.957268 -0.029518548 38.493443 -0.022945451 38.554241 -24.216681 3.9482527
2400000000 -34.719929 -91.491348 -0.026134942 -161.93942 -0.020591632 -161.92444 -34.256214 73.832764
2425000000 -31.036425 -143.07718 -0.052111015 -2.4575577 -0.026389807 -2.6205032 -22.438814 60.938389
2450000000 -36.534981 -69.340561 -0.019625651 157.08344 -0.01170099 157.23145 -24.705238 135.15918
2475000000 -38.812874 173.22951 -0.0055772709 -43.342228 -0.025153374 -43.130894 -19.518345 129.47205
2500000000 -28.638571 72.845772 -0.021165846 116.29721 -0.033834428 116.10583 -26.908815 151.77028
2525000000 -38.018444 44.129208 -0.020909103 -84.268745 -0.016863698 -84.290924 -37.504211 -59.62133
2550000000 -28.706406 119.00269 -0.033871219 75.110626 -0.025225114 75.262146 -24.383465 -106.40721
2575000000 -35.466309 -95.646797 -0.017928151 -125.12254 -0.018560255 -125.09912 -28.419889 -74.252495
2600000000 -27.030893 -136.69157 -0.030092306 34.583603 -0.023443313 34.498928 -22.916355 -75.686462
2625000000 -29.378876 -106.19581 -0.022755668 -166.11884 -0.021576768 -166.09698 -30.977409 -81.051575
2650000000 -25.091511 -124.21249 -0.020567592 -6.660161 -0.043633547 -6.6365891 -27.724977 -52.296696
2675000000 -38.500629 -108.88991 -0.018255152 153.00259 -0.014282775 152.98259 -36.865746 67.696114
2700000000 -31.135401 -100.83277 -0.03028491 -47.361366 -0.029339463 -47.414379 -38.868095 47.185921
2725000000 -33.515095 27.108047 -0.029605884 112.02272 -0.022150084 112.06848 -33.082317 56.998096
2750000000 -31.260107 -11.459445 -0.022213083 -88.359955 -0.020935751 -88.38623 -33.490772 -9.8431101
2775000000 -23.760252 -12.402944 -0.046133354 71.123222 -0.046110816 71.156067 -26.64237 -47.533894
2800000000 -35.890663 -15.411169 -0.030433916 -129.28589 -0.018602271 -129.34515 -32.656521 -86.699791
2825000000 -31.789528 12.631445 -0.042230971 30.120407 -0.036558203 30.148094 -31.080994 -97.336433
2850000000 -30.107801 124.4624 -0.0173737 -170.26639 -0.015679372 -170.32214 -35.103279 133.9288
2875000000 -24.524277 151.08801 -0.020160794 -10.584861 -0.014072089 -10.629475 -40.573605 -98.872894
2900000000 -30.774715 157.68411 -0.02079891 148.77579 -0.024784753 148.85887 -29.829941 118.02962
2925000000 -20.358461 -169.41765 -0.027181856 -51.458473 -0.068081036 -51.669384 -27.733213 -152.81612
2950000000 -31.186357 -57.434235 -0.026814369 107.99811 -0.019346308 107.9067 -33.883488 -0.34280309
2975000000 -35.397346 -36.763878 -0.018057579 -92.521576 -0.017261948 -92.491699 -34.827843 -44.154697
3000000000 -24.072821 -50.066662 -0.048955038 67.097359 -0.068816938 67.192284 -21.167391 -39.882919
3025000000 -34.680107 -70.230881 -0.017898027 -133.4438 -0.016410455 -133.49313 -32.92728 -62.510044
3050000000 -27.115662 -76.783463 -0.037929136 26.134338 -0.032544594 26.012901 -26.346441 -26.016901
3075000000 -36.088799 25.575687 -0.037005957 -174.36002 -0.029980812 -174.36285 -27.480093 94.994026
3100000000 -28.935442 -4.7033854 -0.058415607 -14.896662 -0.041798513 -14.772934 -22.844687 73.647247
3125000000 -25.732214 67.676338 -0.018778274 144.589 -0.017543357 144.53416 -24.249487 102.05381
3150000000 -23.551428 116.77692 0.016485482 -55.634804 -0.0018059668 -55.624268 -21.346581 140.64832
3175000000 -29.587612 118.24512 -0.048323944 103.62923 -0.031296048 103.6611 -32.934227 -143.78714
3200000000 -38.42918 -99.243301 -0.010202535 -96.690201 -0.007741069 -96.685455 -36.805481 -75.839584
3225000000 -22.133638 -114.32912 0.020350972 63.197342 0.0015995945 63.308517 -20.561317 -74.291046
3250000000 -28.886854 -80.430489 -0.024273787 -137.60472 -0.035123151 -137.61053 -27.898357 -72.784927
3275000000 -19.886766 -64.918884 -0.058912419 21.906849 -0.063900597 21.678045 -22.13833 -73.240799
3300000000 -30.616442 -27.843245 -0.014003381 -178.41553 -0.016318969 -178.36812 -30.865013 69.331421
3325000000 -21.546438 -44.733936 -0.050476257 -18.84848 -0.052121755 -18.641348 -26.962469 34.703682
3350000000 -23.13459 49.477539 -0.041551035 140.40492 -0.061169021 140.13278 -22.248735 65.909683
3375000000 -30.245838 82.239723 0.068733022 -59.97456 0.01337189 -59.960114 -18.303947 116.7789
3400000000 -23.056995 56.636078 -0.049242347 99.61393 -0.038884059 99.656433 -63.36499 70.600212
3425000000 -45.640278 -147.92813 -0.01106314 -100.86366 -0.01160707 -100.90978 -38.618744 -151.4834
3450000000 -34.914253 -65.227013 0.03117105 58.760452 0.014952104 58.870201 -19.873192 -104.78226
3475000000 -29.738842 -149.88107 -0.010113605 -141.63586 -0.026573908 -141.63338 -29.36342 -99.037376
3500000000 -19.635855 -130.7872 -0.075315863 18.307388 -0.10790332 17.97753 -17.616623 -85.371475
3525000000 -36.556648 -131.39621 -0.0041144877 177.14191 0.0063057956 177.23982 -31.283726 35.082561
3550000000 -18.504704 -95.192963 0.043998819 -23.132906 0.061038326 -23.120428 -21.48875 -18.814285
3575000000 -23.4685 -13.479138 -0.076056749 136.76433 -0.080525994 136.67448 -19.667828 34.233135
3600000000 -16.969303 -41.235031 -0.15110947 -63.847763 -0.11378743 -63.61813 -17.856932 28.069807
3625000000 -18.307306 15.834018 -0.0069828527 95.237572 0.025273658 95.24913 -26.668543 64.050522
3650000000 -42.434246 45.063763 -0.013699261 -104.93183 -0.021596782 -104.9311 -38.843857 170.39325
3675000000 -25.78363 24.638136 -0.079303592 54.529057 -0.059291843 54.624352 -53.619827 107.36602
3700000000 -31.835802 139.6169 -0.0049027205 -146.05421 -0.0023503292 -145.99519 -31.700274 -170.24522
3725000000 -27.812941 158.29269 0.06168754 13.657971 0.040590864 13.744826 -19.853275 -141.36455
3750000000 -30.616529 112.15055 -0.030633705 173.29211 -0.033159677 173.14595 -28.804358 161.99036
3775000000 -23.898602 -159.45468 -0.061725695 -27.139732 -0.065617897 -27.395761 -23.346205 -132.13377
3800000000 -34.858242 39.179012 -0.020253086 132.10271 -0.0072350628 132.2431 -26.075809 17.330004
3825000000 -21.344337 -136.72447 -0.0089147203 -68.022461 0.017310875 -68.057274 -25.201952 -66.330383
3850000000 -27.642603 -32.404644 -0.039303988 91.559219 -0.042882357 91.421227 -23.311308 -42.796219
3875000000 -39.098492 -87.944763 -0.012114133 -109.186 -0.011556033 -109.15086 -40.851768 -168.35535
3900000000 -18.031471 -50.667271 -0.049016021 50.526001 -0.032600936 50.529175 -24.473665 -26.238371
3925000000 -36.341061 -21.369371 -0.013463708 -150.04599 -0.022830294 -149.93033 -36.836128 59.328033
3950000000 -18.845613 -30.168249 -0.065234087 9.297822 -0.061502371 9.7195597 -34.873753 -68.766113
3975000000 -22.29871 60.935459 -0.037385352 169.02109 -0.04121279 169.00319 -24.539158 94.458382
4000000000 -21.34866 32.272923 -0.021734288 -31.560423 -0.031186292 -31.5648 -23.035675 114.07021
4025000000 -22.829096 69.844002 -0.038432322 128.05211 -0.044264328 128.06242 -26.415808 47.804111
4050000000 -24.385311 121.82394 -0.0080596348 -72.107124 -0.067132086 -72.181129 -22.844522 174.89197
4075000000 -29.22233 26.889153 -0.0097613418 87.202881 -0.025346262 87.357002 -26.602406 -131.46817
4100000000 -43.118263 114.57558 -0.011674657 -113.23875 -0.007585505 -113.27991 -32.524277 -159.11246
4125000000 -26.540482 -47.908813 -0.025754983 46.49966 -0.032573789 46.539455 -21.425894 -92.771629
4150000000 -33.37492 169.84572 -0.017077016 -154.16347 -0.015349236 -154.1611 -39.434544 -51.876984
4175000000 -25.729382 -113.33426 -0.045958277 5.4328375 -0.055953067 5.2563667 -19.475477 -70.984634
4200000000 -35.572311 114.75505 -0.0094860718 164.92439 -0.0067100567 164.94351 -27.237291 29.551773
4225000000 -25.087341 -94.925591 0.0078430502 -35.428017 0.043795642 -35.342136 -20.513285 5.9426146
4250000000 -24.959032 -13.926088 -0.05746131 124.12904 -0.058333367 124.16056 -19.448294 41.109669
4275000000 -23.054728 -72.16198 -0.072653018 -76.506073 -0.059038449 -76.372505 -18.722359 47.464893
4300000000 -22.991196 -1.5548869 0.010951591 83.079559 0.004133597 82.936714 -28.118591 56.7854
4325000000 -37.853149 86.460083 -0.01501069 -117.32599 -0.017787432 -117.29544 -29.183987 174.19951
4350000000 -26.801483 -22.63312 -0.063829131 42.215252 -0.017193835 42.450401 -22.629953 170.06847
4375000000 -37.41692 144.41441 -0.004765701 -158.33215 0.0031615861 -158.34474 -31.315458 171.72229
4400000000 -35.45023 -105.08603 0.048552532 1.3639411 -0.020867694 1.5131611 -17.192654 -148.68169
4425000000 -27.092279 99.17659 -0.044637617 160.97057 -0.01394405 160.90948 -34.937477 -95.729668
4450000000 -35.271721 151.73651 -0.08347784 -39.644493 -0.032609936 -39.735458 -21.100391 -112.50368
4475000000 -34.277809 88.184517 0.013665353 119.63618 -0.0017613323 120.02271 -21.496998 -4.4951515
4500000000 -18.661209 -156.73225 0.056067802 -80.348335 0.063374251 -80.33963 -19.702209 -38.37574
4525000000 -25.293653 -90.521294 -0.034745138 79.300072 -0.042186152 79.081345 -21.691845 -27.391335
4550000000 -39.919357 -44.845703 0.0046541793 -121.54564 0.0096716434 -121.4875 -35.491322 171.55763
4575000000 -16.27121 -56.990547 0.023557907 38.080406 0.039882109 37.993286 -27.505869 23.627317
4600000000 -31.95821 28.125374 -0.017732551 -162.32051 -0.019073829 -162.31168 -27.082928 94.400352
4625000000 -18.326557 -19.401674 -0.072705947 -2.9635975 -0.068010308 -2.5337117 -26.214653 126.79044
4650000000 -22.341011 69.273987 -0.0033201813 156.64804 -0.010181541 156.53215 -30.221666 89.751122
4675000000 -21.223219 44.395184 0.069468603 -43.709518 0.0033030494 -43.831512 -21.529243 163.02425
4700000000 -26.041632 52.899017 -0.049234871 115.70506 -0.015139757 115.84198 -34.871532 36.96077
4725000000 -26.642056 145.72995 -0.047235824 -84.780205 -0.045998156 -84.832817 -25.226793 -157.10574
4750000000 -32.117474 21.679638 0.0072797704 74.918472 -0.0018593961 74.970345 -22.325985 -73.003639
4775000000 -35.285378 130.21201 -0.007323151 -125.55324 0.0012543802 -125.57766 -31.042742 -155.20627
4800000000 -34.994366 -130.02608 -0.017130252 34.024426 -0.036106378 33.965874 -24.301268 -99.762909
4825000000 -31.603046 169.30305 -0.00042884989 -166.57799 -0.0085764742 -166.57283 -29.98974 65.177727
4850000000 -23.256571 -98.13549 -0.0054544611 -6.9198089 0.012195001 -6.9820471 -31.889732 -33.695976
4875000000 -36.338779 38.068905 -0.012595639 152.61218 -0.014850159 152.68855 -29.281851 20.013258
4900000000 -19.613333 -63.585491 -0.028934095 -47.795029 -0.028862428 -47.62616 -29.594852 102.30059
4925000000 -21.828676 3.5689571 -0.016602259 111.73855 -0.026571939 111.6254 -24.623861 27.33185
4950000000 -19.77195 -28.030519 -0.011928789 -88.885452 -0.014396762 -88.865738 -24.666504 62.466888
4975000000 -23.471142 22.470808 -0.014342985 70.788727 -0.0054154568 70.941826 -31.328915 -82.171738
5000000000 -38.923653 50.701752 0.0023598236 -129.66949 0.0015292111 -129.69426 -32.219814 -169.70857
5025000000 -26.789671 -24.459173 -0.011598358 29.891315 -0.011548045 29.991627 -24.066647 -163.79892
5050000000 -34.773678 117.12842 0.0055086757 -170.60626 0.0021147912 -170.65387 -30.825024 99.23671
5075000000 -29.563198 -84.251091 -0.017216956 -10.933632 -0.039794523 -10.98658 -23.58375 -141.75583
5100000000 -24.456587 97.840752 -0.030265333 148.4399 -0.013998947 148.53052 -28.993025 -15.13563
5125000000 -31.825726 -148.60585 -0.022046156 -52.033928 0.016613288 -52.062775 -25.429752 -100.98965
5150000000 -32.336056 16.421629 -0.0027425033 107.61957 0.0073369634 107.77652 -23.167068 -14.009688
5175000000 -20.817488 -120.20393 -0.027119499 -92.372063 0.027544711 -92.439926 -21.887194 -21.839293
5200000000 -22.087456 -71.369553 -0.037854005 66.873703 -0.036805846 66.545326 -21.115549 -30.877165
5225000000 -35.201065 -47.532295 0.024385877 -133.8367 0.017095739 -133.76489 -36.855804 -165.24103
5250000000 -17.581381 -41.680279 0.047895774 26.210629 0.061263762 26.164116 -29.908281 134.76692
5275000000 -30.466969 44.774754 -0.011823829 -174.64027 -0.024528293 -174.71616 -24.255108 86.479095
5300000000 -18.956747 4.109796 -0.084969953 -15.415959 -0.078584179 -15.252366 -20.323265 106.44049
5325000000 -22.298059 74.554565 0.037234083 144.45807 0.034068994 144.26797 -38.932827 60.632
5350000000 -21.763931 52.459007 0.11158898 -55.65102 0.031316668 -55.995232 -18.297819 156.89125
5375000000 -24.183184 77.393517 -0.052449457 103.32722 -0.01414789 103.54723 -27.949471 -115.68528
5400000000 -23.067535 144.58057 -0.031220581 -97.453697 -0.017534666 -97.427109 -21.178139 -147.54543
5425000000 -33.420475 145.66112 0.071231037 62.769119 0.043665864 62.721035 -19.25602 -82.342209
5450000000 -32.812443 -137.7005 0.01540383 -137.82906 0.021997172 -137.86678 -33.007824 -96.542992
5475000000 -20.550192 -117.35435 -0.019992212 21.781965 -0.029346054 21.591686 -22.27961 -81.080414
5500000000 -32.043549 -101.08248 0.05152671 -178.79311 0.04710583 -178.73912 -26.01705 61.365841
5525000000 -16.139277 -80.768982 0.050026346 -18.882242 0.10955057 -18.94591 -22.081858 23.539379
5550000000 -21.453142 9.4795885 -0.0011593464 140.40707 -0.019200539 140.37508 -22.280344 27.61834
5575000000 -13.8066 -28.568464 -0.056355622 -60.290565 -0.10273889 -59.905205 -20.972353 68.138504
5600000000 -17.628542 37.169933 0.014535388 99.52095 0.030282963 99.320915 -38.599068 5.0900831
5625000000 -18.053202 36.24213 0.11254106 -100.88964 0.056817807 -100.88327 -20.848263 132.47697
5650000000 -20.731762 88.802391 0.020320492 58.08572 -0.016244316 58.317326 -25.177195 -128.42604
5675000000 -31.50042 -165.39136 0.038221054 -142.04939 0.042841371 -142.0101 -35.419155 -116.73202
5700000000 -22.196732 -147.37773 0.087860204 17.875477 0.051671933 17.832075 -19.793224 -124.28905
5725000000 -33.780689 -142.52663 0.045179579 176.94447 0.042726945 177.03799 -32.169281 69.806374
5750000000 -20.783482 -98.562508 0.048438661 -23.470695 0.057529058 -23.542879 -29.866879 -11.969519
5775000000 -25.917801 36.561005 0.032612663 136.18661 0.015009214 136.26236 -22.792746 8.5225983
5800000000 -20.84837 -35.366913 0.027913624 -64.286217 0.0097406348 -64.174614 -27.913435 33.841553
5825000000 -23.570793 17.123491 0.03415757 95.271927 0.036414549 95.190903 -33.887978 -29.499943
5850000000 -27.918106 -44.478493 0.063415259 -105.2083 0.03934497 -105.18907 -23.640142 97.49411
5875000000 -28.59189 38.618755 0.037448905 54.278347 0.027796926 54.374439 -29.398705 -134.95242
5900000000 -35.705246 174.37276 0.061452046 -146.13829 0.057990152 -146.17845 -38.711609 -103.19911
