!Keysight Technologies,E5080A,MY55100170,A.11.70.00
!Date: Tuesday, August 20, 2019 22:46:43
!Correction: S11(Full 2 Port(1,2)) 
!S21(Full 2 Port(1,2)) 
!S12(Full 2 Port(1,2)) 
!S22(Full 2 Port(1,2)) 
!S2P File: Measurements: S11, S21, S12, S22:
# Hz S  dB   R 50
1000000000 -40.032654 174.21133 -0.037388772 -140.36537 -0.028513759 -140.36885 -45.079052 -116.31016
1025000000 -26.072561 -62.664574 -0.061605707 18.093067 -0.052791502 18.170914 -24.047277 -41.474861
1050000000 -33.9062 86.794411 -0.047970012 176.54185 -0.04900055 176.55382 -32.311581 77.62619
1075000000 -32.630756 -82.684929 -0.076449119 -25.045366 -0.06832353 -25.147718 -30.589796 12.988653
1100000000 -28.46409 34.83234 -0.047398083 133.32887 -0.042741675 133.3541 -23.345655 77.975113
1125000000 -35.754349 158.73906 -0.038130756 -68.11866 -0.038545512 -68.014084 -22.463654 100.51782
1150000000 -29.838463 12.237048 -0.064681426 90.282013 -0.056449439 90.138535 -27.540871 84.248344
1175000000 -32.260719 145.98091 -0.034135323 -111.30245 -0.033915002 -111.28516 -30.638296 -170.60712
1200000000 -38.115902 -82.722702 -0.036685918 47.020466 -0.04007417 47.193615 -28.50845 -132.00595
1225000000 -30.699322 136.46426 -0.039871391 -154.42049 -0.041748773 -154.43643 -30.135504 -178.8208
1250000000 -23.09935 -129.65921 -0.087401852 4.315928 -0.074301608 4.281889 -20.485619 -109.34052
1275000000 -38.421059 152.34163 -0.048995655 162.35219 -0.036858432 162.39688 -56.547443 84.684242
1300000000 -19.5641 -128.05823 -0.067847759 -39.304428 -0.091347449 -39.329407 -20.28507 -94.224976
1325000000 -25.997524 -26.076122 -0.0675238 119.54345 -0.055419359 119.48997 -25.040865 11.434879
1350000000 -21.356497 -92.076836 -0.089344531 -82.049355 -0.05348742 -82.062325 -26.181883 -50.716122
1375000000 -18.981049 -16.394157 -0.086104013 76.003632 -0.1045107 76.037163 -21.592106 1.1482891
1400000000 -31.559256 114.09584 -0.040328059 -125.32133 -0.040782101 -125.31336 -31.806862 153.028
1425000000 -22.683155 -2.7413721 -0.055670343 33.051525 -0.050856002 33.032284 -24.762136 8.2558165
1450000000 -25.119051 94.821304 -0.05445819 -168.61407 -0.056810148 -168.53949 -26.488478 121.30174
1475000000 -27.653568 139.42212 -0.023545185 -10.148065 -0.033194419 -10.073319 -31.238565 -158.20085
1500000000 -25.968405 93.109306 -0.040882908 148.37544 -0.035614908 148.31784 -26.220528 106.36743
1525000000 -19.137177 171.68498 -0.070199318 -52.725334 -0.075639606 -52.753773 -21.193527 -175.94461
1550000000 -32.764568 -4.2647362 -0.06025717 105.21646 -0.054150909 105.23279 -32.775677 29.161726
1575000000 -20.63501 -170.95647 -0.069496423 -96.412743 -0.076115355 -96.571358 -21.152622 -156.31584
1600000000 -22.360552 -61.480637 -0.076148011 62.33749 -0.075073808 62.331596 -23.801689 -44.90089
1625000000 -32.30521 130.88597 -0.049790796 -139.43073 -0.050551467 -139.41599 -30.804146 163.99744
1650000000 -18.104155 -79.952438 -0.10652283 18.980433 -0.12116923 18.877321 -20.251211 -67.251823
1675000000 -26.682575 60.17844 -0.064890422 177.47156 -0.054520424 177.43217 -26.892338 104.21384
1700000000 -23.754396 -88.836288 -0.084151775 -24.070997 -0.073289685 -24.034285 -25.768661 -81.177933
1725000000 -21.719624 36.781044 -0.077830531 134.24963 -0.077402264 134.26842 -22.668215 54.618694
1750000000 -32.224159 149.53316 -0.062096182 -67.235321 -0.05765507 -67.178398 -37.048206 -176.07869
1775000000 -26.074879 9.0575552 -0.074631058 91.194389 -0.065378569 91.188988 -23.930952 25.992315
1800000000 -20.03767 145.87314 -0.075720906 -110.19514 -0.096517697 -110.21769 -22.861786 133.01756
1825000000 -22.830139 -70.903709 -0.07884758 48.181404 -0.070381694 48.187603 -25.590082 -42.416107
1850000000 -27.991486 107.3303 -0.059975054 -153.49133 -0.052697968 -153.47157 -27.017738 139.71277
1875000000 -19.584766 -88.007133 -0.094473034 5.1012101 -0.1049287 5.0686431 -21.592093 -104.39646
1900000000 -24.960409 56.400921 -0.069595456 163.3945 -0.063041724 163.40578 -26.294559 93.957375
1925000000 -24.825838 -110.24254 -0.083022229 -38.078003 -0.061242044 -38.146358 -22.297472 -116.3311
1950000000 -22.328945 29.263977 -0.082623608 120.25176 -0.083547384 120.18695 -23.738066 36.146137
1975000000 -24.139801 161.07497 -0.075435705 -81.189293 -0.068302609 -81.086037 -26.202419 -171.82805
2000000000 -22.552105 -20.149536 -0.0909025 77.188683 -0.080427736 77.182854 -21.29262 -4.7727218
2025000000 -22.046185 150.87141 -0.070738062 -124.40785 -0.095684566 -124.28089 -26.005283 126.95679
2050000000 -22.353687 -70.379448 -0.082441576 34.08231 -0.078328945 34.17009 -23.841761 -60.881931
2075000000 -25.25588 94.478249 -0.069501698 -167.52911 -0.059505172 -167.52722 -25.105066 115.95604
2100000000 -21.736122 -106.25754 -0.078058943 -8.9810247 -0.085757151 -8.9505873 -22.8074 -112.13248
2125000000 -24.836115 52.10799 -0.067978591 149.33229 -0.071967378 149.32761 -25.199442 72.901947
2150000000 -21.509712 -136.67465 -0.083077796 -52.194725 -0.084321812 -52.209526 -21.347105 -134.93579
2175000000 -21.528021 0.34186164 -0.085499652 106.2423 -0.095075347 106.30033 -22.122278 18.804354
2200000000 -26.01708 -166.62321 -0.087275453 -95.451401 -0.088620067 -95.203079 -26.841681 -158.81073
2225000000 -17.82955 -25.954725 -0.12274898 63.107349 -0.13153322 62.97625 -18.778244 -23.375141
2250000000 -27.893656 72.463936 -0.025787121 -138.39777 -0.056797646 -138.28239 -26.453505 72.031898
2275000000 -22.463636 -68.823174 -0.09437564 20.002825 -0.089202121 20.163746 -23.360928 -42.367851
2300000000 -23.150454 81.948608 -0.074049994 178.40877 -0.07741423 178.40669 -22.435184 99.376709
2325000000 -22.130053 -128.4767 -0.05331837 -22.915405 -0.047174174 -22.861235 -26.19488 -156.91876
2350000000 -22.319605 37.948845 -0.083331905 135.31343 -0.078629486 135.35631 -22.710552 66.510391
2375000000 -22.742971 -154.44029 -0.089310631 -66.100792 -0.12600571 -66.135811 -19.115171 -178.05682
2400000000 -20.578302 -4.6313162 -0.092207626 92.200172 -0.07660573 92.310257 -23.946501 -6.8503027
2425000000 -22.168627 162.81511 -0.087530375 -109.27131 -0.081553586 -109.33887 -17.910872 -165.43414
2450000000 -20.161337 -44.311821 -0.10666119 49.369156 -0.1277965 49.318771 -17.651848 -65.432846
2475000000 -21.83058 143.73778 -0.088152453 -152.38412 -0.070487931 -152.46278 -23.763327 -150.74355
2500000000 -18.433384 -102.20289 -0.12491702 6.179503 -0.11338014 6.085536 -18.412811 -72.447731
2525000000 -23.17918 69.525047 -0.075909398 164.45067 -0.078817241 164.41869 -21.767298 74.260109
2550000000 -18.551817 -111.99227 -0.077984802 -37.087376 -0.063715458 -37.132111 -26.003298 -66.631218
2575000000 -20.345324 22.322956 -0.10125629 121.29625 -0.10249956 121.29787 -20.057938 37.237953
2600000000 -28.414112 -136.53096 -0.065377057 -80.364197 -0.058756914 -80.115265 -26.506805 142.95656
2625000000 -18.879992 -13.58881 -0.097811595 78.220406 -0.10169465 78.110847 -21.300943 1.5410653
2650000000 -23.366756 127.15762 -0.053580794 -123.08344 -0.076490521 -123.06199 -18.439871 124.76199
2675000000 -18.832674 -54.661934 -0.11624368 35.360779 -0.099851996 35.294437 -20.000912 -64.775703
2700000000 -22.699039 105.38637 -0.099727765 -166.58479 -0.090765275 -166.52405 -22.703959 124.6324
2725000000 -20.680243 -103.94001 -0.098725982 -7.8989797 -0.093717329 -7.7929726 -21.713497 -106.03503
2750000000 -20.457136 57.94593 -0.094867922 150.37259 -0.094523326 150.36682 -20.660465 63.661469
2775000000 -19.495695 -167.19347 -0.078190811 -50.753654 -0.083788805 -50.776318 -21.534729 -135.91801
2800000000 -20.753878 15.573483 -0.10349897 107.28899 -0.10351439 107.25138 -20.418499 17.700083
2825000000 -18.877911 -178.86832 -0.10881703 -94.057404 -0.059883293 -94.136574 -22.939444 176.65588
2850000000 -19.342428 -45.61039 -0.097602688 64.494553 -0.1043507 64.436195 -20.450386 -23.41585
2875000000 -21.364119 -167.7637 -0.082168378 -137.58524 -0.070621759 -137.26158 -25.056677 137.98779
2900000000 -16.766676 -74.960838 -0.12619254 21.485033 -0.13012609 21.311836 -19.146782 -76.833191
2925000000 -36.812527 -95.767799 -0.033797257 179.54767 -0.077779092 179.55676 -28.974445 75.297478
2950000000 -20.968943 -101.4365 -0.095932558 -21.885912 -0.05113326 -21.922466 -23.890182 -106.9798
2975000000 -20.010614 39.585938 -0.098231196 136.41754 -0.10661209 136.39832 -19.799641 49.396667
3000000000 -25.961191 -139.71271 -0.047161292 -65.105545 -0.059334122 -64.914505 -34.296097 118.44304
3025000000 -19.53511 -0.21955374 -0.10700811 93.38308 -0.097895205 93.27243 -20.071127 5.0011353
3050000000 -24.007496 168.43509 -0.089931227 -108.11817 -0.095565379 -108.08288 -21.052401 142.21585
3075000000 -20.749687 -33.747158 -0.088123202 50.239571 -0.083492309 50.338028 -24.545341 -53.782539
3100000000 -20.107365 118.09375 -0.13211361 -151.49469 -0.11286528 -151.70485 -17.534412 141.57806
3125000000 -20.38232 -107.21627 -0.067666225 7.6731439 -0.098274097 7.6448898 -18.782351 -105.79868
3150000000 -20.041288 142.71312 -0.062264383 165.43167 -0.052007273 165.60451 -24.572077 167.43834
3175000000 -17.419535 -128.94356 -0.12173838 -35.993664 -0.084580511 -36.084961 -18.859529 -115.44263
3200000000 -20.308464 20.929298 -0.097062066 122.50641 -0.10300022 122.49238 -19.894377 30.177149
3225000000 -19.933096 -103.94594 -0.060826186 -79.085732 -0.067632303 -78.799171 -28.267879 -66.379074
3250000000 -17.793892 -11.189607 -0.12754588 79.324104 -0.12680689 79.179787 -18.3314 -14.999476
3275000000 -26.82942 57.086674 -0.023347445 -122.04122 -0.04156822 -121.98862 -24.635948 128.7337
3300000000 -19.77652 -38.80117 -0.10310005 36.252892 -0.091509342 36.402027 -22.823828 -53.355835
3325000000 -18.206455 82.326195 -0.15041673 -165.19882 -0.16476379 -165.53722 -18.271555 109.24994
3350000000 -24.420776 -121.49909 -0.010853258 -6.5021987 -0.034631211 -6.5195699 -21.572847 -138.51357
3375000000 -19.589067 106.71662 0.0036605711 151.31241 0.0025393367 151.1375 -16.51635 134.98227
3400000000 -20.186901 -172.62074 -0.10102477 -49.788818 -0.11444487 -49.983772 -19.390232 -134.93019
3425000000 -21.017603 13.170295 -0.078506842 108.45834 -0.073915757 108.46492 -21.059809 14.456342
3450000000 -23.444689 -159.61227 -0.0087914616 -93.107307 -0.002756031 -93.241478 -19.870712 -106.55607
3475000000 -19.78919 -43.198872 -0.10408381 65.541824 -0.13218419 65.411484 -18.285933 -31.004023
3500000000 -22.240637 -142.97604 -0.088631481 -136.39891 -0.088806979 -136.31767 -27.08674 -32.504353
3525000000 -19.241676 -64.301743 -0.061973143 22.216131 -0.03667254 22.222202 -23.730688 -47.527447
3550000000 -24.5755 -11.282084 -0.005522327 -178.89293 -0.064686142 -178.79044 -17.282797 61.061214
3575000000 -23.770992 -56.135105 -0.10785589 -21.059763 -0.080430754 -20.820141 -40.993683 99.302223
3600000000 -13.844924 18.564699 -0.27045652 137.40176 -0.27617797 136.90594 -14.163873 63.130119
3625000000 -25.831615 96.434959 0.019695939 -63.793613 -0.011804095 -63.719593 -19.87339 178.57774
3650000000 -20.909439 8.2515154 -0.091982894 94.396912 -0.089555562 94.434914 -22.043264 4.8623676
3675000000 -20.526527 143.44046 -0.10201865 -107.25766 -0.10633215 -107.54636 -22.033819 170.2612
3700000000 -23.02005 -46.825287 -0.057079405 51.297939 -0.059143227 51.466438 -20.583899 -57.449364
3725000000 -18.967091 150.07338 -0.02393852 -150.30292 0.013020627 -150.4662 -20.485928 -163.06035
3750000000 -22.649267 -89.143761 -0.08480823 8.4044676 -0.10235115 8.1799145 -20.886723 -103.52808
3775000000 -25.785494 139.79686 -0.10414117 166.19525 -0.090637282 166.37227 -34.951744 72.62767
3800000000 -22.286821 -117.60696 -0.062845103 -34.831898 -0.034786738 -34.863861 -26.910295 -101.29958
3825000000 -30.884161 -43.078339 -0.05180975 123.57229 -0.069670878 123.66303 -19.366465 3.345526
3850000000 -24.791574 -137.04901 -0.088821292 -78.111664 -0.076676212 -78.120178 -25.801603 -125.5634
3875000000 -20.572338 -12.594081 -0.08393319 80.40683 -0.079362646 80.390564 -21.909735 -12.208286
3900000000 -26.68259 -59.049355 -0.018134113 -121.46918 -0.044859264 -121.34332 -29.599508 110.47675
3925000000 -20.110037 -43.081013 -0.094100185 37.210564 -0.097413905 37.396355 -21.757639 -47.059727
3950000000 -21.310877 30.80093 -0.083705679 -164.18137 -0.10394993 -164.03349 -23.300926 105.17304
3975000000 -30.657875 -32.97121 -0.036827262 -6.0078516 -0.050626364 -5.9603343 -28.856226 -132.96832
4000000000 -15.865417 54.442287 -0.1829052 152.35982 -0.14410576 152.14183 -17.553272 87.01049
4025000000 -27.377165 172.03925 -0.043244474 -48.805813 -0.059352696 -48.878529 -27.49791 -153.76888
4050000000 -20.614178 62.600002 -0.081773214 109.06601 -0.10693374 109.2796 -30.673164 72.211227
4075000000 -24.978107 166.62683 -0.076266773 -92.154182 -0.11600471 -92.149918 -18.528696 -165.6936
4100000000 -21.800451 -15.130696 -0.074205935 66.348137 -0.076079123 66.392395 -22.953112 -39.793354
4125000000 -28.003868 149.25688 -0.059863955 -135.32536 -0.049903534 -135.49509 -23.214964 -164.61365
4150000000 -22.87705 -74.356773 -0.078548096 23.348743 -0.084393956 23.328976 -20.536676 -67.893349
4175000000 -25.578892 127.86472 -0.086857513 -178.5233 -0.058272898 -178.45329 -30.138887 -35.682602
4200000000 -22.923916 -114.21851 -0.066336192 -19.953751 -0.050786603 -20.063972 -23.696882 -84.428238
4225000000 -27.834 27.580822 -0.041920044 138.65596 -0.073596552 139.01926 -15.928492 18.287939
4250000000 -23.10594 -107.24007 -0.077133179 -62.972351 -0.042417683 -62.892445 -32.773792 54.124702
4275000000 -19.256191 -33.474083 -0.17019498 95.577568 -0.20496951 95.214035 -14.189932 19.035786
4300000000 -35.918594 -178.71318 -0.023939561 -106.27776 -0.047683895 -106.09532 -22.980082 129.42587
4325000000 -21.766556 -22.604702 -0.077804841 52.373043 -0.062316757 52.365208 -25.125151 -55.94381
4350000000 -26.582298 100.75936 -0.10914587 -149.33963 -0.13101619 -149.22981 -16.158472 131.37491
4375000000 -23.084408 -78.009636 -0.062005788 9.1885223 -0.057707399 9.3343067 -23.704693 -103.67128
4400000000 -23.013983 80.721001 -0.024262277 167.39493 -0.03833751 167.1971 -18.123287 146.51212
4425000000 -27.381235 -140.74367 -0.061418708 -33.713814 -0.082354113 -33.832611 -19.794121 -125.79075
4450000000 -20.118254 49.834843 -0.17303458 124.5916 -0.049609859 124.64935 -36.659245 -96.566216
4475000000 -23.818146 -179.85803 -0.048178904 -77.236305 -0.0189286 -77.15506 -25.439848 -115.70576
4500000000 -35.971622 151.0824 0.031591207 80.882301 -0.061540008 81.603561 -15.862409 -44.97604
4525000000 -18.880859 177.69991 -0.098412864 -120.07209 -0.055973832 -120.12937 -29.464184 -134.52988
4550000000 -21.348257 -48.974831 -0.068668887 38.329159 -0.057881102 38.316189 -22.829283 -65.594833
4575000000 -23.078825 -123.36604 0.023822444 -163.99773 -0.028448902 -163.5631 -22.090176 70.776222
4600000000 -21.002861 -73.099243 -0.070641227 -4.7599611 -0.049203478 -4.6552386 -28.685177 -75.098701
4625000000 -19.282034 -19.443819 -0.067453764 154.25288 -0.13761233 154.03423 -17.149708 60.914776
4650000000 -33.19595 -76.641029 -0.026424915 -48.219654 -0.054751869 -48.026779 -26.893 -140.1859
4675000000 -14.612243 9.7600441 -0.11515737 110.54029 -0.091204181 109.92597 -20.595112 53.580471
4700000000 -31.184364 152.28992 -0.059757676 -90.963387 -0.07527364 -90.990944 -22.454069 164.52306
4725000000 -20.138952 0.40828946 -0.1333169 67.071472 -0.058528747 67.472511 -29.831835 1.8813045
4750000000 -23.083529 121.87254 -0.071979366 -134.25926 -0.062155474 -134.49939 -21.522518 170.19791
4775000000 -24.327724 -53.080585 -0.058544826 24.362535 -0.066050366 24.336779 -22.458805 -91.482536
4800000000 -18.616026 100.27976 -0.11225771 -177.60924 -0.066334911 -177.52361 -21.171118 133.10054
4825000000 -24.410185 -120.47338 -0.053580113 -18.804695 -0.057886697 -18.880316 -25.448618 -101.52659
4850000000 -24.333675 89.012421 -0.055806197 139.24199 -0.084980004 139.45804 -21.461935 25.19338
4875000000 -22.734735 -150.99637 -0.068554983 -62.053295 -0.044585533 -61.932693 -22.368546 -121.19992
4900000000 -22.719513 -57.373154 -0.045743741 96.829308 -0.081168242 96.80822 -21.109819 -4.6292753
4925000000 -24.603493 -140.7946 -0.029544694 -105.35544 -0.066268221 -105.19128 -27.034439 167.67375
4950000000 -15.080137 -65.307373 -0.15328476 53.846775 -0.13034202 53.193302 -17.699869 -22.535004
4975000000 -28.932049 106.24625 -0.047177065 -148.1839 -0.052533381 -148.06418 -24.379644 117.32021
5000000000 -22.549793 -66.473 -0.060523331 10.380941 -0.051480647 10.335872 -23.088745 -94.26622
5025000000 -23.575325 56.357224 -0.093429275 168.64319 -0.10249723 168.72083 -17.880798 94.086472
5050000000 -24.877449 -107.44196 -0.048858013 -32.807259 -0.054619677 -32.818207 -29.271746 -141.93231
5075000000 -22.52865 24.903069 -0.078441963 125.43354 -0.058457378 125.22418 -19.699287 58.007473
5100000000 -30.140398 157.93152 -0.045607351 -75.916008 -0.05978094 -75.895897 -22.408808 -149.77557
5125000000 -19.057337 10.609622 -0.12684965 82.598701 -0.065195017 82.646164 -28.823507 -58.318302
5150000000 -23.973957 141.46046 -0.074954621 -119.32961 -0.022563003 -119.32053 -20.759882 175.56062
5175000000 -28.081516 -74.847992 -0.023826664 39.360115 -0.032060597 39.763515 -18.658531 -85.496788
5200000000 -17.743128 134.2034 -0.081896529 -162.26816 -0.064313613 -162.3743 -27.864965 150.60466
5225000000 -22.545828 -96.620659 -0.048690688 -3.6634216 -0.0501578 -3.7338686 -21.754786 -98.116508
5250000000 -32.742867 162.77473 -0.0058410903 154.14796 -0.01641137 154.47728 -21.066975 52.169827
5275000000 -21.169319 -114.42518 -0.044358026 -46.781197 -0.027812187 -46.785469 -29.068998 -116.16634
5300000000 -19.068462 -38.29567 -0.062253393 112.65372 -0.15769042 112.34888 -14.205759 10.041931
5325000000 -29.93675 -131.03433 -0.030029256 -90.266747 -0.04349361 -90.135925 -28.501122 -162.15788
5350000000 -13.914967 -34.272224 -0.085109651 68.423073 -0.099568315 67.550819 -18.207598 9.0192509
5375000000 -29.057865 75.613693 -0.022656782 -132.74435 -0.059116665 -132.73001 -18.065208 129.95526
5400000000 -16.751974 -30.552588 -0.14676936 25.611473 0.0048994576 25.900404 -27.27808 74.006218
5425000000 -18.435734 81.849731 -0.096581817 -176.48088 -0.089069054 -176.87106 -18.159115 110.62032
5450000000 -27.713779 -114.97883 -0.0072604506 -17.541496 -0.025059797 -17.543047 -21.740412 -118.55706
5475000000 -15.496285 75.182663 -0.09072227 140.68204 -0.02103403 140.57726 -24.138676 112.46265
5500000000 -22.647474 -161.80945 -0.0485286 -60.860676 -0.037221495 -60.989258 -23.658512 -151.95676
5525000000 -23.988602 112.389 0.0080540674 96.570076 -0.035404388 97.39666 -19.350124 -37.162079
5550000000 -18.874825 -167.24361 -0.020055549 -104.09267 0.00087878155 -104.09718 -23.603954 -129.15457
5575000000 -16.002331 -116.02131 0.10484924 55.846844 0.0042830901 55.528645 -14.601839 -61.229977
5600000000 -24.852407 -113.06045 0.033316918 -147.52441 -0.010880585 -147.28516 -25.863819 122.43896
5625000000 -11.449887 -88.034996 -0.1355319 11.530053 -0.10783718 10.64152 -19.911428 -57.303204
5650000000 -19.971561 22.800701 -0.012545049 170.38531 -0.076806009 170.33234 -16.811815 61.979622
5675000000 -30.609344 -111.25138 -0.00088943372 -31.746651 -0.011609149 -31.668182 -24.198591 -120.86646
5700000000 -14.33254 37.464993 -0.14210375 126.47258 -0.11929085 126.00427 -18.965605 51.719654
5725000000 -23.903893 -176.52679 -0.019009979 -74.76442 -0.032693855 -74.783455 -21.567614 -179.68861
5750000000 -20.0359 39.083927 -0.049340479 83.15992 -0.023951512 83.626625 -24.490318 -10.000134
5775000000 -21.410534 165.71312 -0.021485772 -118.25441 -0.014377792 -118.31971 -23.562208 178.03038
5800000000 -21.995895 -78.374344 0.031168288 40.893559 -0.031948488 40.953537 -17.380068 -81.247917
5825000000 -25.936949 132.27652 -0.019228458 -161.39948 -0.011752612 -161.19054 -21.360233 132.51801
5850000000 -16.881845 -103.63371 -0.035031334 -2.379715 -0.052990753 -2.8520944 -22.30444 -88.155289
5875000000 -21.392525 62.459084 -0.023618422 155.88356 -0.071677983 155.94444 -17.08075 47.720997
5900000000 -27.527613 -116.39848 0.0083676791 -45.749645 0.0029757675 -45.718555 -24.531549 -118.47593
