!Keysight Technologies,N5245B,MY57181346,A.13.60.06
!Automatic Fixture Removal (AFR)
!Date: Thursday, August 08, 2019, 03:51:17
!S2P File: Measurements: S11,S21,S12,S22:
# MHz S  DB   R 50
10           -52.7895602090392        170.410030872478         -0.00653863946549699     -0.976421642060563       -0.00653863946549699     -0.976421642060563       -26.1757920333658        -0.271425040107282      
20           -52.5550773196621        161.099440958762         -0.00742204879922684     -1.95284087941135        -0.00742204879921816     -1.95284087941135        -26.1760681948977        -0.542768587018446      
30           -52.1831366008921        152.31008458075          -0.00834078006896617     -2.92926304947268        -0.00834078006895748     -2.92926304947268        -26.1765276353982        -0.813945847164149      
40           -51.7067415971518        144.189180876127         -0.00928313852834409     -3.905685066501          -0.00928313852834409     -3.905685066501          -26.1771683930764        -1.08490498756902       
50           -51.1589717151602        136.792223452494         -0.0102433988050078      -4.88210764734096        -0.0102433988049991      -4.88210764734096        -26.1779914716748        -1.35553731894709       
60           -50.5688367460366        130.105371022032         -0.0112181216555162      -5.85853184167372        -0.0112181216555162      -5.85853184167372        -26.1789934379805        -1.62580930453308       
70           -49.9586744068926        124.072910157545         -0.0122049949231522      -6.83495714951505        -0.0122049949231522      -6.83495714951505        -26.1801764233152        -1.89564378571807       
80           -49.3443743866713        118.621042156067         -0.0132023602727881      -7.81138547969434        -0.0132023602727881      -7.81138547969434        -26.1815341136171        -2.16497046902137       
90           -48.7367213435648        113.672880835819         -0.014208971263102       -8.78781541078686        -0.014208971263102       -8.78781541078686        -26.1830529211577        -2.43373807169845       
100          -48.1425340690419        109.155602811361         -0.0152238362691526      -9.76424705286981        -0.0152238362691526      -9.76424705286981        -26.1847416515496        -2.70186330242419       
110          -47.5656369267065        105.005769005001         -0.0162461720252346      -10.7406795076111        -0.0162461720252346      -10.7406795076111        -26.1865880253684        -2.96928067976995       
120          -47.0081419727539        101.168243747273         -0.0172753370164511      -11.7171169038867        -0.0172753370164511      -11.7171169038867        -26.188577451949         -3.23598137118317       
130          -46.4708848935462        97.5960684386216         -0.0183107806173626      -12.6935560899586        -0.0183107806173626      -12.6935560899586        -26.1907153079126        -3.50183413012373       
140          -45.9538653001448        94.2510095931381         -0.0193520587318481      -13.6699999823043        -0.0193520587318481      -13.6699999823043        -26.1929748362655        -3.76681402595818       
150          -45.4566228786971        91.1010141234244         -0.02039876084066        -14.646441608703         -0.02039876084066        -14.646441608703         -26.1953693157627        -4.03083673642291       
160          -44.9783903590854        88.1186507531721         -0.0214505614332607      -15.6228912244665        -0.0214505614332539      -15.6228912244665        -26.1978694351768        -4.29388529156541       
170          -44.5183161322902        85.2824763572759         -0.0225071507465253      -16.5993444083984        -0.0225071507465253      -16.5993444083984        -26.2004803015051        -4.55589581053454       
180          -44.0754102834408        82.573125737039          -0.0235682717648668      -17.5757983359965        -0.023568271764859       -17.5757983359965        -26.2031845556217        -4.81681350087071       
190          -43.6486884191172        79.9754914886006         -0.024633683222248       -18.5522562595102        -0.024633683222248       -18.5522562595102        -26.2059818677012        -5.07661123849029       
200          -43.2371232539539        77.475522000408          -0.0257031893323103      -19.5287238398955        -0.0257031893323016      -19.5287238398955        -26.2088457501656        -5.3352513629198        
210          -42.8398556177002        75.0630850121561         -0.0267765961954137      -20.5051876603406        -0.0267765961954137      -20.5051876603406        -26.2117740758785        -5.59271288683665       
220          -42.4560124417195        72.7284144691381         -0.0278537377039116      -21.4816608803756        -0.0278537377039116      -21.4816608803756        -26.2147531259367        -5.8489350825245        
230          -42.084738344188         70.4636517026329         -0.0289344630438455      -22.4581362579251        -0.0289344630438378      -22.4581362579251        -26.2177690636018        -6.10390895347574       
240          -41.7253113230777        68.2621714134838         -0.0300186317911711      -23.4346153669732        -0.0300186317911653      -23.4346153669733        -26.2208125486782        -6.35761260299897       
250          -41.3770061729722        66.1176723386255         -0.0311061183819526      -24.4111009205262        -0.0311061183819526      -24.4111009205262        -26.223871286341         -6.60999039068705       
260          -41.0391865201796        64.0246406281577         -0.0321968083637356      -25.3875894684201        -0.0321968083637356      -25.3875894684201        -26.2269311191938        -6.86106204078498       
270          -40.7112548466446        61.9794246896705         -0.0332906001497652      -26.3640837267383        -0.0332906001497652      -26.3640837267383        -26.229974826137         -7.11077203222107       
280          -40.392687332396         59.9776040314931         -0.0343873945157535      -27.3405833973176        -0.0343873945157438      -27.3405833973175        -26.2329908738661        -7.35917556512965       
290          -40.0829248488151        58.0157843981398         -0.0354870984864698      -28.317088724787         -0.0354870984864698      -28.317088724787         -26.2359711302454        -7.60623229847504       
300          -39.7815449446015        56.0911326864639         -0.0365896280342399      -29.2936004095436        -0.0365896280342399      -29.2936004095436        -26.2389036145802        -7.85195557507493       
310          -39.4880533810724        54.2007196353303         -0.0376949170015786      -30.2701136856816        -0.0376949170015718      -30.2701136856816        -26.2417612669343        -8.09635211929702       
320          -39.2020964810706        52.3422316446912         -0.0388028841377047      -31.2466334305468        -0.0388028841376959      -31.2466334305468        -26.2445429712795        -8.33945154134126       
330          -38.9233020907716        50.513873633838          -0.0399134677023884      -32.2231591994276        -0.0399134677023796      -32.2231591994276        -26.2472281926186        -8.58131184206868       
340          -38.6513009413033        48.7132994499968         -0.041026603724913       -33.199689735311         -0.041026603724913       -33.199689735311         -26.249807993715         -8.82186198791935       
350          -38.3858318542689        46.9392454138214         -0.0421422360089354      -34.1762281160278        -0.0421422360089277      -34.1762281160278        -26.2522649076569        -9.06119740248145       
360          -38.1265473388231        45.1900539185116         -0.0432603089410255      -35.1527699718763        -0.0432603089410255      -35.1527699718763        -26.2545873794191        -9.29933215329266       
370          -37.8732103084875        43.464414686012          -0.0443807757164836      -36.1293191024392        -0.0443807757164836      -36.1293191024392        -26.2567566443351        -9.53629123136536       
380          -37.6255956100946        41.7611017020983         -0.0455035851702577      -37.1058726357835        -0.0455035851702499      -37.1058726357835        -26.2587626636721        -9.77213736582411       
390          -37.3834328376392        40.0789571585514         -0.0466286941122528      -38.0824316995266        -0.046628694112247       -38.0824316995266        -26.2605903389109        -10.0068734478682       
400          -37.1465629803999        38.4169559674288         -0.0477560594797391      -39.0589967318321        -0.0477560594797391      -39.0589967318321        -26.2622249629236        -10.2406106319078       
410          -36.9147349858705        36.774051338188          -0.0488856375428189      -40.0355699041534        -0.0488856375428189      -40.0355699041534        -26.2636578448592        -10.4733834907713       
420          -36.6878188327849        35.1495195105322         -0.050017389621725       -41.0121447152324        -0.0500173896217182      -41.0121447152323        -26.2648770198886        -10.7052155946451       
430          -36.465601597146         33.5424738728362         -0.0511512854429024      -41.9887266497953        -0.0511512854428946      -41.9887266497953        -26.2658583821271        -10.9362662827312       
440          -36.2479448707759        31.9521922982059         -0.0522872767412852      -42.9653166325173        -0.0522872767412852      -42.9653166325173        -26.2666081697412        -11.1665384107903       
450          -36.0346954791144        30.3779502535564         -0.0534253416755287      -43.9419115511337        -0.0534253416755287      -43.9419115511337        -26.2670995227777        -11.3960731584917       
460          -35.825710417381         28.8191565559511         -0.0545654389548558      -44.918513827994         -0.0545654389548558      -44.918513827994         -26.2673288075507        -11.6250500916475       
470          -35.6208878228155        27.2752429655599         -0.0557075390405567      -45.8951197620598        -0.0557075390405567      -45.8951197620598        -26.2672832592482        -11.8535087958238       
480          -35.4200627953572        25.745598767187          -0.0568516077692377      -46.8717350069027        -0.0568516077692377      -46.8717350069027        -26.2669573243612        -12.0815125950125       
490          -35.2231600434842        24.2298896110354         -0.0579976148114935      -47.848355131399         -0.0579976148114935      -47.848355131399         -26.2663407800413        -12.3091681115334       
500          -35.0300775132018        22.7273403259953         -0.0591455318527871      -48.8249811872643        -0.0591455318527803      -48.8249811872644        -26.2654231073019        -12.5365584024771       
510          -34.8406986003857        21.2376440090806         -0.0602953345525361      -49.8016125628701        -0.0602953345525303      -49.80161256287          -26.2641892253889        -12.7637913724865       
520          -34.6549366771475        19.7603180827958         -0.061446984739769       -50.7782542729107        -0.0614469847397622      -50.7782542729107        -26.2626440888834        -12.9909585837746       
530          -34.4726990117912        18.2949289155936         -0.0626004646253918      -51.754899476775         -0.0626004646253918      -51.754899476775         -26.2607668837169        -13.2181617732512       
540          -34.2939053520563        16.8408409788435         -0.063755745712412       -52.7315515837489        -0.0637557457123974      -52.7315515837489        -26.2585513430491        -13.4455210904445       
550          -34.1184678326774        15.3980303940761         -0.0649128052777578      -53.7082083768971        -0.0649128052777578      -53.7082083768971        -26.2559873359195        -13.6730849321755       
560          -33.9463077085957        13.9659697208034         -0.066071611251084       -54.6848748434474        -0.066071611251084       -54.6848748434474        -26.2530744514044        -13.9010012015756       
570          -33.7773522679667        12.5442334998747         -0.0672321387081499      -55.6615435753707        -0.0672321387081499      -55.6615435753707        -26.2498047933984        -14.1293906403571       
580          -33.6115387853136        11.1326550422824         -0.0683943603618833      -56.6382209479439        -0.0683943603618697      -56.6382209479439        -26.2461793676713        -14.3582470438521       
590          -33.4488131686005        9.73090341254248         -0.06955824387661        -57.6149038367266        -0.06955824387661        -57.6149038367266        -26.2421987468174        -14.587772420766        
600          -33.2891021737003        8.3387040206766          -0.0707237615421623      -58.5915941993555        -0.0707237615421536      -58.5915941993556        -26.237863242862         -14.8180373143238       
610          -33.1323420862034        6.95564081661694         -0.0718908787560453      -59.5682897970049        -0.0718908787560453      -59.5682897970049        -26.2331797445309        -15.0491942192625       
620          -32.9785039694734        5.58159739564177         -0.0730595710841899      -60.544994384107         -0.0730595710841899      -60.544994384107         -26.2281415077799        -15.2814150066513       
630          -32.8275348868073        4.21622162704001         -0.0742298009081428      -61.5217007048941        -0.0742298009081428      -61.5217007048941        -26.2227605908263        -15.5148490815696       
640          -32.6793737967499        2.85919990290404         -0.0754015469191166      -62.4984177324538        -0.0754015469191166      -62.4984177324538        -26.217030223105         -15.7495941974428       
650          -32.5339862168853        1.5103164141516          -0.0765747730930157      -63.4751425332702        -0.0765747730930128      -63.4751425332702        -26.210962378929         -15.9857767465332       
660          -32.3912935300869        0.169291020709083        -0.0777494602559708      -64.4518719227974        -0.0777494602559708      -64.4518719227974        -26.2045449264511        -16.2235751757656       
670          -32.2512993105366        -1.16415246770771        -0.078925582411815       -65.4286095359677        -0.0789255824118072      -65.4286095359677        -26.1977783034038        -16.4630940711591       
680          -32.1139176382222        -2.49023434699925        -0.0801031088102567      -66.4053533946735        -0.0801031088102567      -66.4053533946735        -26.1906705156908        -16.7044190217593       
690          -31.9791239699818        -3.8091414011958         -0.0812820157294269      -67.3821043065937        -0.0812820157294162      -67.3821043065937        -26.1832193074067        -16.9476658629503       
700          -31.8468679593344        -5.12119482849063        -0.0824622790595785      -68.3588612997719        -0.0824622790595707      -68.3588612997719        -26.1754235770622        -17.1929431796586       
710          -31.717118884161         -6.42649250266324        -0.0836438707355917      -69.3356256620777        -0.0836438707355917      -69.3356256620777        -26.1672907878439        -17.4402957715846       
720          -31.5898395383368        -7.72519243643525        -0.084826754908885       -70.3123974583526        -0.084826754908885       -70.3123974583526        -26.1588375430866        -17.6898018638099       
730          -31.4649939838876        -9.01760177778508        -0.0860109106172634      -71.2891766556551        -0.0860109106172546      -71.2891766556551        -26.1500639832389        -17.9414798364038       
740          -31.3425465120127        -10.3038555289156        -0.0871963016814933      -72.2659602525366        -0.0871963016814933      -72.2659602525366        -26.1409808210275        -18.1955497110649       
750          -31.2224684710909        -11.5841196850945        -0.0883828929571341      -73.2427509586133        -0.0883828929571341      -73.2427509586133        -26.1316086933514        -18.4520053414158       
760          -31.1047330760448        -12.8586403423379        -0.08957065080595        -74.2195511667365        -0.08957065080595        -74.2195511667365        -26.12195682539          -18.7110333491102       
770          -30.989292522082         -14.1275777474438        -0.0907595473595452      -75.1963587199767        -0.0907595473595355      -75.1963587199767        -26.1120307939639        -18.9727410157065       
780          -30.8761310796439        -15.3911264196035        -0.0919495464742917      -76.173173681029         -0.0919495464742917      -76.173173681029         -26.1018478188277        -19.2372247327536       
790          -30.7652274234453        -16.649451525741         -0.0931406206993441      -77.1499931767289        -0.0931406206993344      -77.1499931767289        -26.0914113264649        -19.504624399219        
800          -30.6565334569043        -17.9027367563375        -0.0943327416975708      -78.1268241021029        -0.0943327416975708      -78.1268241021029        -26.0807285372557        -19.7750303282095       
810          -30.5500229136288        -19.1511451880048        -0.0955258788058693      -79.1036622258732        -0.0955258788058625      -79.1036622258733        -26.0698109062498        -20.048513023889        
820          -30.4456883129958        -20.3948508023983        -0.0967200046197131      -80.0805060821671        -0.0967200046197131      -80.0805060821671        -26.0586634882117        -20.3251813128155       
830          -30.3434721532129        -21.6339895515916        -0.0979150897032836      -81.0573591590132        -0.0979150897032748      -81.0573591590132        -26.0473003805083        -20.6050317125168       
840          -30.2433557378442        -22.8686314692147        -0.0991110995486973      -82.0342197137961        -0.0991110995486973      -82.0342197137961        -26.0357328734545        -20.8882310317764       
850          -30.1453216640753        -24.0989945149786        -0.100308012377006       -83.0110873194258        -0.100308012377006       -83.0110873194258        -26.0239730659303        -21.1746386346617       
860          -30.049355161874         -25.3252201354244        -0.101505783911492       -83.9879623642203        -0.101505783911483       -83.9879623642203        -26.0120432311294        -21.4644585200994       
870          -29.9554183307773        -26.5474164202014        -0.10270438960917        -84.9648467160234        -0.102704389609162       -84.9648467160234        -25.9999556104134        -21.7576182928928       
880          -29.8634948239826        -27.765678805891         -0.103903787203545       -85.9417402040253        -0.103903787203536       -85.9417402040253        -25.9877309876862        -22.0542995047155       
890          -29.7735607997042        -28.9802185773348        -0.105103945887006       -86.918641726365         -0.105103945887006       -86.918641726365         -25.9753857931537        -22.3545017334632       
900          -29.6855991934415        -30.1911346677979        -0.106304837745815       -87.8955508234712        -0.106304837745807       -87.8955508234712        -25.9629269103338        -22.6583176887654       
910          -29.5995798063407        -31.3985549314743        -0.107506425319895       -88.872469378244         -0.107506425319895       -88.872469378244         -25.9503746236586        -22.9658281165319       
920          -29.5154860279535        -32.602636258789         -0.108708686737703       -89.8493970109519        -0.108708686737703       -89.8493970109519        -25.9377347447173        -23.2770143401028       
930          -29.4332971415884        -33.8034959322955        -0.109911582088417       -90.8263336704046        -0.109911582088417       -90.8263336704046        -25.925025799978         -23.5920344327374       
