!Keysight Technologies,N5245B,MY57181346,A.13.60.06
!Automatic Fixture Removal (AFR)
!Date: Thursday, August 08, 2019, 03:52:29
!S2P File: Measurements: S11,S21,S12,S22:
# MHz S  DB   R 50
10           -59.5637651538059        26.0063947832384         -0.00483315594429755     -0.945519174784273       -0.00483315594429755     -0.945519174784273       -30.7407186810104        0.195306644276325       
20           -57.4119479856441        43.1276945373111         -0.00613184334869261     -1.89103503668858        -0.00613184334869261     -1.89103503668858        -30.7378235999662        0.390073184851548       
30           -55.2468270132229        52.9201305457248         -0.00740786647236746     -2.8365526680297         -0.00740786647236746     -2.8365526680297         -30.7330251305146        0.583695553398287       
40           -53.3503060294366        58.5535125824032         -0.00866983915000906     -3.78206717003068        -0.00866983915000906     -3.78206717003068        -30.7263087120624        0.775751468345022       
50           -51.7248279708078        61.8772757956963         -0.00992177483397201     -4.72758084495623        -0.00992177483397201     -4.72758084495623        -30.7177032302833        0.965726744379867       
60           -50.3229991069216        63.8455889983936         -0.0111660273140609      -5.67309347420355        -0.0111660273140609      -5.67309347420355        -30.7072112732286        1.15308054157083        
70           -49.0989095895483        64.9677858698476         -0.0124041290964677      -6.61860237642619        -0.0124041290964677      -6.61860237642619        -30.6948570773568        1.33730407754796        
80           -48.0163849158155        65.5319964834955         -0.0136371540411825      -7.56410945265262        -0.0136371540411825      -7.56410945265262        -30.680676580315         1.51786319276101        
90           -47.0481114414985        65.7101710078599         -0.014865919112819       -8.50961335517157        -0.014865919112819       -8.50961335517157        -30.6646733036625        1.69441208227219        
100          -46.1733885646487        65.6118492072707         -0.0160910388675088      -9.4551140579083         -0.0160910388675088      -9.4551140579083         -30.6468816853461        1.86635437051153        
110          -45.3764200169666        65.3089848968285         -0.0173129833063788      -10.4006143898861        -0.0173129833063875      -10.4006143898862        -30.6273624184405        2.03328203499418        
120          -44.6450042270468        64.8511065863116         -0.0185321697480636      -11.3461081038821        -0.0185321697480636      -11.3461081038821        -30.6061172291984        2.19477603342488        
130          -43.9694298261467        64.2726793013096         -0.0197489088293384      -12.2916010820105        -0.0197489088293384      -12.2916010820105        -30.5832071783171        2.35031628198244        
140          -43.3420448617518        63.5998137215844         -0.020963481834569       -13.2370874397997        -0.020963481834569       -13.2370874397997        -30.5586578703997        2.49956732962892        
150          -42.7565770005846        62.8502923155397         -0.0221761095423567      -14.182568328564         -0.0221761095423567      -14.182568328564         -30.5325249714034        2.64217200379108        
160          -42.2079462464143        62.0392911808484         -0.0233869924261713      -15.1280450774695        -0.0233869924261713      -15.1280450774695        -30.5048466911525        2.77765882492529        
170          -41.6918835976025        61.1773891800283         -0.0245962905079919      -16.0735186153966        -0.0245962905079938      -16.0735186153966        -30.4756814997308        2.90571352138199        
180          -41.2048354887676        60.2733887252711         -0.025804162978978       -17.0189840805906        -0.025804162978978       -17.0189840805906        -30.4450568680939        3.02600726201021        
190          -40.7438147146761        59.3341816108265         -0.0270107135312898      -17.964446814016         -0.0270107135312898      -17.964446814016         -30.4130565952072        3.13816178468906        
200          -40.3062448648432        58.3651176593698         -0.0282160657041033      -18.9099028168656        -0.0282160657041033      -18.9099028168656        -30.3797115817483        3.24187643889104        
210          -39.8899340502271        57.3709293541668         -0.0294203141217489      -19.8553488597948        -0.0294203141217489      -19.8553488597948        -30.3450760150842        3.33690011817315        
220          -39.4929768432313        56.3549864861854         -0.0306235395686758      -20.8007929744207        -0.0306235395686758      -20.8007929744207        -30.309208313101         3.42292853959662        
230          -39.1137299132604        55.3207126627648         -0.0318258059747161      -21.7462278081297        -0.0318258059747161      -21.7462278081297        -30.2721765457006        3.49971903312772        
240          -38.750751441082         54.2706088740544         -0.0330271834793843      -22.6916582313087        -0.0330271834793843      -22.6916582313087        -30.2340266719325        3.56705224188586        
250          -38.4027532679111        53.2067121386603         -0.0342277188657061      -23.6370772623973        -0.0342277188657061      -23.6370772623973        -30.1948276346812        3.62468435752979        
260          -38.0686213579705        52.1312077915169         -0.0354274697677256      -24.5824906845375        -0.0354274697677285      -24.5824906845374        -30.1546228413669        3.67233438758449        
270          -37.7473573484418        51.0454495469805         -0.0366264691850805      -25.5278955454913        -0.0366264691850805      -25.5278955454913        -30.1134798701866        3.70996093468199        
280          -37.4380756269925        49.9507839311961         -0.0378247578381348      -26.4732928422818        -0.0378247578381348      -26.4732928422818        -30.0714492784773        3.73726328026145        
290          -37.1399728926187        48.8485167379333         -0.0390223478174478      -27.4186807698024        -0.0390223478174478      -27.4186807698024        -30.028612405097         3.75418647900449        
300          -36.8523283896727        47.7396331978051         -0.0402192821632939      -28.3640577672068        -0.0402192821632939      -28.3640577672068        -29.9850005399135        3.76054877254785        
310          -36.5744911134076        46.624992393033          -0.0414155611681351      -29.3094264407574        -0.0414155611681283      -29.3094264407574        -29.9406977669725        3.75629440627938        
320          -36.3058903106531        45.5054442376691         -0.0426112138277575      -30.2547870480971        -0.0426112138277575      -30.2547870480971        -29.8957421788422        3.74127765296564        
330          -36.0460113178178        44.3817248346134         -0.0438062461315948      -31.2001345369925        -0.0438062461315948      -31.2001345369925        -29.8501984602251        3.71535074731298        
340          -35.7943471180406        43.254380402985          -0.0450006674721174      -32.1454746116307        -0.0450006674721174      -32.1454746116307        -29.8041189595208        3.67856269869213        
350          -35.5504587203703        42.1238727011296         -0.0461944683292998      -33.0908058736135        -0.0461944683292998      -33.0908058736135        -29.7575778901229        3.6308598477004         
360          -35.3139637892676        40.990919314516          -0.0473876644444254      -34.0361228974024        -0.0473876644444254      -34.0361228974024        -29.7106105317711        3.57207567067052        
370          -35.084507918488         39.8558237669651         -0.0485802403211093      -34.9814312711245        -0.0485802403211093      -34.9814312711245        -29.6632872183554        3.502369647346          
380          -34.861701492926         38.7189536388318         -0.0497721956617684      -35.9267271767377        -0.0497721956617684      -35.9267271767377        -29.6156567224487        3.42147268857601        
390          -34.6452890224495        37.5807937885997         -0.0509635164602293      -36.8720122590252        -0.0509635164602293      -36.8720122590252        -29.5677773950785        3.32960856647319        
400          -34.4349623898003        36.4414956966368         -0.0521541930459188      -37.8172855787264        -0.0521541930459188      -37.8172855787264        -29.5196996563586        3.22675324898941        
410          -34.2304607962065        35.3014392329063         -0.0533442119768353      -38.7625483777002        -0.0533442119768421      -38.7625483777003        -29.4714752901787        3.11282491037481        
420          -34.0315464405541        34.1608014220216         -0.0545335603437239      -39.7077970781736        -0.0545335603437239      -39.7077970781736        -29.4231494344774        2.98797023182613        
430          -33.8379840087996        33.0199174461601         -0.0557222111352396      -40.6530339658238        -0.0557222111352396      -40.6530339658238        -29.3747840101947        2.85209141318235        
440          -33.6495820327854        31.8788873993098         -0.0569101514557106      -41.5982604101681        -0.0569101514557106      -41.5982604101681        -29.3264158509744        2.70542589234934        
450          -33.4661399674685        30.73796219439           -0.0580973560232613      -42.5434714074797        -0.0580973560232613      -42.5434714074797        -29.2780974383806        2.54782225959066        
460          -33.2874607756952        29.5972952941792         -0.0592837953339447      -43.4886710582951        -0.0592837953339447      -43.4886710582951        -29.2298805058134        2.37948999175861        
470          -33.1134081757931        28.456984138519          -0.060469446733513       -44.433856131213         -0.0604694467335256      -44.433856131213         -29.1818058661208        2.20043958229388        
480          -32.9438015249598        27.317225230045          -0.0616542832510035      -45.3790296321545        -0.0616542832510035      -45.3790296321545        -29.1339162818661        2.01073869769734        
490          -32.7784948703814        26.178101020439          -0.062838272448936       -46.3241897959774        -0.062838272448936       -46.3241897959774        -29.0862575792684        1.81061238099102        
500          -32.6173771367842        25.0397227807863         -0.0640213839607295      -47.2693347844786        -0.0640213839607295      -47.2693347844786        -29.038871374717         1.60000226390748        
510          -32.4602920374911        23.902262912195          -0.0652035792864952      -48.2144663867542        -0.0652035792864952      -48.2144663867542        -28.9918058159842        1.3789850010606         
520          -32.3071482525105        22.7656354154292         -0.0663848338024809      -49.1595843390092        -0.0663848338024809      -49.1595843390092        -28.9450883564198        1.14774829860398        
530          -32.1578133453089        21.6300863675241         -0.0675651028341793      -50.1046881636769        -0.0675651028341793      -50.1046881636769        -28.8987693149295        0.906436540606798       
540          -32.0121844771952        20.495506393941          -0.068744356963555       -51.0497762425906        -0.068744356963555       -51.0497762425906        -28.8528777576847        0.65501269899644        
550          -31.8701740325699        19.3621281135415         -0.0699225493523466      -51.9948522346591        -0.0699225493523466      -51.9948522346591        -28.8074613086433        0.393695550359728       
560          -31.731683264779         18.2299102002708         -0.0710996492478676      -52.9399122862902        -0.0710996492478676      -52.9399122862902        -28.7625456748805        0.122614891174346       
570          -31.5966232428044        17.0988672705004         -0.0722756133246078      -53.8849569065626        -0.0722756133246078      -53.8849569065626        -28.7181699322617        -0.158162439746377      
580          -31.4649219400602        15.9690839465191         -0.0734504081310775      -54.8299887172851        -0.0734504081310775      -54.8299887172851        -28.6743589733024        -0.448496037198878      
590          -31.336496941592         14.8405543051453         -0.074623979865152       -55.7750072781694        -0.0746239798651578      -55.7750072781694        -28.6311605876775        -0.748223922331393      
600          -31.2112663835687        13.7132443784127         -0.0757962954865808      -56.7200093515868        -0.0757962954865808      -56.7200093515868        -28.5885954312384        -1.0572659647603        
610          -31.0891699107632        12.5872473685655         -0.0769673113041908      -57.6649976036362        -0.0769673113041908      -57.6649976036362        -28.5466957260834        -1.37541707055449       
620          -30.9701595986057        11.4625567174468         -0.0781369806671275      -58.6099706667822        -0.0781369806671275      -58.6099706667822        -28.5054953935345        -1.70258529930964       
630          -30.8541422391482        10.3391368284385         -0.0793052606930674      -59.5549263067683        -0.0793052606930674      -59.5549263067683        -28.4650227594389        -2.03858723212521       
640          -30.741090522707         9.21700520345945         -0.080472111097794       -60.4998712658732        -0.080472111097794       -60.4998712658732        -28.42530113562          -2.38337614492203       
650          -30.6309245365213        8.09610420353217         -0.0816374800143947      -61.4447994661322        -0.0816374800143947      -61.4447994661322        -28.3863672271484        -2.73673985341804       
660          -30.5236075133378        6.97647892817927         -0.082801339676591       -62.3897100154413        -0.082801339676591       -62.3897100154413        -28.3482278228844        -3.09856817861365       
670          -30.4190737933243        5.85805899639277         -0.0839636216427101      -63.3346097935567        -0.0839636216427101      -63.3346097935567        -28.3109378221573        -3.4685966516334        
680          -30.3173038582074        4.74090145470258         -0.0851243048256933      -64.2794928235586        -0.0851243048256933      -64.2794928235586        -28.2744930041654        -3.84690036961397       
690          -30.2182361127104        3.62493193681257         -0.0862833325890089      -65.2243608238654        -0.0862833325890089      -65.2243608238654        -28.2389337937519        -4.23314137736484       
700          -30.1218228819061        2.51007490234438         -0.0874406561033584      -66.169215803492         -0.0874406561033584      -66.169215803492         -28.2042884176182        -4.62725020342332       
710          -30.0280314767144        1.39636577585191         -0.0885962522964034      -67.1140544679765        -0.0885962522964034      -67.1140544679765        -28.1705554065368        -5.02910985526226       
720          -29.9368361615593        0.283782751395869        -0.0897500568662837      -68.0588782478644        -0.0897500568662837      -68.0588782478644        -28.1377820297443        -5.43849356571304       
730          -29.8481788883747        -0.827773979805243       -0.0909020391091795      -69.0036902326174        -0.0909020391091795      -69.0036902326174        -28.1059745622109        -5.85534086492251       
740          -29.7620458467936        -1.93831001108018        -0.0920521535577225      -69.9484847215799        -0.0920521535577225      -69.9484847215799        -28.075157827868         -6.27947494825662       
750          -29.6783975590158        -3.04788047043947        -0.0932003586452746      -70.8932692347558        -0.0932003586452775      -70.8932692347558        -28.0453518068108        -6.71075549605104       
760          -29.5971946965282        -4.15654792679728        -0.0943466145963596      -71.8380350519629        -0.0943466145963596      -71.8380350519629        -28.0165750247772        -7.14902444268744       
770          -29.5184238060999        -5.26435417405805        -0.0954908799838019      -72.7827920703937        -0.0954908799838097      -72.7827920703937        -27.9888477444171        -7.59415257137801       
780          -29.4420459268691        -6.37131154424462        -0.0966331275849661      -73.7275340318864        -0.0966331275849661      -73.7275340318864        -27.9621755173698        -8.04596861699226       
790          -29.3680400533506        -7.47751319766886        -0.0977733065386303      -74.6722599280491        -0.0977733065386303      -74.6722599280491        -27.936590152041         -8.50435462761751       
800          -29.2963790858773        -8.58305009028971        -0.0989113871462628      -75.6169757271398        -0.0989113871462628      -75.6169757271398        -27.9121007193571        -8.96916934314147       
810          -29.2270375398751        -9.68791580367591        -0.100047328205098       -76.5616800301928        -0.100047328205098       -76.5616800301928        -27.8887308822827        -9.44024009267528       
820          -29.160004088833         -10.79220744934          -0.101181107897442       -77.5063697159384        -0.101181107897442       -77.5063697159384        -27.8664822385852        -9.91744701262073       
830          -29.0952367514996        -11.8959907590899        -0.102312683890437       -78.4510489575178        -0.102312683890437       -78.4510489575178        -27.8453828109738        -10.4005828966857       
840          -29.0327219057554        -12.999298715771         -0.103442022671822       -79.395714683081         -0.103442022671822       -79.395714683081         -27.8254470059359        -10.8896193116274       
850          -28.972445593286         -14.1022381502267        -0.104569100619399       -80.3403687778651        -0.104569100619399       -80.3403687778651        -27.8066839265913        -11.3843609001601       
860          -28.9143900648573        -15.204856640255         -0.105693892455196       -81.2850124944569        -0.105693892455205       -81.2850124944569        -27.7891051289665        -11.8846462569018       
870          -28.8585250213785        -16.307216781116         -0.10681636227666        -82.2296452584462        -0.10681636227666        -82.2296452584462        -27.7727352080599        -12.3903272095811       
880          -28.8048519726046        -17.4094145919732        -0.107936496118384       -83.1742682424441        -0.107936496118393       -83.1742682424441        -27.7575729459618        -12.9013385715739       
890          -28.7533325061645        -18.5114856363107        -0.10905426990986        -84.1188800393743        -0.10905426990986        -84.1188800393743        -27.7436372541407        -13.4174055420571       
900          -28.7039716206531        -19.6135577564115        -0.110169651921858       -85.0634806135568        -0.110169651921858       -85.0634806135568        -27.730945905324         -13.9385789056686       
910          -28.6567332546332        -20.7156554872298        -0.11128263783685        -86.0080729427121        -0.11128263783685        -86.0080729427121        -27.7194999763005        -14.464570113332        
920          -28.611620240474         -21.817871056119         -0.112393201087341       -86.9526557615931        -0.112393201087341       -86.9526557615931        -27.7093198899463        -14.9952971279061       
930          -28.56861453551          -22.9202996913298        -0.113501329553208       -87.8972293968396        -0.113501329553208       -87.8972293968396        -27.7004126589956        -15.5306514357218       
