!Keysight Technologies,N5245B,MY57181346,A.13.60.06
!Automatic Fixture Removal (AFR)
!Date: Thursday, August 08, 2019, 03:53:24
!S2P File: Measurements: S11,S21,S12,S22:
# MHz S  DB   R 50
10           -53.1363336168317        163.941208466439         -0.00668310489105215     -0.977592494741358       -0.00668310489105215     -0.977592494741358       -29.4317463950041        0.203091483438548       
20           -52.4058263033558        149.477543782532         -0.00838195523059631     -1.9551823599665         -0.00838195523059631     -1.9551823599665         -29.4290754067625        0.405704116383296       
30           -51.3900193643274        137.437127618869         -0.0100146250893882      -2.93277379954621        -0.0100146250893882      -2.93277379954621        -29.4246256447878        0.607364095898979       
40           -50.2693603794488        127.749426592403         -0.0116063587340946      -3.91036347977746        -0.0116063587340946      -3.91036347977746        -29.4184114063184        0.807489426917736       
50           -49.1514517541355        119.964324023976         -0.0131687765047024      -4.88795118915655        -0.0131687765047024      -4.88795118915655        -29.4104446411177        1.00569353628314        
60           -48.086220902109         113.612615622033         -0.0147085520551386      -5.86553564274692        -0.0147085520551386      -5.86553564274692        -29.4007650092056        1.20146721070429        
70           -47.0915966952661        108.317765064745         -0.0162300624431612      -6.84311753660806        -0.0162300624431612      -6.84311753660806        -29.3893614015692        1.39424616510075        
80           -46.1702764532777        103.802776414636         -0.0177363249239321      -7.82069695523025        -0.0177363249239321      -7.82069695523025        -29.3762860632687        1.583658510488          
90           -45.318462251735         99.8715770884083         -0.019229603404744       -8.79827424746527        -0.0192296034047353      -8.79827424746526        -29.3615472589546        1.76915636005417        
100          -44.5301305252741        96.3828992055332         -0.0207116075608212      -9.77584692471797        -0.0207116075608308      -9.77584692471798        -29.3451876849755        1.95036941903163        
110          -43.7987018552083        93.2365257383905         -0.0221837055833697      -10.7534142555111        -0.0221837055833697      -10.7534142555111        -29.3272312708411        2.12676460532887        
120          -43.1179783607256        90.3588796052279         -0.0236469890006111      -11.7309751420757        -0.0236469890006111      -11.7309751420757        -29.3077200934482        2.29800802348274        
130          -42.4823779955302        87.6953698888053         -0.0251023691276479      -12.7085347427357        -0.0251023691276479      -12.7085347427357        -29.2866845288641        2.46362703247232        
140          -41.8869463826717        85.2051470579979         -0.0265505954476404      -13.6860871695138        -0.0265505954476404      -13.6860871695138        -29.2641703499785        2.62331168876441        
150          -41.3274340843265        82.8567216971214         -0.0279923027447686      -14.6636323971046        -0.0279923027447686      -14.6636323971046        -29.2402245128307        2.7766588566575         
160          -40.8000720902624        80.625749232224          -0.0294280494328479      -15.6411735656262        -0.0294280494328479      -15.6411735656262        -29.2148789172174        2.92328570579966        
170          -40.3016805868415        78.4930508117381         -0.030858286975931       -16.6187070482807        -0.030858286975931       -16.6187070482807        -29.1882003071879        3.06288243625273        
180          -39.8294684704535        76.4436957662968         -0.0322834407885022      -17.5962306986019        -0.0322834407885022      -17.5962306986019        -29.1602198884429        3.19513116853524        
190          -39.3809549540477        74.4653643024434         -0.0337038463907204      -18.5737460204131        -0.0337038463907223      -18.5737460204131        -29.1310106412856        3.31971472872186        
200          -38.9540398736386        72.548233261615          -0.0351198213839154      -19.5512572908715        -0.0351198213839154      -19.5512572908715        -29.1006199470284        3.43637694231126        
210          -38.5468642756854        70.6843372029931         -0.0365316589400257      -20.5287543371387        -0.0365316589400257      -20.5287543371387        -29.0690844199611        3.54478685579211        
220          -38.157799999968         68.8666574166318         -0.0379395922692379      -21.506244708515         -0.0379395922692379      -21.506244708515         -29.036469751516         3.64476322564819        
230          -37.7854083377992        67.090061793619          -0.0393438323323826      -22.4837263002261        -0.0393438323323826      -22.4837263002261        -29.0028373233873        3.7361020054983         
240          -37.4284023157988        65.3495176301172         -0.0407445896328491      -23.4611960094735        -0.0407445896328491      -23.4611960094735        -28.9682259161597        3.81854052424335        
250          -37.0856353186697        63.6412694011414         -0.0421420122656038      -24.43865708619          -0.0421420122656038      -24.43865708619          -28.9327161935965        3.8919227547357         
260          -36.7561345152721        61.9619831128635         -0.0435362705226878      -25.416106781815         -0.0435362705226839      -25.416106781815         -28.8963475218995        3.9561102271283         
270          -36.4389662983408        60.3085940006059         -0.0449274831964141      -26.3935436614442        -0.0449274831964141      -26.3935436614442        -28.859195004627         4.01097144326422        
280          -36.1333098314309        58.6785709064937         -0.0463157867042488      -27.3709695095103        -0.0463157867042488      -27.3709695095103        -28.8213020172325        4.05629792972826        
290          -35.8384470059893        57.0698526670034         -0.0477012821193976      -28.3483870919731        -0.0477012821193976      -28.3483870919731        -28.7827321517839        4.09208028340721        
300          -35.5537114381764        55.480557291823          -0.0490840605529887      -29.325788248216         -0.0490840605529809      -29.325788248216         -28.7435486235419        4.11814032377528        
310          -35.278474454201         53.9088826282127         -0.0504642117363616      -30.303177663611         -0.0504642117363616      -30.303177663611         -28.7038039673735        4.13439711662726        
320          -35.0122196052134        52.3536275831421         -0.0518418100313276      -31.2805552067609        -0.0518418100313276      -31.2805552067609        -28.6635557997895        4.1407795617356         
330          -34.7544270827446        50.8133853138083         -0.0532169219308037      -32.2579167928308        -0.0532169219308037      -32.2579167928308        -28.6228591309961        4.13731351874502        
340          -34.5046421961537        49.2869754898949         -0.0545896105794429      -33.235264980072         -0.0545896105794429      -33.235264980072         -28.5817658273728        4.12383070961608        
350          -34.2624521477759        47.7734896389362         -0.0559599107573339      -34.212600809531         -0.0559599107573339      -34.212600809531         -28.5403440478054        4.10047095388435        
360          -34.0274850173285        46.272158841261          -0.0573278821872685      -35.1899216277952        -0.0573278821872685      -35.1899216277952        -28.498633121192         4.06710540900582        
370          -33.7993835639499        44.7821741306511         -0.0586935634966835      -36.1672281757847        -0.0586935634966835      -36.1672281757847        -28.4566836645913        4.02382165509904        
380          -33.5778168028323        43.3026250046369         -0.0600569775262265      -37.1445181127423        -0.0600569775262265      -37.1445181127423        -28.4145555631164        3.97064979530037        
390          -33.3625014560254        41.832987798047          -0.0614181537716782      -38.1217929614258        -0.0614181537716714      -38.1217929614257        -28.3722968661452        3.90754812145449        
400          -33.1531540178724        40.3727196147599         -0.0627771146014055      -39.0990523043518        -0.0627771146014055      -39.0990523043518        -28.329955295597         3.83460700240774        
410          -32.9495384501111        38.9212499558586         -0.0641338697379688      -40.0762976256194        -0.0641338697379746      -40.0762976256193        -28.2875859501489        3.75183399353538        
420          -32.7513994061819        37.4780582878538         -0.0654884440795842      -41.0535243148892        -0.0654884440795784      -41.0535243148892        -28.2452233115689        3.65935125121019        
430          -32.5585188053436        36.0426948677886         -0.0668408284136659      -42.030735503307         -0.0668408284136717      -42.030735503307         -28.2029305763602        3.55712728386474        
440          -32.3707048092879        34.6148822408357         -0.0681910397469535      -43.007930804166         -0.0681910397469535      -43.007930804166         -28.1607396168302        3.44534758526843        
450          -32.1877655851278        33.1941120703793         -0.0695390698794544      -43.985109619236         -0.0695390698794544      -43.985109619236         -28.1187028529252        3.324055598375          
460          -32.0095212325226        31.7801409137635         -0.07088492118288        -44.9622697111487        -0.0708849211828741      -44.9622697111487        -28.0768584203729        3.19332402917529        
470          -31.8358142978239        30.3725833382228         -0.0722285853997609      -45.9394135522908        -0.0722285853997609      -45.9394135522908        -28.0352492860899        3.05335555188681        
480          -31.6664944707369        28.971263900396          -0.0735700521631186      -46.9165429358601        -0.0735700521631186      -46.9165429358601        -27.9939183461197        2.90414721577129        
490          -31.5014111390092        27.5757517881164         -0.0749093159772172      -47.8936527461811        -0.0749093159772172      -47.8936527461811        -27.952899171824         2.74586412135166        
500          -31.3404375654047        26.1859082935596         -0.076246354596451       -48.870745289915         -0.076246354596451       -48.870745289915         -27.9122374836223        2.57864664834253        
510          -31.1834463779078        24.8014241290393         -0.0775811580366245      -49.8478198958079        -0.0775811580366314      -49.8478198958078        -27.8719651100985        2.40258504929224        
520          -31.0303213823235        23.4220175531962         -0.078913710105319       -50.8248796857958        -0.0789137101053131      -50.8248796857957        -27.8321163279931        2.21780326990226        
530          -30.8809607829895        22.0475863600713         -0.0802440017589554      -51.8019199168677        -0.0802440017589516      -51.8019199168676        -27.7927162956957        2.02443020902404        
540          -30.7352402864816        20.6777266167253         -0.0815720096638505      -52.7789404010006        -0.0815720096638505      -52.7789404010006        -27.7538003318507        1.82260392647883        
550          -30.5930723060625        19.3123516111954         -0.0828977170570894      -53.7559427142484        -0.0828977170570894      -53.7559427142484        -27.7153955449345        1.61245364381432        
560          -30.4543577951978        17.9512728544927         -0.0842211004814266      -54.7329296341206        -0.0842211004814266      -54.7329296341206        -27.677532365359         1.39419967387513        
570          -30.3190086136606        16.594293177006          -0.0855421401832358      -55.7098978316631        -0.0855421401832358      -55.7098978316631        -27.6402365455496        1.16790609025444        
580          -30.1869466518973        15.2412852769053         -0.086860808324993       -56.6868457832574        -0.0868608083249998      -56.6868457832573        -27.6035382918224        0.933831585857807       
590          -30.0580928873038        13.8920849214759         -0.0881770587205994      -57.6637781335598        -0.0881770587205994      -57.6637781335598        -27.5674822441838        0.69216090448173        
600          -29.9323728799493        12.5465658704855         -0.0894908683703345      -58.6406918935885        -0.0894908683703258      -58.6406918935885        -27.5320913848165        0.442935533838794       
610          -29.8097166905845        11.2045055035594         -0.0908021985598939      -59.6175882640004        -0.0908021985598939      -59.6175882640004        -27.4974003171384        0.186414774766822       
620          -29.6900687752258        9.86580324291481         -0.0921110137098362      -60.5944646307           -0.0921110137098333      -60.5944646307001        -27.4634396803588        -0.0773617266430461     
630          -29.5733593098463        8.53030859139909         -0.0934172710709019      -61.571325921268         -0.0934172710709019      -61.571325921268         -27.4302446553738        -0.348244358781557      
640          -29.4595568489899        7.19789351548861         -0.0947209521515095      -62.5481679677           -0.0947209521515095      -62.5481679677           -27.3978285929496        -0.626049738591178      
650          -29.3485753185814        5.86835606241284         -0.096022028832793       -63.5249930923974        -0.096022028832793       -63.5249930923974        -27.3662119411492        -0.910703928908158      
660          -29.2403742811174        4.54155157477764         -0.0973204684811416      -64.5017995222175        -0.0973204684811416      -64.5017995222175        -27.3354181306365        -1.20204219146397       
670          -29.1348918430409        3.21736614302204         -0.0986162497112325      -65.4785904329635        -0.0986162497112325      -65.4785904329635        -27.3054601241948        -1.49996432401267       
680          -29.0320848947952        1.8956438452517          -0.0999093387826187      -66.4553639516882        -0.0999093387826187      -66.4553639516882        -27.2763609912823        -1.8042643940438        
690          -28.9319129636308        0.57625679502192         -0.101199733319415       -67.4321199502677        -0.101199733319415       -67.4321199502677        -27.2481166796953        -2.11483216412413       
700          -28.834315068386         -0.740930898445639       -0.102487402182375       -68.4088592758488        -0.102487402182375       -68.4088592758488        -27.2207476745526        -2.43141304139261       
710          -28.7392628265217        -2.05605163984667        -0.10377231151357        -69.3855792461552        -0.10377231151357        -69.3855792461552        -27.1942761652149        -2.75382452980096       
720          -28.646707464679         -3.36919087828098        -0.105054455450698       -70.3622851755663        -0.105054455450698       -70.3622851755663        -27.1687011573946        -3.08186523988274       
730          -28.5566079812004        -4.68051352997928        -0.106333793254427       -71.3389758405576        -0.106333793254427       -71.3389758405576        -27.1440505406684        -3.41534710982678       
740          -28.4689419968319        -5.99009713714922        -0.107610298169112       -72.3156473720466        -0.107610298169112       -72.3156473720466        -27.120340514449         -3.75409810520083       
750          -28.3836616398914        -7.29807358275674        -0.10888391467428        -73.29230414779          -0.10888391467428        -73.29230414779          -27.0976115690465        -4.09789756953115       
760          -28.3007423925819        -8.60456405676833        -0.110154636038669       -74.2689443494431        -0.110154636038669       -74.2689443494431        -27.0758625957658        -4.44667916064228       
770          -28.2201528589637        -9.90973292353853        -0.111422428012327       -75.2455689675089        -0.111422428012327       -75.2455689675089        -27.0551168205069        -4.80023899152569       
780          -28.1418555608691        -11.213662705173         -0.11268727075253        -76.2221784786203        -0.11268727075253        -76.2221784786203        -27.0353835432368        -5.15856611430777       
790          -28.0658351893967        -12.5165247323968        -0.113949136522162       -77.1987728021553        -0.113949136522162       -77.1987728021553        -27.0166815930015        -5.52143274085316       
800          -27.9920462933436        -13.8184085519146        -0.115208010344906       -78.1753531787631        -0.115208010344906       -78.1753531787631        -26.9990172113761        -5.88880126695272       
810          -27.9204647533583        -15.1194687687341        -0.116463886370022       -79.1519220448166        -0.116463886370022       -79.1519220448166        -26.9823925927938        -6.26044146853185       
820          -27.851057135074         -16.4198170165478        -0.11771675914075        -80.1284709292574        -0.11771675914075        -80.1284709292574        -26.9668086970852        -6.63623297694718       
830          -27.7838054777357        -17.7195236831628        -0.118966604047419       -81.1050081391189        -0.118966604047419       -81.1050081391189        -26.9522838271274        -7.01599347996641       
840          -27.7186731571611        -19.0187293853048        -0.120213422785968       -82.0815329455485        -0.120213422785959       -82.0815329455485        -26.9388156977316        -7.39954809575927       
850          -27.6556510369944        -20.3175652754206        -0.121457187244357       -83.0580433108777        -0.121457187244357       -83.0580433108777        -26.9264270175356        -7.78672981723469       
860          -27.5947029385948        -21.6161370481162        -0.122697901667522       -84.0345383796559        -0.122697901667522       -84.0345383796559        -26.9151175160447        -8.17726711274592       
870          -27.5358229617275        -22.9145590947431        -0.123935537652089       -85.0110241321393        -0.123935537652089       -85.0110241321393        -26.9049118595559        -8.57102092301068       
880          -27.4789686187584        -24.2129271013008        -0.125170089243699       -85.9874985337306        -0.125170089243699       -85.9874985337306        -26.8958170583691        -8.96787117570545       
890          -27.4241370831875        -25.5114028413925        -0.126401537843491       -86.9639603186072        -0.126401537843491       -86.9639603186072        -26.8878520258646        -9.36767064606948       
900          -27.3713003432078        -26.8100821738941        -0.127629894162311       -87.9404079800645        -0.127629894162311       -87.9404079800645        -26.8810117147313        -9.77032382806895       
910          -27.3204399251482        -28.1090923351286        -0.128855145497131       -88.9168462984197        -0.128855145497131       -88.9168462984197        -26.8753139389401        -10.1756279154647       
920          -27.2715336663992        -29.4085987209356        -0.130077280897419       -89.8932734944884        -0.130077280897419       -89.8932734944884        -26.8707716146246        -10.5835555316405       
930          -27.2245615336442        -30.7086885873193        -0.131296322334261       -90.8696908252557        -0.131296322334261       -90.8696908252557        -26.8673759553916        -10.9939340805249       
