!Keysight Technologies,N5245B,MY57181346,A.13.60.06
!Automatic Fixture Removal (AFR)
!Date: Thursday, August 08, 2019, 03:54:22
!S2P File: Measurements: S11,S21,S12,S22:
# MHz S  DB   R 50
10           -49.3414483498493        168.208749377937         -0.00735729685371285     -0.974683914549813       -0.00735729685371285     -0.974683914549813       -28.5366162754555        0.212781059701246       
20           -48.9555856672554        157.017927715255         -0.00891713199187441     -1.94936589354627        -0.00891713199187441     -1.94936589354627        -28.5336159651434        0.425034123461594       
30           -48.366625928505         146.885726565472         -0.0104325065599205      -2.92404882462285        -0.0104325065599205      -2.92404882462285        -28.5286259228069        0.636276562224289       
40           -47.6502462079136        137.991687359661         -0.0119204536268706      -3.89872908943634        -0.0119204536268706      -3.89872908943634        -28.5216539838915        0.845982607327461       
50           -46.871041468026         130.300505115144         -0.0133888647037132      -4.87340684435398        -0.0133888647037132      -4.87340684435398        -28.5127217762108        1.05362982301522        
60           -46.0743107470404        123.669002077151         -0.0148423094804495      -5.84808289903229        -0.0148423094804495      -5.84808289903229        -28.5018525448737        1.25870206005602        
70           -45.2880105962468        117.922948228447         -0.0162837828950702      -6.82275483648679        -0.0162837828950702      -6.82275483648679        -28.4890557216841        1.46064843797427        
80           -44.5276641365784        112.898105297337         -0.0177153754781923      -7.79742635513216        -0.0177153754781923      -7.79742635513216        -28.4743599053585        1.65899075570314        
90           -43.8007575446366        108.455417136271         -0.0191386216517348      -8.77209186529386        -0.0191386216517348      -8.77209186529386        -28.4578069388309        1.85323575739296        
100          -43.1100984278275        104.482528364528         -0.0205547297796294      -9.74675395657958        -0.0205547297796294      -9.74675395657958        -28.4394095039293        2.04293216974189        
110          -42.4558087080224        100.889176878681         -0.02196462702724        -10.7214095147871        -0.02196462702724        -10.7214095147871        -28.4192142750455        2.22753546916576        
120          -41.8366508438898        97.6049593282832         -0.0233691031093925      -11.6960605787271        -0.0233691031093925      -11.6960605787271        -28.3972292403497        2.40664144899087        
130          -41.2506082302195        94.5749194838612         -0.0247687417666694      -12.6707080065183        -0.0247687417666694      -12.6707080065183        -28.3735332810444        2.57983368341709        
140          -40.695471279767         91.7550895805282         -0.0261640984704944      -13.6453481295529        -0.0261640984704944      -13.6453481295529        -28.3481367639649        2.74666040011095        
150          -40.1688742368849        89.1112725908073         -0.0275555966805766      -14.6199789553145        -0.0275555966805766      -14.6199789553145        -28.321100828304         2.90671503189808        
160          -39.668681765821         86.615438306972          -0.0289436235646427      -15.5946030527444        -0.0289436235646427      -15.5946030527444        -28.2924616877245        3.05962583729558        
170          -39.192762922414         84.2451551727586         -0.030328495117996       -16.5692234269882        -0.030328495117996       -16.5692234269882        -28.2622751364048        3.20502861763508        
180          -38.7392200629495        81.9823962962862         -0.0317104999538234      -17.5438301283048        -0.0317104999538321      -17.5438301283048        -28.2305839946704        3.34254038663574        
190          -38.3062915192918        79.8125040750637         -0.0330898635886416      -18.5184315644763        -0.0330898635886416      -18.5184315644763        -28.1974574168474        3.47183934670208        
200          -37.8923956987607        77.7229689291284         -0.0344668307422862      -19.4930217679514        -0.0344668307422862      -19.4930217679514        -28.1629196716           3.59259350432889        
210          -37.4960950899711        75.7039382362153         -0.0358415543452347      -20.4676038278752        -0.0358415543452347      -20.4676038278752        -28.1270564046958        3.70458245511853        
220          -37.1160823064692        73.7467392666721         -0.0372142217590714      -21.4421727194723        -0.0372142217590791      -21.4421727194724        -28.0899029708714        3.80742816044977        
230          -36.7511895769614        71.8443097528428         -0.0385849678876359      -22.416733291961         -0.0385849678876359      -22.416733291961         -28.0515240504469        3.90096581578791        
240          -36.4003867882304        69.9906055383717         -0.0399539326168569      -23.3912822238659        -0.0399539326168569      -23.3912822238659        -28.0119658958588        3.98491224801029        
250          -36.0626961009547        68.1804685790233         -0.0413212095770298      -24.3658202155068        -0.0413212095770395      -24.3658202155069        -27.9713023407584        4.05912441935166        
260          -35.7372807211915        66.4094727834571         -0.0426869029981115      -25.3403424745303        -0.0426869029981115      -25.3403424745303        -27.9295869320345        4.12333132308585        
270          -35.423324182772         64.6736846416759         -0.044051093982451       -26.3148567755902        -0.0440510939824588      -26.3148567755902        -27.8868814639377        4.17745473051063        
280          -35.1201638573439        62.9699973072552         -0.0454138615645952      -27.2893518063586        -0.0454138615645952      -27.2893518063586        -27.8432417609851        4.221246364224          
290          -34.8271162825223        61.2954809020503         -0.0467752615122768      -28.2638393304862        -0.0467752615122768      -28.2638393304862        -27.7987339732568        4.25461257136437        
300          -34.5436035311301        59.6474176672683         -0.0481353525160176      -29.2383108555181        -0.0481353525160176      -29.2383108555181        -27.7534146366658        4.27735189069379        
310          -34.2690761522955        58.0238579806993         -0.0494941731051063      -30.2127664754795        -0.0494941731051063      -30.2127664754795        -27.7073489536925        4.28941147328154        
320          -34.0030593727244        56.4227810652205         -0.0508517654261649      -31.1872078044481        -0.0508517654261649      -31.1872078044481        -27.6605926923232        4.29066111294809        
330          -33.7450900463999        54.8425553900957         -0.0522081591183646      -32.1616307414532        -0.0522081591183646      -32.1616307414532        -27.6132054684808        4.28102028011714        
340          -33.494748347375         53.2814486639756         -0.053563390823973       -33.1360401777896        -0.053563390823973       -33.1360401777896        -27.5652339037099        4.26047100920029        
350          -33.2516492239462        51.7384684131552         -0.0549174648628775      -34.1104354632416        -0.0549174648628775      -34.1104354632416        -27.5167475714363        4.22893314168041        
360          -33.0154503185104        50.2121018169348         -0.0562704021349324      -35.0848096215212        -0.0562704021349324      -35.0848096215212        -27.4677955964351        4.18636198813946        
370          -32.7858310301099        48.701562936044          -0.0576222118900449      -36.0591681124588        -0.0576222118900449      -36.0591681124588        -27.4184309055565        4.13280208612891        
380          -32.5624901186433        47.2057600769594         -0.0589728963297989      -37.0335109698951        -0.0589728963297989      -37.0335109698951        -27.3687083861571        4.068207609427          
390          -32.3451568539275        45.7238805692246         -0.0603224499323985      -38.0078325978982        -0.0603224499324033      -38.0078325978981        -27.3186837231757        3.99261104606003        
400          -32.1335654696683        44.2549735738197         -0.0616708634782232      -38.9821369150916        -0.061670863478228       -38.9821369150915        -27.2684121477164        3.90593459107016        
410          -31.9274805981271        42.7984839317102         -0.0630181252510734      -39.9564226350019        -0.0630181252510802      -39.9564226350019        -27.2179441161859        3.80832178982563        
420          -31.7266975849108        41.3537263943055         -0.0643642260711842      -40.9306908151049        -0.06436422607119        -40.930690815105         -27.167325772743         3.69971397716953        
430          -31.5309918586213        39.9200578394615         -0.0657091503410657      -41.9049373314718        -0.0657091503410657      -41.9049373314718        -27.1166032053115        3.58017753062506        
440          -31.3401821766142        38.4969855069493         -0.0670528725477376      -42.8791642744856        -0.0670528725477376      -42.8791642744856        -27.0658272362522        3.44971926249582        
450          -31.1540844500555        37.0840253202955         -0.0683953580488613      -43.8533721682186        -0.0683953580488613      -43.8533721682186        -27.0150506294238        3.30851497174135        
460          -30.9725455287514        35.6806640608976         -0.0697365838207656      -44.8275602477145        -0.0697365838207656      -44.8275602477145        -26.9643145003055        3.15656628488097        
470          -30.7954009782278        34.2865917415644         -0.0710765198273828      -45.8017251236877        -0.0710765198273828      -45.8017251236877        -26.913661228334         2.99397404037974        
480          -30.6225142958066        32.9014059362222         -0.0724151235432163      -46.7758737645406        -0.0724151235432163      -46.7758737645406        -26.8631396035787        2.82086349358274        
490          -30.4537411744393        31.5246712096936         -0.0737523632801508      -47.7499978071447        -0.0737523632801508      -47.7499978071447        -26.8127868500404        2.63729968013213        
500          -30.2889751848254        30.1561174114227         -0.0750881906590289      -48.7241012732002        -0.0750881906590289      -48.7241012732002        -26.7626499896471        2.44338451343071        
510          -30.1280685932728        28.7953586207232         -0.0764225602103078      -49.6981827800459        -0.0764225602103146      -49.6981827800459        -26.7127704135619        2.23924398165072        
520          -29.970943479359         27.4421618782644         -0.0777554339578784      -50.672244771676         -0.0777554339578842      -50.6722447716761        -26.6631813414841        2.02489143728919        
530          -29.8174772399118        26.0962366405505         -0.0790867780357695      -51.6462823166849        -0.0790867780357744      -51.6462823166849        -26.6139092006042        1.80048742445484        
540          -29.6675668742174        24.757252930443          -0.0804165306458568      -52.6202973790333        -0.0804165306458568      -52.6202973790333        -26.5650000753297        1.56607750699047        
550          -29.5211146869024        23.424960033514          -0.0817446477180596      -53.594290402925         -0.0817446477180596      -53.594290402925         -26.5164830309826        1.32183787557554        
560          -29.3780432384205        22.0991668088078         -0.0830710938404801      -54.5682621697738        -0.0830710938404801      -54.5682621697738        -26.4683786384724        1.06784335126633        
570          -29.238254469175         20.7796710399748         -0.0843958200559622      -55.5422100991638        -0.0843958200559622      -55.5422100991638        -26.4207153520606        0.804267481823039       
580          -29.1016862498452        19.4662421796347         -0.0857187477013883      -56.5161350975555        -0.0857187477013883      -56.5161350975555        -26.373542036242         0.53126964052085        
590          -28.9682510513444        18.1587226562894         -0.0870398387374416      -57.4900378058436        -0.0870398387374416      -57.4900378058436        -26.3268747191978        0.249037469266881       
600          -28.8378859707543        16.8569300202288         -0.0883590170144496      -58.4639172357373        -0.0883590170144496      -58.4639172357373        -26.2807563483172        -0.0423663497736047     
610          -28.7105318543467        15.560700187432          -0.089676217368074       -59.437771487236         -0.089676217368074       -59.437771487236         -26.2352195374761        -0.342715256148294      
620          -28.5861212213477        14.2698277048658         -0.0909913621267255      -60.4116064944204        -0.0909913621267255      -60.4116064944204        -26.1903044543719        -0.65188278250233       
630          -28.4646051843804        12.9841998333254         -0.0923043810619755      -61.3854159524529        -0.0923043810619833      -61.3854159524529        -26.1460437720874        -0.969806668905577      
640          -28.3459225118522        11.7035919830949         -0.0936152159532486      -62.359206265027         -0.0936152159532486      -62.359206265027         -26.1024598833177        -1.29632889963666       
650          -28.2300276974983        10.4278458969258         -0.0949238005437774      -63.3329706167297        -0.0949238005437891      -63.3329706167297        -26.0595792381522        -1.63142404982106       
660          -28.1168627745604        9.15681885224127         -0.0962300791720523      -64.3067096442656        -0.0962300791720523      -64.3067096442656        -26.0174199921217        -1.97486606483983       
670          -28.0063786495856        7.89033048753094         -0.0975339840445274      -65.2804301025549        -0.0975339840445274      -65.2804301025549        -25.9760075941108        -2.32655149154951       
680          -27.8985350311503        6.62829367434806         -0.0988354642252665      -66.2541271902534        -0.0988354642252665      -66.2541271902534        -25.9353539199142        -2.68641957426399       
690          -27.7932826247404        5.37051980653986         -0.100134461625377       -67.2278025315615        -0.100134461625385       -67.2278025315615        -25.8954759050435        -3.05428890994913       
700          -27.6905778705995        4.11687612574818         -0.101430913482399       -68.2014535475614        -0.101430913482407       -68.2014535475614        -25.8563929086195        -3.43001734869673       
710          -27.5903731950929        2.86727053800672         -0.102724760075375       -69.1750803449695        -0.102724760075375       -69.1750803449695        -25.8181220675438        -3.81340626862095       
720          -27.4926399008348        1.62153564234724         -0.104015957718104       -70.1486858920692        -0.104015957718104       -70.1486858920692        -25.7806679385639        -4.20434721132791       
730          -27.3973395876727        0.379634216452434        -0.105304435070136       -71.1222720641246        -0.105304435070136       -71.1222720641246        -25.744056229201         -4.60256242829873       
740          -27.3044518690178        -0.858587446156022       -0.106590122427558       -72.0958343785313        -0.106590122427558       -72.0958343785313        -25.7083090663235        -5.00797050066809       
750          -27.2139261262533        -2.09322645092117        -0.107872941572056       -73.0693751967053        -0.107872941572056       -73.0693751967053        -25.673455903477         -5.42035735611305       
760          -27.1257433471849        -3.32445132476691        -0.109152837703495       -74.0428926980625        -0.109152837703495       -74.0428926980625        -25.6395067221519        -5.83971926582132       
770          -27.0398714723001        -4.55235447517011        -0.110429749594418       -75.0163903425678        -0.110429749594418       -75.0163903425678        -25.6064792810056        -6.2658213932647        
780          -26.9562786661323        -5.77708533675181        -0.111703609721412       -75.9898706138465        -0.111703609721412       -75.9898706138465        -25.5743931588901        -6.69860218926538       
790          -26.8749483568979        -6.9986635214207         -0.112974350897126       -76.9633231956634        -0.112974350897126       -76.9633231956634        -25.5432685412154        -7.13794589583554       
800          -26.7958458043401        -8.21732617932266        -0.114241927574666       -77.9367626883305        -0.114241927574666       -77.9367626883305        -25.5131097820118        -7.58379110267042       
810          -26.7189388610305        -9.43310910068988        -0.115506295885197       -78.9101775336411        -0.115506295885197       -78.9101775336411        -25.4839218860892        -8.03599865817964       
820          -26.6442056294174        -10.6461494590959        -0.116767408030697       -79.8835715172102        -0.116767408030704       -79.8835715172102        -25.4557140206096        -8.49439088371727       
830          -26.5716277491857        -11.8565087261893        -0.118025209351458       -80.8569499151093        -0.118025209351458       -80.8569499151093        -25.4284988790321        -8.95887423921185       
840          -26.5011720359741        -13.0643010385578        -0.11927965313597        -81.8303067969107        -0.11927965313597        -81.8303067969107        -25.4022863598766        -9.42926955236493       
850          -26.4328288504663        -14.2696272489759        -0.120530698778404       -82.8036463490447        -0.120530698778404       -82.8036463490447        -25.3770834320022        -9.90539013462179       
860          -26.3665691461572        -15.4725479557655        -0.121778288853381       -83.7769663511152        -0.121778288853381       -83.7769663511152        -25.3529089724195        -10.387075593728        
870          -26.3023834753634        -16.6731553111164        -0.123022373814149       -84.7502688514148        -0.123022373814149       -84.7502688514148        -25.3297771598297        -10.8741798752351       
880          -26.2402467991514        -17.8715710774208        -0.124262905923817       -85.7235549710548        -0.124262905923817       -85.7235549710548        -25.307698504878         -11.3666736492638       
890          -26.1801409094197        -19.0678575615339        -0.125499829256042       -86.6968238010758        -0.125499829256042       -86.6968238010758        -25.2866966170766        -11.8643094716767       
900          -26.1220567711805        -20.2621956594444        -0.126733110701833       -87.670075367807         -0.126733110701842       -87.670075367807         -25.2667718113861        -12.3671299586683       
910          -26.0659651631988        -21.4545785719986        -0.127962712643995       -88.6433114048354        -0.127962712643995       -88.6433114048354        -25.2479349853012        -12.8749711718998       
920          -26.0118643171387        -22.6451809659008        -0.129188596833772       -89.616532035029         -0.129188596833772       -89.616532035029         -25.2301941458185        -13.387804645752        
930          -25.9597246282812        -23.8340767807112        -0.130410739637363       -90.5897366565848        -0.130410739637363       -90.5897366565848        -25.2135523136432        -13.9054938740291       
