!Keysight Technologies,N5245B,MY57181346,A.13.60.06
!Automatic Fixture Removal (AFR)
!Date: Thursday, August 08, 2019, 03:55:15
!S2P File: Measurements: S11,S21,S12,S22:
# MHz S  DB   R 50
10           -62.2134462547419        50.5167554169429         -0.00625726765395733     -0.947867959583326       -0.00625726765395733     -0.947867959583326       -29.580303048817         0.303676909732254       
20           -57.6455331464365        65.6690098236349         -0.00778932672636866     -1.89573322563653        -0.00778932672636866     -1.89573322563653        -29.5760617613587        0.606513698476567       
30           -54.4646696220863        71.0934363465297         -0.00927382000239141     -2.84359811763983        -0.0092738200024001      -2.84359811763983        -29.5689992085625        0.907498218858872       
40           -52.096080599612         73.3829159494649         -0.0107291051942401      -3.7914611978366         -0.0107291051942401      -3.7914611978366         -29.5591463531072        1.2058046308898         
50           -50.2221824526244        74.3203474403169         -0.0121636861366198      -4.73932166665759        -0.0121636861366198      -4.73932166665759        -29.546525610485         1.50050735042591        
60           -48.6759737465565        74.5599539624548         -0.0135824805197633      -5.68717902008513        -0.0135824805197633      -5.68717902008513        -29.5311675583575        1.79074872636166        
70           -47.3616296551097        74.3936436296841         -0.014988677929735       -6.63503022334969        -0.0149886779297437      -6.6350302233497         -29.5131232736108        2.07570293901759        
80           -46.219429146901         73.9708781770445         -0.0163845227980164      -7.58288036346284        -0.0163845227980164      -7.58288036346284        -29.4924388537116        2.35448515515008        
90           -45.2100736803785        73.3761046309238         -0.0177716727864808      -8.5307224091624         -0.0177716727864808      -8.5307224091624         -29.4691653786574        2.62637778724086        
100          -44.3062221454503        72.6612125921585         -0.0191513838824122      -9.47855903696573        -0.0191513838824122      -9.47855903696573        -29.4433771294589        2.89059415910757        
110          -43.4881558063741        71.8579107252613         -0.0205246588390603      -10.4263905239941        -0.0205246588390603      -10.4263905239941        -29.4151366246344        3.14639792403658        
120          -42.7412512390076        70.9890498967933         -0.0218923006251663      -11.3742165880141        -0.021892300625175       -11.3742165880142        -29.3845177414924        3.39310957620221        
130          -42.0542842491648        70.0693719613396         -0.0232549618612161      -12.3220358744708        -0.0232549618612248      -12.3220358744708        -29.3516052114992        3.63005678640047        
140          -41.4185071928335        69.110237406974          -0.0246131959398046      -13.2698457090721        -0.0246131959398114      -13.2698457090721        -29.3164741655949        3.85663881815218        
150          -40.8270054860945        68.1194804337229         -0.0259674603573389      -14.2176462533617        -0.0259674603573389      -14.2176462533617        -29.2792126222791        4.07231837694872        
160          -40.2741101042172        67.1032043760592         -0.0273181355813222      -15.1654365502929        -0.0273181355813222      -15.1654365502929        -29.2399202491345        4.27652620070018        
170          -39.7552511391184        66.0660652426789         -0.0286655601148486      -16.1132205724299        -0.0286655601148564      -16.1132205724299        -29.1986820971627        4.46879872184375        
180          -39.2665888385781        65.0120404383349         -0.0300100164077674      -17.0609936016931        -0.0300100164077674      -17.0609936016931        -29.1555958226332        4.64866688509956        
190          -38.804899270328         63.9436196871136         -0.0313517447400766      -18.0087560874735        -0.0313517447400766      -18.0087560874735        -29.1107635664391        4.81571765583393        
200          -38.3674897752336        62.8631879969727         -0.0326909575699037      -18.9565051247326        -0.0326909575699134      -18.9565051247326        -29.0642816381687        4.96965161685682        
210          -37.952038771537         61.7728853388206         -0.0340278345329297      -19.904245430863         -0.0340278345329297      -19.904245430863         -29.0162534604322        5.11007294477502        
220          -37.5565424465417        60.6741370464689         -0.0353625272359822      -20.8519748046063        -0.0353625272359822      -20.8519748046063        -28.9667854997542        5.23669117613851        
230          -37.1792803507478        59.5681058636822         -0.0366951811308188      -21.7996867185156        -0.0366951811308188      -21.7996867185156        -28.9159677516754        5.34925339120546        
240          -36.8187307277716        58.4560618361099         -0.038025897316501       -22.7473889418354        -0.038025897316501       -22.7473889418354        -28.8639172221104        5.44752144445268        
250          -36.4735961634023        57.3389939109149         -0.0393547937319635      -23.6950787796902        -0.0393547937319712      -23.6950787796902        -28.8107137786936        5.53134974622293        
260          -36.1426898038103        56.2175020024712         -0.0406819400314009      -24.6427513877485        -0.0406819400314096      -24.6427513877485        -28.7564727746856        5.6005401691929         
270          -35.8249722418313        55.0921963221269         -0.0420074185682898      -25.5904087006863        -0.0420074185682898      -25.5904087006863        -28.701280194194         5.65497551536694        
280          -35.5195549713765        53.9639282151529         -0.0433312904923767      -26.5380520498724        -0.0433312904923767      -26.5380520498724        -28.6452300063329        5.69458216382138        
290          -35.2255741661797        52.8329654393207         -0.044653589672076       -27.4856823859793        -0.044653589672076       -27.4856823859793        -28.5884303321669        5.71937414909641        
300          -34.9423214398069        51.6998543066867         -0.0459743691045262      -28.4332921092115        -0.0459743691045301      -28.4332921092114        -28.5309589953839        5.72929147740227        
310          -34.6691165539203        50.5649283724724         -0.0472936603053265      -29.3808871696174        -0.0472936603053265      -29.3808871696174        -28.4729044538946        5.72431353657967        
320          -34.4053528739715        49.4284588561259         -0.0486114764551646      -30.3284663815734        -0.0486114764551646      -30.3284663815734        -28.4143621290322        5.70450432871676        
330          -34.1505000000565        48.2909216971147         -0.0499278333850531      -31.2760271874197        -0.0499278333850531      -31.2760271874197        -28.3554150458884        5.6699245131292         
340          -33.904057174509         47.1523691085177         -0.0512427399559413      -32.2235694163045        -0.0512427399559413      -32.2235694163045        -28.2961439442983        5.62064621200394        
350          -33.6655662124378        46.0131898521853         -0.0525561849196581      -33.1710945841777        -0.0525561849196581      -33.1710945841777        -28.2366409993207        5.5567263665296         
360          -33.4346268879645        44.8735463645626         -0.0538681774790252      -34.1186033333711        -0.0538681774790252      -34.1186033333711        -28.1769686267367        5.47831316271808        
370          -33.2108458231148        43.7336450153173         -0.0551787043500092      -35.0660910329604        -0.0551787043500092      -35.0660910329604        -28.1172042122673        5.38551922695017        
380          -32.9938962298107        42.5936757459843         -0.0564877417800469      -36.0135622658709        -0.0564877417800469      -36.0135622658709        -28.0574274679363        5.2784786235138         
390          -32.7834411589796        41.4536910439444         -0.0577952705139007      -36.9610102540335        -0.0577952705139007      -36.9610102540335        -27.9977058679555        5.15737859794934        
400          -32.5792035565971        40.3139355408688         -0.059101268953489       -37.9084418411093        -0.059101268953489       -37.9084418411093        -27.9381033772896        5.02234346169538        
410          -32.3808933704208        39.1743940603755         -0.0604057075915409      -38.8558537615059        -0.0604057075915477      -38.855853761506         -27.8786843109734        4.87355919194973        
420          -32.1882753694316        38.0353455925892         -0.0617085610370119      -39.8032435533445        -0.0617085610370187      -39.8032435533445        -27.819502434177         4.71126723216342        
430          -32.0011153192836        36.8967829341315         -0.0630097865964577      -40.7506124319151        -0.0630097865964577      -40.7506124319151        -27.7606237511997        4.535576464865          
440          -31.8191914663996        35.7587940580429         -0.064309337165899       -41.6979633110504        -0.064309337165899       -41.6979633110504        -27.7021106216225        4.34676615198699        
450          -31.6423153212608        34.6215440419406         -0.0656071839881382      -42.6452915487295        -0.0656071839881382      -42.6452915487295        -27.6440050814157        4.14496795771383        
460          -31.4702823393707        33.4850152774356         -0.066903266496876       -43.5925989357475        -0.066903266496876       -43.5925989357475        -27.5863718623474        3.93046164770896        
470          -31.3029334248075        32.3493128173656         -0.0681975496670662      -44.5398857938018        -0.0681975496670662      -44.5398857938018        -27.5292488171907        3.70342769751808        
480          -31.140102215068         31.2145012238194         -0.0694899781508876      -45.4871516385239        -0.0694899781508876      -45.4871516385239        -27.4726872306335        3.46412304920265        
490          -30.9816399354013        30.080621738659          -0.0707805005118046      -46.4343952744197        -0.0707805005118105      -46.4343952744197        -27.4167320255097        3.21266321442408        
500          -30.8274001979262        28.9476999690163         -0.072069057298793       -47.3816162429187        -0.072069057298793       -47.3816162429187        -27.3614294002873        2.94938585667096        
510          -30.6772585692894        27.8158057630093         -0.0733556024669542      -48.328814697562         -0.0733556024669542      -48.328814697562         -27.3068119193132        2.6744161745486         
520          -30.5310906738352        26.6849431533491         -0.074640070008889       -49.2759942199267        -0.074640070008889       -49.2759942199267        -27.2529252340119        2.38803022726809        
530          -30.3887635285172        25.5551707726028         -0.0759224122754594      -50.2231491804357        -0.0759224122754594      -50.2231491804357        -27.1997962913666        2.09044133519541        
540          -30.2501923255466        24.4264681740163         -0.0772025613338494      -51.1702821672589        -0.0772025613338552      -51.1702821672588        -27.1474668235418        1.78187392746289        
550          -30.1152552675989        23.2988823396902         -0.0784804639839373      -52.1173929138177        -0.0784804639839373      -52.1173929138177        -27.0959631393241        1.46255033314394        
560          -29.983860145298         22.1724302051324         -0.0797560494677088      -53.0644847348332        -0.0797560494677088      -53.0644847348332        -27.0453242310863        1.13269733969068        
570          -29.8559206974048        21.0470915564452         -0.0810292642344134      -54.0115508228164        -0.0810292642344134      -54.0115508228164        -26.9955720545539        0.792587029747197       
580          -29.7313513906061        19.922946278317          -0.0823000361509195      -54.9585968362792        -0.0823000361509195      -54.9585968362792        -26.9467426743629        0.442415240660765       
590          -29.6100695110185        18.7999362192364         -0.0835683092544666      -55.905621534557         -0.0835683092544666      -55.905621534557         -26.8988565730849        0.0823519158151645      
600          -29.4919938659403        17.6780586371347         -0.0848340156060398      -56.8526231591268        -0.0848340156060398      -56.8526231591268        -26.8519426602542        -0.287317763289106      
610          -29.3770617888272        16.557390631706          -0.0860970923938229      -57.7996034948318        -0.0860970923938229      -57.7996034948318        -26.8060242157331        -0.66641163040367       
620          -29.2651974518251        15.4377996319789         -0.087357473435006       -58.7465645380482        -0.087357473435006       -58.7465645380482        -26.7611261115158        -1.05470175052097       
630          -29.1563477566616        14.3193771312755         -0.0886151022083648      -59.6935013873613        -0.0886151022083648      -59.6935013873613        -26.7172641765325        -1.45199241473793       
640          -29.0504453055666        13.2020709238744         -0.0898699044089256      -60.6404172307404        -0.0898699044089256      -60.6404172307404        -26.6744679979473        -1.85808251134693       
650          -28.9474317577065        12.0858333469876         -0.0911218270030995      -61.587313712985         -0.0911218270030995      -61.587313712985         -26.632748938793         -2.27278294583252       
660          -28.8472536443889        10.9706739422599         -0.0923708097699518      -62.5341864539424        -0.0923708097699518      -62.5341864539424        -26.5921245321973        -2.69579571332259       
670          -28.7498592720746        9.85658982968718         -0.0936167801240819      -63.4810415191301        -0.0936167801240819      -63.4810415191301        -26.5526203388367        -3.12707159175081       
680          -28.6551948569061        8.7435026532236          -0.0948596903427309      -64.4278746675838        -0.0948596903427309      -64.4278746675838        -26.5142435524954        -3.56628627518909       
690          -28.5632284926841        7.63142959421891         -0.0960994658865976      -65.3746890672245        -0.0960994658865976      -65.3746890672245        -26.4770216258411        -4.01329630849588       
700          -28.4739050491436        6.5203234170665          -0.0973360574681032      -66.3214859124875        -0.0973360574681032      -66.3214859124875        -26.4409615794629        -4.46796067219614       
710          -28.3871853830889        5.41018664479578         -0.0985694065987307      -67.2682589298963        -0.0985694065987307      -67.2682589298963        -26.4060788056065        -4.93006760373625       
720          -28.303032777033         4.30097067888828         -0.0997994479289482      -68.2150167050274        -0.0997994479289521      -68.2150167050275        -26.3723941618479        -5.39943909631928       
730          -28.2214050705861        3.19263725143737         -0.101026140735559       -69.161753736276         -0.101026140735559       -69.161753736276         -26.3399095197601        -5.87589562072057       
740          -28.1422775746345        2.08517276419788         -0.102249419895446       -70.1084734651542        -0.102249419895446       -70.1084734651542        -26.3086462102907        -6.35928987188705       
750          -28.0655999383043        0.978516415419407        -0.103469238515114       -71.0551746709877        -0.103469238515114       -71.0551746709877        -26.2786123574867        -6.84944350773649       
760          -27.9913622326986        -0.127334902588351       -0.104685547479881       -72.0018609260036        -0.104685547479881       -72.0018609260036        -26.2498186600019        -7.34618560376765       
770          -27.9195222689515        -1.232457022957          -0.105898299143965       -72.9485253383889        -0.105898299143973       -72.9485253383889        -26.2222749497583        -7.84938151403736       
780          -27.8500490944805        -2.33688558424504        -0.107107452271873       -73.895180408953         -0.107107452271873       -73.895180408953         -26.1959899564445        -8.35876508142218       
790          -27.7829286911616        -3.44063838608558        -0.108312959663547       -74.8418141812753        -0.108312959663547       -74.8418141812753        -26.1709734186427        -8.87430150843618       
800          -27.7181263357386        -4.54380054597436        -0.109514775407239       -75.7884354243978        -0.109514775407239       -75.7884354243978        -26.1472394690104        -9.39576637078247       
810          -27.6556180190415        -5.64640621193508        -0.110712869708445       -76.7350403161718        -0.110712869708453       -76.7350403161718        -26.1247903469518        -9.92297970347732       
820          -27.5953717288274        -6.74848875241902        -0.111907190054723       -77.681629344955         -0.111907190054723       -77.681629344955         -26.103645965283         -10.4558225524889       
830          -27.5373897277799        -7.85009382214049        -0.113097710314698       -78.6282083533546        -0.113097710314698       -78.6282083533546        -26.0838071148655        -10.994177973984        
840          -27.4816268433492        -8.95127629149793        -0.114284394786855       -79.5747714386062        -0.114284394786861       -79.5747714386062        -26.0652857025324        -11.5378605238995       
850          -27.4280758052508        -10.0521129152389        -0.115467212263952       -80.5213214439867        -0.115467212263961       -80.5213214439867        -26.0480895343861        -12.086766850972        
860          -27.3767193067163        -11.1525822306228        -0.116646139570992       -81.4678586108127        -0.116646139571001       -81.4678586108127        -26.03222397952          -12.6407308153393       
870          -27.3275253479228        -12.2528066863645        -0.117821143065558       -82.4143854210713        -0.117821143065558       -82.4143854210713        -26.0177019500865        -13.1996628801718       
880          -27.2805012380598        -13.3528010548451        -0.118992213200199       -83.3609015502356        -0.118992213200199       -83.3609015502356        -26.0045211194794        -13.7634270143079       
890          -27.2356128429376        -14.452626189171         -0.12015932478767        -84.3074050506302        -0.120159324787679       -84.3074050506302        -25.9926932151619        -14.3318928136899       
900          -27.1928566107383        -15.5523469857789        -0.121322463633671       -85.253899251045         -0.12132246363368        -85.253899251045         -25.9822238374658        -14.9049236839046       
910          -27.1522018330987        -16.6520126373726        -0.122481613297454       -86.2003813602336        -0.122481613297454       -86.2003813602336        -25.9731215066635        -15.4824096766281       
920          -27.1136558270947        -17.7517002869752        -0.123636766695854       -87.1468575208752        -0.123636766695854       -87.1468575208752        -25.9653910148068        -16.0642092186229       
930          -27.0772014849742        -18.8514603877666        -0.124787919835132       -88.0933237508585        -0.124787919835132       -88.0933237508585        -25.9590373191386        -16.6501778317992       
