!Keysight Technologies,N5245B,MY57181346,A.13.60.06
!Automatic Fixture Removal (AFR)
!Date: Thursday, August 08, 2019, 03:56:18
!S2P File: Measurements: S11,S21,S12,S22:
# MHz S  DB   R 50
10           -49.0699893458637        167.67104344089          -0.00683936672552226     -0.971865689917855       -0.00683936672552226     -0.971865689917855       -28.8349164307502        0.30365489555309        
20           -48.6335309221155        156.067071514129         -0.00821679888019549     -1.94372890324585        -0.00821679888019549     -1.94372890324585        -28.8309191460574        0.606548877285109       
30           -47.9803780900292        145.699993327112         -0.00956760762612692     -2.91559201607106        -0.00956760762612692     -2.91559201607106        -28.8242694177773        0.907888845971003       
40           -47.1998176478916        136.734485857341         -0.0109023154390111      -3.88745468406796        -0.0109023154390024      -3.88745468406796        -28.8149859605073        1.20699030928696        
50           -46.3640246586167        129.089032688473         -0.0122258313469128      -4.85931305800779        -0.0122258313469128      -4.85931305800779        -28.8030952550598        1.50302944003033        
60           -45.5206541360989        122.575356493481         -0.0135410207880426      -5.83117033448781        -0.0135410207880426      -5.83117033448781        -28.7886170564084        1.79525958429624        
70           -44.6973388487762        116.986302471578         -0.0148497329318783      -6.80302322398913        -0.0148497329318783      -6.80302322398913        -28.7716024948209        2.08296601069097        
80           -43.908125623893         112.136317016861         -0.0161532811773592      -7.77487220872028        -0.0161532811773592      -7.77487220872028        -28.7520903843409        2.36538256218987        
90           -43.158954944948         107.874688935154         -0.0174526359306466      -8.74671847804535        -0.0174526359306466      -8.74671847804535        -28.7301254007401        2.64184392563707        
100          -42.4512868627509        104.081184459548         -0.0187485503151036      -9.71855940378923        -0.0187485503151036      -9.71855940378923        -28.7057487442041        2.91167040153989        
110          -41.784091900658         100.662971479984         -0.0200415990135322      -10.6903916852246        -0.0200415990135322      -10.6903916852246        -28.6790271321005        3.17416732156507        
120          -41.1552652850392        97.5481817667591         -0.0213322621132999      -11.6622191431947        -0.0213322621132999      -11.6622191431947        -28.6500119858334        3.4287222845544         
130          -40.5621284401545        94.681044041884          -0.022620928452788       -12.6340434793932        -0.022620928452788       -12.6340434793932        -28.6187645266507        3.67471568730879        
140          -40.0019439754176        92.0176356538884         -0.0239079118447914      -13.6058591024169        -0.0239079118447914      -13.6058591024169        -28.5853574133578        3.91165351446668        
150          -39.4720489411853        89.5237249680278         -0.0251934765666912      -14.5776616138286        -0.0251934765666815      -14.5776616138286        -28.5498654626071        4.13892988308961        
160          -38.9699019701051        87.1722114508236         -0.0264778513111884      -15.5494625501977        -0.0264778513111884      -15.5494625501977        -28.5123589342039        4.35610567208477        
170          -38.4932200553257        84.9410033501163         -0.027761228114568       -16.5212539722865        -0.027761228114568       -16.5212539722865        -28.4729147052036        4.56261681646506        
180          -38.0398883413286        82.8121681116092         -0.0290437564337364      -17.4930322344968        -0.0290437564337364      -17.4930322344968        -28.4316237247014        4.75806601363468        
190          -37.6080288348678        80.7714607665669         -0.0303256018076538      -18.4648004375853        -0.0303256018076538      -18.4648004375853        -28.3885418795044        4.94198869412905        
200          -37.1959293010132        78.806825065813          -0.0316068456630048      -19.4365633621347        -0.0316068456630029      -19.4365633621348        -28.3437852951932        5.11407362908179        
210          -36.80205857607          76.9088270346974         -0.0328876250430477      -20.4083085574738        -0.0328876250430477      -20.4083085574738        -28.2974040296166        5.27388845913072        
220          -36.4250542837169        75.0689857889884         -0.034168003450158       -21.3800454950862        -0.0341680034501541      -21.3800454950862        -28.2495019138205        5.42116929177964        
230          -36.0636724454012        73.2805016826372         -0.0354480516822954      -22.3517672840956        -0.0354480516822954      -22.3517672840956        -28.2001638221709        5.55566008761747        
240          -35.7168358150847        71.5375690158017         -0.0367278316456752      -23.3234776840878        -0.0367278316456675      -23.3234776840877        -28.1494725095615        5.67709405941672        
250          -35.3835371455844        69.8352654994252         -0.0380073863467818      -24.2951743503885        -0.0380073863467818      -24.2951743503885        -28.097517016604         5.7853088076653         
260          -35.0628765812459        68.1691163576194         -0.039286752192024       -25.2668587509275        -0.039286752192024       -25.2668587509275        -28.0443849804349        5.88004663627085        
270          -34.7540482056113        66.5357062121703         -0.0405659576259127      -26.2385280243567        -0.0405659576259127      -26.2385280243567        -27.9901611430046        5.96117631725675        
280          -34.4563171394515        64.9317584200131         -0.0418450201422252      -27.210181198437         -0.0418450201422165      -27.2101811984369        -27.9349319288096        6.02859731381953        
290          -34.1690153355307        63.3545738942062         -0.0431239461409955      -28.1818201427274        -0.0431239461409955      -28.1818201427274        -27.8787874010693        6.08214475381059        
300          -33.8915180193279        61.8016041093173         -0.044402743996368       -29.1534432236211        -0.044402743996368       -29.1534432236211        -27.8218076072841        6.12173200653951        
310          -33.6232850549094        60.2708400685042         -0.0456814154784246      -30.125046103809         -0.0456814154784246      -30.125046103809         -27.7640708773296        6.14733384264878        
320          -33.3637874557034        58.7604466313544         -0.0469599359403643      -31.0966347960621        -0.0469599359403643      -31.0966347960621        -27.7056733288639        6.15886631264676        
330          -33.1125762910193        57.2688210540811         -0.0482383111398456      -32.068204640587         -0.0482383111398456      -32.068204640587         -27.646676461367         6.15634647932634        
340          -32.8692095001812        55.7943427302498         -0.0495165126491279      -33.039756534002         -0.0495165126491347      -33.039756534002         -27.5871667071528        6.13973482986942        
350          -32.6333049801343        54.335963554884          -0.0507945231923543      -34.0112901077466        -0.0507945231923543      -34.0112901077466        -27.5272135590261        6.10907577071197        
360          -32.4044918491106        52.8924573924226         -0.0520723189552765      -34.9828055880411        -0.0520723189552765      -34.9828055880411        -27.466885821362         6.06446330024705        
370          -32.1824422442148        51.4628580314809         -0.0533498513298536      -35.9543013621545        -0.0533498513298536      -35.9543013621545        -27.4062695359734        6.00589129590776        
380          -31.9668410858638        50.0461188537113         -0.0546270906585283      -36.9257777140406        -0.0546270906585283      -36.9257777140406        -27.3454267216676        5.93350560936011        
390          -31.7574109829946        48.6415688674954         -0.0559040082191429      -37.8972311406955        -0.0559040082191429      -37.8972311406955        -27.2844162726153        5.84728645970339        
400          -31.5538967944755        47.2483980476473         -0.0571805309882841      -38.8686655518881        -0.0571805309882841      -38.8686655518881        -27.2233248373835        5.74747985335598        
410          -31.3560424929693        45.8659458792027         -0.0584566375809839      -39.8400814297545        -0.0584566375809839      -39.8400814297545        -27.1621948940611        5.63409052883753        
420          -31.1636113524837        44.4934505319159         -0.0597322670576958      -40.8114726383379        -0.059732267057689       -40.8114726383379        -27.1010958986834        5.50719514994668        
430          -30.97641125354          43.1305249705041         -0.0610073557255159      -41.7828418366725        -0.0610073557255101      -41.7828418366725        -27.0400927020128        5.3670075901846         
440          -30.7942397088889        41.7766374486712         -0.0622818489467599      -42.754189997847         -0.0622818489467599      -42.754189997847         -26.9792403098091        5.21360067360791        
450          -30.6169064976919        40.4312227513516         -0.063555690201338       -43.7255167273868        -0.0635556902013331      -43.7255167273868        -26.9185887222724        5.04720972225326        
460          -30.4442359398004        39.0939149550293         -0.0648288101030678      -44.6968208545355        -0.064828810103061       -44.6968208545355        -26.8581954858788        4.86797387721588        
470          -30.2760775732343        37.7643692650466         -0.0661011439677737      -45.6680992990406        -0.066101143967762       -45.6680992990406        -26.7981107828238        4.67599356594971        
480          -30.1122722715563        36.4421783241411         -0.0673726067630195      -46.6393601597959        -0.0673726067630146      -46.639360159796         -26.7383945947605        4.47155045721351        
490          -29.9526953257505        35.1270363462648         -0.068643141552278       -47.6105953224177        -0.0686431415522722      -47.6105953224176        -26.6790831479989        4.25476620647259        
500          -29.7972102619455        33.8186429797499         -0.069912660232915       -48.5818065706663        -0.069912660232915       -48.5818065706663        -26.6202322944385        4.02585956118207        
510          -29.6456859834248        32.5166400292879         -0.0711810964696668      -49.5529933268781        -0.0711810964696668      -49.5529933268781        -26.5618790110781        3.78491646260805        
520          -29.4980117774155        31.2207349987625         -0.0724483613129708      -50.524158222277         -0.0724483613129708      -50.524158222277         -26.5040720478457        3.53225066605028        
530          -29.3540787183236        29.9307427728567         -0.0737143880565039      -51.49529898995          -0.073714388056499       -51.49529898995          -26.4468428930338        3.26789545055984        
540          -29.2137845351398        28.6463980129155         -0.0749790880256043      -52.4664127595007        -0.0749790880256043      -52.4664127595007        -26.3902347732702        2.99209189737513        
550          -29.077021299053         27.367430398809          -0.0762423903639549      -53.4375037420743        -0.07624239036395        -53.4375037420743        -26.3342755563127        2.70499424661155        
560          -28.9437060162348        26.0936320283492         -0.0775042177050184      -54.4085732252643        -0.0775042177050184      -54.4085732252643        -26.2789951853423        2.40680125948763        
570          -28.8137376911291        24.8248511974827         -0.0787644856059651      -55.3796154154837        -0.0787644856059651      -55.3796154154837        -26.2244261523537        2.09777962581434        
580          -28.6870431345803        23.5608540597464         -0.0800231022626359      -56.3506346418312        -0.0800231022626359      -56.3506346418312        -26.170604550637         1.77814819519676        
590          -28.5635499652995        22.301564173051          -0.0812799710692208      -57.3216273502757        -0.0812799710692208      -57.3216273502757        -26.1175678561711        1.44812623266956        
600          -28.4431818505623        21.046772611456          -0.0825350004895647      -58.2925944741045        -0.0825350004895647      -58.2925944741045        -26.065347911465         1.10793066673848        
610          -28.3258774536749        19.7962997638655         -0.0837880927441458      -59.2635416883511        -0.0837880927441458      -59.2635416883511        -26.0139793774185        0.757744844928692       
620          -28.2115567151755        18.5500299721032         -0.0850391455899718      -60.234463901487         -0.085039145589964       -60.2344639014871        -25.9634983052671        0.397767497397839       
630          -28.1001818596425        17.3078034257617         -0.0862880653436879      -61.205359006516         -0.0862880653436879      -61.205359006516         -25.9139330863411        0.02817257410398        
640          -27.9916784184398        16.0694622317223         -0.0875347450744023      -62.1762334646334        -0.0875347450744023      -62.1762334646334        -25.8653200389044        -0.350875535803031      
650          -27.8860067523701        14.8348920608284         -0.0887791017514564      -63.1470871429159        -0.0887791017514564      -63.1470871429159        -25.8176773753042        -0.739169855999218      
660          -27.783099809137         13.6038877621509         -0.0900210402943288      -64.1179095285699        -0.090021040294321       -64.1179095285699        -25.7710306802951        -1.13658979860529       
670          -27.682912999566         12.3763536596912         -0.0912604833024847      -65.0887150686807        -0.0912604833024769      -65.0887150686808        -25.7253922594797        -1.54298706342711       
680          -27.5854015126267        11.1521780556054         -0.092497343598078       -66.0594956005546        -0.092497343598078       -66.0594956005546        -25.6807810641652        -1.95810806291076       
690          -27.4905131637248        9.9311978313188          -0.0937315330218711      -67.0302509203671        -0.0937315330218711      -67.0302509203671        -25.6372158132186        -2.38181590622977       
700          -27.3982005242514        8.71332411292553         -0.0949629707140118      -68.0009874963692        -0.0949629707140118      -68.0009874963692        -25.5947104646958        -2.81386921431134       
710          -27.3084313769883        7.49845889118604         -0.0961915736730004      -68.9716965160177        -0.0961915736729926      -68.9716965160177        -25.5532796939899        -3.2541298503881        
720          -27.221157412734         6.28647294222096         -0.0974172699643287      -69.9423891836776        -0.0974172699643287      -69.9423891836776        -25.5129320037071        -3.70230292329312       
730          -27.1363475219108        5.07729070491012         -0.0986399630815311      -70.9130576791033        -0.0986399630815223      -70.9130576791033        -25.4736917142104        -4.15823259934172       
740          -27.0539668304153        3.87078932601292         -0.0998595683164336      -71.8837068688916        -0.0998595683164258      -71.8837068688916        -25.4355771785963        -4.62160220862859       
750          -26.9739772292968        2.6669099085821          -0.101075984700895       -72.8543306952318        -0.101075984700884       -72.8543306952317        -25.3986154354393        -5.09233526496994       
760          -26.8963582476173        1.46552536438608         -0.102289138852235       -73.8249378376002        -0.102289138852227       -73.8249378376002        -25.3628167348744        -5.57023517580243       
770          -26.8210730012007        0.26651231846332         -0.103498944139265       -74.7955242314141        -0.103498944139265       -74.7955242314141        -25.3282005849357        -6.05512891765113       
780          -26.748088370263         -0.930211541127856       -0.104705324943076       -75.7660926776129        -0.104705324943076       -75.7660926776129        -25.2947787579309        -6.54690945886815       
790          -26.6773896366757        -2.1247581676805         -0.105908192332905       -76.7366364134266        -0.105908192332895       -76.7366364134266        -25.2625734563743        -7.04541381059253       
800          -26.6089413346685        -3.31721653923875        -0.107107495412455       -77.7071684367314        -0.107107495412455       -77.7071684367314        -25.2315822597996        -7.55050018835145       
810          -26.5427200767788        -4.50770055297087        -0.108303163141962       -78.6776812948052        -0.108303163141962       -78.6776812948052        -25.2018163478797        -8.06206410922662       
820          -26.478683035818         -5.69630086683742        -0.109495139014578       -79.6481741439974        -0.109495139014578       -79.6481741439974        -25.1732821492671        -8.57983106351804       
830          -26.4168297931066        -6.88310185421903        -0.110683361745414       -80.6186503991927        -0.110683361745414       -80.6186503991927        -25.1459869582507        -9.10370351486201       
840          -26.357118992571         -8.06820118030704        -0.111867776600271       -81.589111559454         -0.111867776600271       -81.589111559454         -25.1199380385708        -9.63346181810357       
850          -26.2995505576144        -9.25160694972593        -0.113048321745478       -82.5595569983842        -0.113048321745476       -82.5595569983841        -25.0951478506925        -10.1689371839639       
860          -26.2440861645599        -10.4334878736445        -0.114224935000278       -83.5299867860793        -0.114224935000278       -83.5299867860793        -25.0716336583354        -10.7098615057591       
870          -26.1907142260136        -11.6138627337831        -0.115397567398805       -84.5004016265938        -0.115397567398805       -84.5004016265938        -25.0494000227885        -11.2561819024634       
880          -26.1394183571694        -12.7928621253644        -0.11656615184454        -85.4708060792422        -0.11656615184454        -85.4708060792422        -25.0284694017568        -11.8076946338052       
890          -26.0901846774718        -13.9705322018048        -0.117730650836776       -86.4411958069662        -0.117730650836776       -86.4411958069662        -25.0088450934015        -12.3642594340794       
900          -26.0429842657625        -15.1470070343376        -0.118891010609515       -87.4115724391874        -0.118891010609515       -87.4115724391874        -24.9905437031939        -12.9257164197323       
910          -25.9978131689211        -16.3223598931284        -0.120047187535624       -88.3819372334105        -0.120047187535624       -88.3819372334105        -24.9735718384988        -13.4920595878861       
920          -25.9546536246022        -17.4966694327252        -0.12119915812864        -89.3522926270574        -0.12119915812864        -89.3522926270574        -24.9579314453586        -14.0630948399935       
930          -25.9134854654228        -18.670047071271         -0.12234689960457        -90.322637427029         -0.122346899604562       -90.322637427029         -24.9436245910675        -14.6386788450364       
