# GHZ S RI R 50
0.5 1.23600672292991E-06 3.62782093366534E-06 0.625510705470781 -0.716297753604914 0.625510705470781 -0.716297753604914 3.83649829274052E-06 4.19835839485317E-06
0.55 1.81056967486447E-06 3.76416231840599E-06 0.481090465501713 -0.656267337731753 0.481090465501713 -0.656267337731753 3.99629400277611E-06 4.22780279811334E-06
0.6 2.4185682056299E-06 3.80320912539669E-06 0.437506793673799 -0.71789718694146 0.4375067936738 -0.71789718694146 4.16880852095183E-06 4.23376747007786E-06
0.65 3.04219733235448E-06 3.73920166165216E-06 0.406893528282222 -0.816994446700346 0.406893528282222 -0.816994446700346 4.34994575910684E-06 4.21381518087495E-06
0.7 3.66292812747558E-06 3.56939677559923E-06 0.326667809249676 -0.82544157830655 0.326667809249676 -0.82544157830655 4.53556654470121E-06 4.16608022327234E-06
0.75 4.26206261283941E-06 3.29432523590073E-06 0.251035587126591 -0.836337037598599 0.251035587126591 -0.836337037598599 4.7212633434198E-06 4.08998984496156E-06
0.8 4.82112351070409E-06 2.91765948597819E-06 0.175261880418424 -0.837132172856866 0.175261880418424 -0.837132172856866 4.90210751271519E-06 3.98542590326447E-06
0.85 5.32258371331274E-06 2.44613830473284E-06 0.107373662434495 -0.88187306732094 0.107373662434495 -0.88187306732094 5.07363677091956E-06 3.85295236368001E-06
0.9 5.75023942220577E-06 1.88946135856948E-06 0.0310386352631245 -0.863091686458113 0.0310386352631245 -0.863091686458113 5.23124089803676E-06 3.69429380918427E-06
0.95 6.08971816266622E-06 1.25988116677658E-06 -0.0423738961406755 -0.859482002014062 -0.0423738961406755 -0.859482002014062 5.37060961878757E-06 3.51154270341497E-06
1 6.32903966495145E-06 5.7198864484248E-07 -0.114210753702219 -0.844239063242812 -0.114210753702219 -0.844239063242812 5.48823435463995E-06 3.30781249338104E-06
1.05 6.45876922650405E-06 -1.57716716832805E-07 -0.187933160623669 -0.841730699743764 -0.187933160623669 -0.841730699743764 5.58079787224698E-06 3.08694534800402E-06
1.1 6.4724201780009E-06 -9.11393610252188E-07 -0.26317537028746 -0.836339286878093 -0.26317537028746 -0.836339286878093 5.64580927794485E-06 2.8528825607426E-06
1.15 6.3666277451297E-06 -1.67026003580915E-06 -0.328275983938485 -0.798477626076006 -0.328275983938485 -0.798477626076006 5.68165418440472E-06 2.61012437430784E-06
1.2 6.14130186649345E-06 -2.41516039765246E-06 -0.393488585253062 -0.764653384190764 -0.393488585253062 -0.764653384190764 5.68756901968585E-06 2.3633982910773E-06
1.25 5.79959145798325E-06 -3.12710545566643E-06 -0.466988741497186 -0.744111806904656 -0.466988741497186 -0.744111806904656 5.66355481273924E-06 2.11736294922842E-06
1.3 5.34781624725604E-06 -3.78782160022189E-06 -0.524925775504131 -0.696783141343327 -0.524925775504131 -0.696783141343327 5.61047799313751E-06 1.87643564444151E-06
1.35 4.79538858373411E-06 -4.38027861368131E-06 -0.5660886451617 -0.631492264536778 -0.5660886451617 -0.631492264536779 5.53022210357145E-06 1.64489686466285E-06
1.4 4.15445788410483E-06 -4.88912495867488E-06 -0.627299026196316 -0.589995984721783 -0.627299026196316 -0.589995984721783 5.42494154235117E-06 1.42660921231961E-06
1.45 3.43956917808851E-06 -5.30118230300734E-06 -0.674266011547734 -0.533718547668622 -0.674266011547734 -0.533718547668622 5.29738585399859E-06 1.22448256181607E-06
1.5 2.66735625118071E-06 -5.60582284370319E-06 -0.698540677125821 -0.462044906327024 -0.69854067712582 -0.462044906327023 5.15095445763713E-06 1.04087276237331E-06
1.55 1.85607623674123E-06 -5.79526352668874E-06 -0.745996411821152 -0.406751419428991 -0.745996411821152 -0.406751419428991 4.98909891283589E-06 8.77568196540027E-07
1.6 1.02508475467579E-06 -5.86477141866292E-06 -0.760571098040704 -0.334187134295993 -0.760571098040704 -0.334187134295993 4.81544922965491E-06 7.35530197748191E-07
1.65 1.94233789866817E-07 -5.81280440962346E-06 -0.786017898187145 -0.268183554126445 -0.786017898187145 -0.268183554126445 4.63341643443892E-06 6.14951032717229E-07
1.7 -6.16558695022851E-07 -5.64115659572189E-06 -0.806834834333471 -0.200545843531546 -0.806834834333471 -0.200545843531546 4.44630408729983E-06 5.15512973527456E-07
1.75 -1.38787296132291E-06 -5.35477253721765E-06 -0.812050962247056 -0.129748527694552 -0.812050962247056 -0.129748527694552 4.2569160358216E-06 4.36426671887982E-07
1.8 -2.10148701886929E-06 -4.96160974182534E-06 -0.821878952803727 -0.0603199583069122 -0.821878952803727 -0.0603199583069122 4.06749164387871E-06 3.7621990664204E-07
1.85 -2.74071893311018E-06 -4.4725811247025E-06 -0.823621762139384 0.00981146267502971 -0.823621762139384 0.00981146267502971 3.88002937483677E-06 3.33339624764179E-07
1.9 -3.29089727034396E-06 -3.90109433729086E-06 -0.819868285110035 0.0798439826800254 -0.819868285110035 0.0798439826800254 3.69581116421349E-06 3.0616408498163E-07
1.95 -3.73985966287793E-06 -3.26270912913875E-06 -0.791563816846703 0.145875178554831 -0.791563816846703 0.145875178554831 3.51569784534762E-06 2.93053551930089E-07
2 -4.0781739700116E-06 -2.57467211530407E-06 -0.791175020573112 0.216750004131909 -0.791175020573111 0.216750004131909 3.34000483932994E-06 2.9262779840307E-07
2.05 -4.299153507323E-06 -1.8553132248592E-06 -0.760371764143612 0.279755167971694 -0.760371764143612 0.279755167971694 3.16866953006841E-06 3.03638828049582E-07
2.1 -4.39995735938815E-06 -1.12391835391716E-06 -0.724400956760479 0.338992399628106 -0.724400956760479 0.338992399628106 3.00157905352465E-06 3.25329644647768E-07
2.15 -4.38048706661869E-06 -3.9966593709054E-07 -0.690571027815748 0.397990035742761 -0.690571027815748 0.397990035742761 2.83836846287668E-06 3.57326231781958E-07
2.2 -4.24383316098362E-06 2.98564665190086E-07 -0.654720757209457 0.455605452532538 -0.654720757209457 0.455605452532538 2.67884435272718E-06 3.99579752799047E-07
2.25 -3.99611731351585E-06 9.5269678341103E-07 -0.62436922628488 0.518549826003657 -0.624369226284879 0.518549826003656 2.52296267077261E-06 4.52510560385384E-07
2.3 -3.64638613205745E-06 1.54600888943547E-06 -0.566947751227279 0.558830042173822 -0.566947751227279 0.558830042173822 2.37092397247445E-06 5.16666500157781E-07
2.35 -3.20637167571224E-06 2.06353972167898E-06 -0.522386051977921 0.610837475104555 -0.522386051977921 0.610837475104555 2.22344741578107E-06 5.92817179281874E-07
2.4 -2.69001562781545E-06 2.49256799784006E-06 -0.466814801711309 0.650570982602775 -0.466814801711309 0.650570982602775 2.08159671344104E-06 6.81756180186488E-07
2.45 -2.11318211503309E-06 2.8229288079695E-06 -0.405370743991668 0.680396717348168 -0.405370743991668 0.680396717348168 1.94692509454796E-06 7.84063981870034E-07
2.5 -1.49307945843207E-06 3.04719878039437E-06 -0.34594194469226 0.712089263023032 -0.34594194469226 0.712089263023032 1.82146097805718E-06 9.00122521251273E-07
2.55 -8.47891051649325E-07 3.16098337952417E-06 -0.282281282152404 0.733960532044386 -0.282281282152404 0.733960532044386 1.70747752082635E-06 1.02984148084879E-06
2.6 -1.96325633316727E-07 3.16284222241325E-06 -0.219527987522564 0.757447311846296 -0.219527987522564 0.757447311846296 1.60752158235636E-06 1.17251573817553E-06
2.65 4.43080510155788E-07 3.05443285562378E-06 -0.153775303343513 0.770286118484492 -0.153775303343513 0.770286118484492 1.52427458393997E-06 1.32691737963972E-06
2.7 1.05221799232114E-06 2.84046201653872E-06 -0.0867361610229447 0.771181101310976 -0.0867361610229447 0.771181101310976 1.46019658694254E-06 1.49109633868567E-06
2.75 1.6140936031461E-06 2.52841676172937E-06 -0.0211583550812294 0.784312089273728 -0.0211583550812294 0.784312089273728 1.41767406589702E-06 1.66252921339916E-06
2.8 2.11330531533067E-06 2.12858574685931E-06 0.045024121471516 0.774767607803769 0.045024121471516 0.774767607803769 1.39843386494668E-06 1.8380782323708E-06
2.85 2.53625214912139E-06 1.65354572009359E-06 0.110638725249114 0.768129208834202 0.110638725249114 0.768129208834202 1.40368193074181E-06 2.01384168006145E-06
2.9 2.871835922439E-06 1.11775924028508E-06 0.175343603017773 0.755528491744326 0.175343603017773 0.755528491744325 1.43422547618316E-06 2.18596221324822E-06
2.95 3.11148952469179E-06 5.37369887816684E-07 0.23865425060725 0.737359405285384 0.23865425060725 0.737359405285384 1.48953772411273E-06 2.35025937625856E-06
3 3.2494418407938E-06 -7.05440037647296E-08 0.301971776553764 0.718269451344525 0.301971776553764 0.718269451344525 1.56860025233879E-06 2.50227588276287E-06
3.05 3.28298060600453E-06 -6.88277714383548E-07 0.361040842161972 0.688566236564084 0.361040842161972 0.688566236564084 1.6694449493431E-06 2.63808067415255E-06
3.1 3.21221377903494E-06 -1.29804865044501E-06 0.413704615068552 0.648490536831505 0.413704615068552 0.648490536831505 1.78908881983014E-06 2.75385554877654E-06
3.15 3.04035977981299E-06 -1.88269537607266E-06 0.464003943543756 0.60686761138111 0.464003943543756 0.60686761138111 1.92434554799661E-06 2.84660797267724E-06
3.2 2.77345624381297E-06 -2.42578777958119E-06 0.521279579305684 0.573572095887272 0.521279579305685 0.573572095887271 2.07097609911223E-06 2.91401989795804E-06
3.25 2.41999566005914E-06 -2.91236624274539E-06 0.559318591687264 0.519222647114941 0.559318591687264 0.519222647114941 2.2245026755437E-06 2.95431338579372E-06
3.3 1.99092580020084E-06 -3.32932740435553E-06 0.61750367750102 0.482589385421652 0.61750367750102 0.482589385421652 2.3803185363018E-06 2.96688572349784E-06
3.35 1.49911429682716E-06 -3.66562996172676E-06 0.642803056076004 0.419778050238316 0.642803056076004 0.419778050238316 2.53365333140421E-06 2.95181779443356E-06
3.4 9.59033469453979E-07 -3.91282148988993E-06 0.67477736557108 0.363102997944793 0.67477736557108 0.363102997944793 2.680272831069E-06 2.91030897248912E-06
3.45 3.8637837554996E-07 -4.06501727931205E-06 0.701397551323637 0.303877922393564 0.701397551323637 0.303877922393564 2.81592644774018E-06 2.84419108620074E-06
3.5 -2.02605384460653E-07 -4.11906600214102E-06 0.711371590076101 0.238913557846597 0.711371590076101 0.238913557846597 2.9369677616703E-06 2.75572360084807E-06
3.55 -7.91423148692908E-07 -4.07479563735504E-06 0.746058529699448 0.181941864993031 0.746058529699448 0.181941864993031 3.04045283438805E-06 2.64802695724453E-06
3.6 -1.36381794716076E-06 -3.93478334011985E-06 0.739091519416991 0.115030964052165 0.739091519416991 0.115030964052165 3.12390942540465E-06 2.52438576656091E-06
3.65 -1.90436773119951E-06 -3.70437503114575E-06 0.762407557643462 0.0531539795982047 0.762407557643462 0.0531539795982049 3.18585220066004E-06 2.38821021067622E-06
3.7 -2.39877511480613E-06 -3.39145995946984E-06 0.730299131025749 -0.0110867037695323 0.730299131025749 -0.0110867037695323 3.22537088684204E-06 2.24304795713715E-06
3.75 -2.83438348855945E-06 -3.00616213457994E-06 0.746077252963721 -0.0748261503864391 0.746077252963721 -0.0748261503864391 3.24202371845162E-06 2.09234914150922E-06
3.8 -3.20049192594403E-06 -2.56061870750874E-06 0.728895340022829 -0.136202022699592 0.728895340022829 -0.136202022699592 3.23599322966899E-06 1.93914626298613E-06
3.85 -3.48861770868732E-06 -2.06848644571971E-06 0.706645976566442 -0.19518668201469 0.706645976566442 -0.19518668201469 3.20783395550987E-06 1.78624357232943E-06
3.9 -3.69279237451203E-06 -1.54462461774669E-06 0.700889814115359 -0.259230094359833 0.700889814115359 -0.259230094359833 3.15819464401203E-06 1.636159686436E-06
3.95 -3.80965523971209E-06 -1.00460610896186E-06 0.661301975565073 -0.310528032254289 0.661301975565073 -0.310528032254289 3.08805376429604E-06 1.49082196806925E-06
4 -3.83856040575881E-06 -4.64243407566696E-07 0.641484930553462 -0.370497107844049 0.641484930553462 -0.370497107844049 2.99846069602221E-06 1.35210164837236E-06
4.05 -3.78157256466582E-06 6.08469863545549E-08 0.602768622564596 -0.419941945434426 0.602768622564596 -0.419941945434426 2.89020525007265E-06 1.22159095650022E-06
4.1 -3.64336005172219E-06 5.55742620757343E-07 0.560511932458247 -0.465669588226061 0.560511932458247 -0.465669588226061 2.76413360071286E-06 1.10067572901504E-06
4.15 -3.43103126003168E-06 1.0066645606156E-06 0.529990384307276 -0.522174335868715 0.529990384307276 -0.522174335868715 2.62082118244967E-06 9.90851485050266E-07
4.2 -3.15385086095587E-06 1.4013984331991E-06 0.482212761957388 -0.563182105709379 0.482212761957388 -0.563182105709379 2.46068590878054E-06 8.93522007922744E-07
4.25 -2.82305313956509E-06 1.72961880932929E-06 0.427427950089042 -0.594460229088511 0.427427950089042 -0.594460229088511 2.28421944163735E-06 8.10396629246079E-07
4.3 -2.45137179521998E-06 1.98317110284329E-06 0.372933496413956 -0.624044709907276 0.372933496413956 -0.624044709907276 2.09183822389492E-06 7.43413691509235E-07
4.35 -2.05261085533216E-06 2.15635259542774E-06 0.315652942209891 -0.646924401490186 0.315652942209891 -0.646924401490186 1.88420569460846E-06 6.94764311793552E-07
4.4 -1.64128280395033E-06 2.24594401718641E-06 0.262659104974012 -0.678737309409131 0.262659104974014 -0.678737309409131 1.66226674256663E-06 6.67013676351754E-07
4.45 -1.23207326357055E-06 2.2512429965851E-06 0.201949012136015 -0.69051288439191 0.201949012136015 -0.69051288439191 1.42736004550118E-06 6.62905202890398E-07
4.5 -8.39555946064981E-07 2.17416817038842E-06 0.14083018162842 -0.695365322246854 0.14083018162842 -0.695365322246854 1.18141252007685E-06 6.85417832319248E-07
4.55 -4.77779886433945E-07 2.01914508489407E-06 0.0824951207633953 -0.713406894355996 0.0824951207633953 -0.713406894355996 9.26996249514717E-07 7.37498271552694E-07
4.6 -1.59757361536786E-07 1.79300998610488E-06 0.0219374769724112 -0.720757369680413 0.0219374769724112 -0.720757369680413 6.67463129650157E-07 8.22017292492297E-07
4.65 1.02886781574065E-07 1.50482419518602E-06 -0.0383626184461426 -0.70623851390424 -0.0383626184461426 -0.70623851390424 4.06877947636755E-07 9.41513319151627E-07
4.7 3.00289954520279E-07 1.16549420515996E-06 -0.0972220501621487 -0.695149838530334 -0.0972220501621487 -0.695149838530334 1.5014232351399E-07 1.09797785669831E-06
4.75 4.24678288481346E-07 7.87562675247548E-07 -0.159242006362019 -0.700127586687218 -0.159242006362019 -0.700127586687218 -9.72268551545115E-08 1.29277932143174E-06
4.8 4.70509750996189E-07 3.84742010883072E-07 -0.209764278204047 -0.658641253270081 -0.209764278204047 -0.658641253270081 -3.29141400489515E-07 1.52626602200575E-06
4.85 4.34737527139259E-07 -2.84701217792791E-08 -0.268355146073377 -0.647316329936634 -0.268355146073377 -0.647316329936634 -5.39138667663348E-07 1.79780542063696E-06
4.9 3.16852859712877E-07 -4.37158482538332E-07 -0.331921263875801 -0.641206173033884 -0.331921263875801 -0.641206173033884 -7.20705334728942E-07 2.10543126622647E-06
4.95 1.18863451278868E-07 -8.26553785436824E-07 -0.379575337869665 -0.602309045414497 -0.379575337869665 -0.602309045414497 -8.67121420218669E-07 2.44594792842874E-06
5 -1.54628054403636E-07 -1.18242981404922E-06 -0.412342408367382 -0.545820903376243 -0.412342408367382 -0.545820903376243 -9.72062675449405E-07 2.81509954898268E-06
5.05 -4.96676042287101E-07 -1.49149259298737E-06 -0.474251005846897 -0.528209583776066 -0.474251005846897 -0.528209583776066 -1.02993674072681E-06 3.20735672457802E-06
5.1 -8.98086694975736E-07 -1.74185610573987E-06 -0.517386795847181 -0.486404587133567 -0.517386795847181 -0.486404587133567 -1.03621917019071E-06 3.61575554060071E-06
5.15 -1.34770677435316E-06 -1.92334631852764E-06 -0.536420849646535 -0.424917482497707 -0.536420849646535 -0.424917482497707 -9.87255678499029E-07 4.03229591955512E-06
5.2 -1.83287580622334E-06 -2.02781198712407E-06 -0.573950632358066 -0.380417712929246 -0.573950632358066 -0.380417712929246 -8.80567340179468E-07 4.44858261487282E-06
5.25 -2.33971539436063E-06 -2.04945352315738E-06 -0.606075932925123 -0.331682534075662 -0.606075932925123 -0.331682534075662 -7.15490272088565E-07 4.85555083799969E-06
5.3 -2.85349133441547E-06 -1.98494978063765E-06 -0.648944921957242 -0.286824753004812 -0.648944921957242 -0.286824753004812 -4.92572307347629E-07 5.24375315927891E-06
5.35 -3.35915589943211E-06 -1.83352026646831E-06 -0.657250317299974 -0.226313526144286 -0.657250317299975 -0.226313526144286 -2.14110619464719E-07 5.6040992852091E-06
5.4 -3.84172942409959E-06 -1.59703746440335E-06 -0.663892436905238 -0.167459214006374 -0.663892436905238 -0.167459214006374 1.15815417821245E-07 5.92758739879008E-06
5.45 -4.28675104091337E-06 -1.27990341399698E-06 -0.688550509683427 -0.112933344635465 -0.688550509683427 -0.112933344635465 4.91964066392632E-07 6.20593130131832E-06
5.5 -4.68077203011317E-06 -8.88973717777351E-07 -0.687303976825952 -0.053767630443578 -0.687303976825952 -0.053767630443578 9.07286619982675E-07 6.43183126068278E-06
5.55 -5.0116860568501E-06 -4.33402253050989E-07 -0.681549863726643 0.00436864412707106 -0.681549863726643 0.00436864412707106 1.35378373101579E-06 6.59886819764859E-06
5.6 -5.2690797751344E-06 7.57481117277603E-08 -0.674020892562873 0.0614200743945818 -0.674020892562873 0.0614200743945818 1.82237471523408E-06 6.70230203482671E-06
5.65 -5.44460010677674E-06 6.25745952537831E-07 -0.694723554038561 0.123064369514307 -0.694723554038561 0.123064369514307 2.30295213657392E-06 6.73863990886092E-06
5.7 -5.53216848873829E-06 1.20256625845894E-06 -0.650555717513657 0.172893111639953 -0.650555717513657 0.172893111639953 2.78522385088816E-06 6.70603055020767E-06
5.75 -5.52816156184016E-06 1.79130330515508E-06 -0.632031582378374 0.226550312684204 -0.632031582378374 0.226550312684204 3.25845694028052E-06 6.60432128648356E-06
5.8 -5.43160395661859E-06 2.37655830736213E-06 -0.627323439009606 0.286636644782262 -0.627323439009607 0.286636644782262 3.71241692119434E-06 6.43511785434669E-06
