# GHZ S RI R 50
0.5 0.0001 0.0001 0.957222119699969 0 0.957222119699969 0 0.0001 0.0001
0.55 0.0001 0.0001 0.815035434942898 0 0.815035434942898 0 0.0001 0.0001
0.6 0.0001 0.0001 0.844985154913272 0 0.844985154913272 0 0.0001 0.0001
0.65 0.0001 0.0001 0.914469938859573 0 0.914469938859573 0 0.0001 0.0001
0.7 0.0001 0.0001 0.896971264446661 0 0.896971264446661 0 0.0001 0.0001
0.75 0.0001 0.0001 0.875331439300875 0 0.875331439300875 0 0.0001 0.0001
0.8 0.0001 0.0001 0.851856459115916 0 0.851856459115916 0 0.0001 0.0001
0.85 0.0001 0.0001 0.896949992221992 0 0.896949992221992 0 0.0001 0.0001
0.9 0.0001 0.0001 0.868378511973625 0 0.868378511973625 0 0.0001 0.0001
0.95 0.0001 0.0001 0.870378465775906 0 0.870378465775906 0 0.0001 0.0001
1 0.0001 0.0001 0.862940011325222 0 0.862940011325222 0 0.0001 0.0001
1.05 0.0001 0.0001 0.869644653319123 0 0.869644653319123 0 0.0001 0.0001
1.1 0.0001 0.0001 0.890905965992764 0 0.890905965992764 0 0.0001 0.0001
1.15 0.0001 0.0001 0.879058721530043 0 0.879058721530043 0 0.0001 0.0001
1.2 0.0001 0.0001 0.875877693782335 0 0.875877693782335 0 0.0001 0.0001
1.25 0.0001 0.0001 0.89279016470694 0 0.89279016470694 0 0.0001 0.0001
1.3 0.0001 0.0001 0.887999075704663 0 0.887999075704663 0 0.0001 0.0001
1.35 0.0001 0.0001 0.863640856569498 0 0.863640856569498 0 0.0001 0.0001
1.4 0.0001 0.0001 0.883376262995996 0 0.883376262995996 0 0.0001 0.0001
1.45 0.0001 0.0001 0.873763598121259 0 0.873763598121259 0 0.0001 0.0001
1.5 0.0001 0.0001 0.852681233958882 0 0.852681233958882 0 0.0001 0.0001
1.55 0.0001 0.0001 0.852129049935217 0 0.852129049935217 0 0.0001 0.0001
1.6 0.0001 0.0001 0.849186994154679 0 0.849186994154679 0 0.0001 0.0001
1.65 0.0001 0.0001 0.853414225441368 0 0.853414225441368 0 0.0001 0.0001
1.7 0.0001 0.0001 0.85607893191571 0 0.85607893191571 0 0.0001 0.0001
1.75 0.0001 0.0001 0.843596515235742 0 0.843596515235742 0 0.0001 0.0001
1.8 0.0001 0.0001 0.842704838560864 0 0.842704838560864 0 0.0001 0.0001
1.85 0.0001 0.0001 0.843442589247089 0 0.843442589247089 0 0.0001 0.0001
1.9 0.0001 0.0001 0.846257326068077 0 0.846257326068077 0 0.0001 0.0001
1.95 0.0001 0.0001 0.827904951848437 0 0.827904951848437 0 0.0001 0.0001
2 0.0001 0.0001 0.844643252385508 0 0.844643252385508 0 0.0001 0.0001
2.05 0.0001 0.0001 0.829712934202404 0 0.829712934202404 0 0.0001 0.0001
2.1 0.0001 0.0001 0.823126701535556 0 0.823126701535556 0 0.0001 0.0001
2.15 0.0001 0.0001 0.810205309938431 0 0.810205309938431 0 0.0001 0.0001
2.2 0.0001 0.0001 0.823122363505439 0 0.823122363505439 0 0.0001 0.0001
2.25 0.0001 0.0001 0.835348238867974 0 0.835348238867974 0 0.0001 0.0001
2.3 0.0001 0.0001 0.821532931710322 0 0.821532931710322 0 0.0001 0.0001
2.35 0.0001 0.0001 0.822976691269617 0 0.822976691269617 0 0.0001 0.0001
2.4 0.0001 0.0001 0.823616684505351 0 0.823616684505351 0 0.0001 0.0001
2.45 0.0001 0.0001 0.815154103977499 0 0.815154103977499 0 0.0001 0.0001
2.5 0.0001 0.0001 0.808698533253409 0 0.808698533253409 0 0.0001 0.0001
2.55 0.0001 0.0001 0.810464572548786 0 0.810464572548786 0 0.0001 0.0001
2.6 0.0001 0.0001 0.811429394526228 0 0.811429394526228 0 0.0001 0.0001
2.65 0.0001 0.0001 0.802574081287815 0 0.802574081287815 0 0.0001 0.0001
2.7 0.0001 0.0001 0.805167382566978 0 0.805167382566978 0 0.0001 0.0001
2.75 0.0001 0.0001 0.814774710141898 0 0.814774710141898 0 0.0001 0.0001
2.8 0.0001 0.0001 0.794281663859199 0 0.794281663859199 0 0.0001 0.0001
2.85 0.0001 0.0001 0.784583736189471 0 0.784583736189471 0 0.0001 0.0001
2.9 0.0001 0.0001 0.812728497239835 0 0.812728497239835 0 0.0001 0.0001
2.95 0.0001 0.0001 0.796746862766023 0 0.796746862766023 0 0.0001 0.0001
3 0.0001 0.0001 0.812649082694229 0 0.812649082694229 0 0.0001 0.0001
3.05 0.0001 0.0001 0.812483675514426 0 0.812483675514426 0 0.0001 0.0001
3.1 0.0001 0.0001 0.797547702121022 0 0.797547702121022 0 0.0001 0.0001
3.15 0.0001 0.0001 0.797379065142616 0 0.797379065142616 0 0.0001 0.0001
3.2 0.0001 0.0001 0.81056744645029 0 0.81056744645029 0 0.0001 0.0001
3.25 0.0001 0.0001 0.80381222997226 0 0.80381222997226 0 0.0001 0.0001
3.3 0.0001 0.0001 0.815533495390695 0 0.815533495390695 0 0.0001 0.0001
3.35 0.0001 0.0001 0.805823253670879 0 0.805823253670879 0 0.0001 0.0001
3.4 0.0001 0.0001 0.805747433289423 0 0.805747433289423 0 0.0001 0.0001
3.45 0.0001 0.0001 0.795908166437817 0 0.795908166437817 0 0.0001 0.0001
3.5 0.0001 0.0001 0.789850624287429 0 0.789850624287429 0 0.0001 0.0001
3.55 0.0001 0.0001 0.796390691007396 0 0.796390691007396 0 0.0001 0.0001
3.6 0.0001 0.0001 0.780297452526509 0 0.780297452526509 0 0.0001 0.0001
3.65 0.0001 0.0001 0.797114308755073 0 0.797114308755073 0 0.0001 0.0001
3.7 0.0001 0.0001 0.760465658976318 0 0.760465658976318 0 0.0001 0.0001
3.75 0.0001 0.0001 0.780513704997353 0 0.780513704997353 0 0.0001 0.0001
3.8 0.0001 0.0001 0.766994638071155 0 0.766994638071155 0 0.0001 0.0001
3.85 0.0001 0.0001 0.778075991125364 0 0.778075991125364 0 0.0001 0.0001
3.9 0.0001 0.0001 0.766208157174674 0 0.766208157174674 0 0.0001 0.0001
3.95 0.0001 0.0001 0.776824090497431 0 0.776824090497431 0 0.0001 0.0001
4 0.0001 0.0001 0.779523657402093 0 0.779523657402093 0 0.0001 0.0001
4.05 0.0001 0.0001 0.756669038665397 0 0.756669038665397 0 0.0001 0.0001
4.1 0.0001 0.0001 0.749857324050072 0 0.749857324050072 0 0.0001 0.0001
4.15 0.0001 0.0001 0.798700045096662 0 0.798700045096662 0 0.0001 0.0001
4.2 0.0001 0.0001 0.779665918358765 0 0.779665918358765 0 0.0001 0.0001
4.25 0.0001 0.0001 0.751550480127584 0 0.751550480127584 0 0.0001 0.0001
4.3 0.0001 0.0001 0.773501585684518 0 0.773501585684518 0 0.0001 0.0001
4.35 0.0001 0.0001 0.773968146716299 0 0.773968146716299 0 0.0001 0.0001
4.4 0.0001 0.0001 0.763730274055328 0 0.763730274055328 0 0.0001 0.0001
4.45 0.0001 0.0001 0.742666963784632 0 0.742666963784632 0 0.0001 0.0001
4.5 0.0001 0.0001 0.752254185102341 0 0.752254185102341 0 0.0001 0.0001
4.55 0.0001 0.0001 0.762797879767732 0 0.762797879767732 0 0.0001 0.0001
4.6 0.0001 0.0001 0.753572222909925 0 0.753572222909925 0 0.0001 0.0001
4.65 0.0001 0.0001 0.762215188422078 0 0.762215188422078 0 0.0001 0.0001
4.7 0.0001 0.0001 0.745503986686244 0 0.745503986686244 0 0.0001 0.0001
4.75 0.0001 0.0001 0.750299572928535 0 0.750299572928535 0 0.0001 0.0001
4.8 0.0001 0.0001 0.738685392276441 0 0.738685392276441 0 0.0001 0.0001
4.85 0.0001 0.0001 0.747491572032896 0 0.747491572032896 0 0.0001 0.0001
4.9 0.0001 0.0001 0.768724464038283 0 0.768724464038283 0 0.0001 0.0001
4.95 0.0001 0.0001 0.750883048325278 0 0.750883048325278 0 0.0001 0.0001
5 0.0001 0.0001 0.736999694853719 0 0.736999694853719 0 0.0001 0.0001
5.05 0.0001 0.0001 0.748888418412225 0 0.748888418412225 0 0.0001 0.0001
5.1 0.0001 0.0001 0.759989497141311 0 0.759989497141311 0 0.0001 0.0001
5.15 0.0001 0.0001 0.748187697687507 0 0.748187697687507 0 0.0001 0.0001
5.2 0.0001 0.0001 0.724787994329993 0 0.724787994329993 0 0.0001 0.0001
5.25 0.0001 0.0001 0.74331909446846 0 0.74331909446846 0 0.0001 0.0001
5.3 0.0001 0.0001 0.748148103458635 0 0.748148103458635 0 0.0001 0.0001
5.35 0.0001 0.0001 0.734655310011146 0 0.734655310011146 0 0.0001 0.0001
5.4 0.0001 0.0001 0.718261387764078 0 0.718261387764078 0 0.0001 0.0001
5.45 0.0001 0.0001 0.757613905075408 0 0.757613905075408 0 0.0001 0.0001
5.5 0.0001 0.0001 0.733997079866798 0 0.733997079866798 0 0.0001 0.0001
5.55 0.0001 0.0001 0.70843440500024 0 0.70843440500024 0 0.0001 0.0001
5.6 0.0001 0.0001 0.733515794223763 0 0.733515794223763 0 0.0001 0.0001
5.65 0.0001 0.0001 0.735197397745422 0 0.735197397745422 0 0.0001 0.0001
5.7 0.0001 0.0001 0.692442507511723 0 0.692442507511723 0 0.0001 0.0001
5.75 0.0001 0.0001 0.705296292809918 0 0.705296292809918 0 0.0001 0.0001
5.8 0.0001 0.0001 0.759236207531361 0 0.759236207531361 0 0.0001 0.0001
