# GHZ S RI R 50
0.5 1.10820962438015E-06 4.18143516403071E-06 0.626030245379479 -0.713200100876634 0.626030245379479 -0.713200100876634 4.39069936987588E-06 4.78211218233448E-06
0.55 1.73770437545516E-06 4.39453250928464E-06 0.479191733549423 -0.64982427127736 0.479191733549423 -0.64982427127736 4.6123441112591E-06 4.83022687615096E-06
0.6 2.41136761087102E-06 4.50793115337649E-06 0.437484056650764 -0.712900950552556 0.437484056650764 -0.712900950552556 4.85604918193124E-06 4.84887304770048E-06
0.65 3.11126024189638E-06 4.51472117647408E-06 0.405957690245672 -0.808315461297327 0.405957690245672 -0.808315461297326 5.11730628390769E-06 4.83388231475097E-06
0.7 3.81863193868963E-06 4.41097390773151E-06 0.329218114791639 -0.823164570334586 0.329218114791638 -0.823164570334585 5.39115236584898E-06 4.78144056996424E-06
0.75 4.51444158761685E-06 4.19607267281242E-06 0.251762181023163 -0.827057335289832 0.251762181023163 -0.827057335289832 5.67217885961668E-06 4.68904084172001E-06
0.8 5.1797376993639E-06 3.87249647718162E-06 0.175704226846974 -0.822160404149593 0.175704226846974 -0.822160404149593 5.95405408047252E-06 4.55488765888523E-06
0.85 5.79643032936228E-06 3.44582577042561E-06 0.110812588550197 -0.877621130745779 0.110812588550197 -0.877621130745779 6.23049171028348E-06 4.37798731607923E-06
0.9 6.34759320142565E-06 2.9246424469756E-06 0.034791403825913 -0.855092766171606 0.034791403825913 -0.855092766171605 6.49474850163185E-06 4.15881675593406E-06
0.95 6.81803127563316E-06 2.32010551283123E-06 -0.0379287352644678 -0.856328443726575 -0.0379287352644678 -0.856328443726575 6.74013673445794E-06 3.89848406443308E-06
1 7.19479013440113E-06 1.6457624349999E-06 -0.109406518650546 -0.842177368456082 -0.109406518650546 -0.842177368456082 6.96054935752468E-06 3.59949178564027E-06
1.05 7.46735246539677E-06 9.17193278493358E-07 -0.181720065038067 -0.835741346502596 -0.181720065038067 -0.835741346502596 7.14989900971605E-06 3.26552300505491E-06
1.1 7.62801541337536E-06 1.51383727823562E-07 -0.257932847534668 -0.836739192099349 -0.257932847534668 -0.836739192099349 7.30289276082957E-06 2.90079795445518E-06
1.15 7.67211815778161E-06 -6.33583306636795E-07 -0.323392469589877 -0.800525596561133 -0.323392469589878 -0.800525596561134 7.41507354807139E-06 2.51052828385701E-06
1.2 7.59815540965682E-06 -1.4191530613828E-06 -0.388454818777801 -0.766930435991378 -0.388454818777801 -0.766930435991378 7.48299591117908E-06 2.10060352561356E-06
1.25 7.4078075264008E-06 -2.18675086879746E-06 -0.460532662628212 -0.744866794911929 -0.460532662628212 -0.744866794911929 7.50413689121046E-06 1.67730806923169E-06
1.3 7.10582795100278E-06 -2.91837845043975E-06 -0.518916627606851 -0.698912650081086 -0.518916627606851 -0.698912650081086 7.47698207642905E-06 1.24696240021234E-06
1.35 6.70005710212616E-06 -3.59710555587551E-06 -0.560165357894833 -0.634095802100406 -0.560165357894833 -0.634095802100406 7.40141047098598E-06 8.1613722940824E-07
1.4 6.20103756781736E-06 -4.20744667549533E-06 -0.625525752375772 -0.597287337645455 -0.625525752375772 -0.597287337645455 7.27778049127396E-06 3.91262139727307E-07
1.45 5.62169959791374E-06 -4.73593191624341E-06 -0.666192619677164 -0.535856406973828 -0.666192619677164 -0.535856406973828 7.10739797827485E-06 -2.20025928720162E-08
1.5 4.9771102109083E-06 -5.17145186881604E-06 -0.691712898257509 -0.465620138361956 -0.691712898257509 -0.465620138361956 6.89251062239013E-06 -4.18317140459864E-07
1.55 4.28401731942551E-06 -5.50552430710527E-06 -0.727807234209661 -0.404765211610724 -0.727807234209661 -0.404765211610724 6.63587995702881E-06 -7.92761730781656E-07
1.6 3.5603292493507E-06 -5.73256583709967E-06 -0.756445491990291 -0.340188362968179 -0.756445491990291 -0.340188362968179 6.34070873346743E-06 -1.14108032670411E-06
1.65 2.82458465166545E-06 -5.84996469698357E-06 -0.786005554596431 -0.275998659322175 -0.786005554596431 -0.275998659322175 6.01033917823542E-06 -1.45977512334674E-06
1.7 2.09550233057296E-06 -5.85831168964134E-06 -0.808624792954897 -0.208853242076044 -0.808624792954897 -0.208853242076044 5.64848030139549E-06 -1.74574765902605E-06
1.75 1.39146794372148E-06 -5.76119611919245E-06 -0.810940768740944 -0.137386787600094 -0.810940768740944 -0.137386787600094 5.25864171884331E-06 -1.99629087576235E-06
1.8 7.29817908433977E-07 -5.56509552830957E-06 -0.818320856040411 -0.0679828257030353 -0.818320856040411 -0.0679828257030353 4.84420949182232E-06 -2.20944401056932E-06
1.85 1.26547741458145E-07 -5.27936893238521E-06 -0.821368692149466 0.00168655076097355 -0.821368692149466 0.00168655076097355 4.4087516756344E-06 -2.38330044335727E-06
1.9 -4.04178175982232E-07 -4.91577743705508E-06 -0.820505473709934 0.071559481362545 -0.820505473709934 0.071559481362545 3.95555035704735E-06 -2.5160974078761E-06
1.95 -8.50501306552884E-07 -4.48821218622335E-06 -0.793402402049037 0.137774054885795 -0.793402402049037 0.137774054885795 3.48797337093303E-06 -2.60618094294238E-06
2 -1.20310831679216E-06 -4.01222116402375E-06 -0.794120749604891 0.20859983280633 -0.794120749604891 0.20859983280633 3.00929516591349E-06 -2.65187199694252E-06
2.05 -1.45512245734604E-06 -3.5044573946452E-06 -0.759378359412953 0.270174981320926 -0.759378359412953 0.270174981320926 2.5229957066637E-06 -2.6515780132032E-06
2.1 -1.60361067283897E-06 -2.98263053866925E-06 -0.727408623562433 0.330756513512316 -0.727408623562433 0.330756513512316 2.03300998517771E-06 -2.60348955166279E-06
2.15 -1.64809223443741E-06 -2.46430890225137E-06 -0.685329644585506 0.384876063059981 -0.685329644585505 0.38487606305998 1.54349406904271E-06 -2.50592331709098E-06
2.2 -1.59113108841162E-06 -1.96675078065142E-06 -0.660130669974466 0.448369180663566 -0.660130669974466 0.448369180663566 1.05927523133553E-06 -2.35738211963087E-06
2.25 -1.43809146010984E-06 -1.50652145914198E-06 -0.628494910403977 0.509877656913141 -0.628494910403976 0.509877656913141 5.85737347275234E-07 -2.15656236721615E-06
2.3 -1.1970907096586E-06 -1.09891236525247E-06 -0.572945862311116 0.551696606790186 -0.572945862311116 0.551696606790186 1.28870644429614E-07 -1.90277453107935E-06
2.35 -8.7880106013097E-07 -7.57640198998622E-07 -0.524644451546458 0.598950093496054 -0.524644451546458 0.598950093496054 -3.04641434192039E-07 -1.59596637191201E-06
2.4 -4.95965290095465E-07 -4.94330475169222E-07 -0.471991142250773 0.641347181617085 -0.471991142250773 0.641347181617085 -7.07651757390127E-07 -1.237010307999E-06
2.45 -6.31889407687687E-08 -3.18228331998673E-07 -0.411334658110529 0.671620042862801 -0.411334658110529 0.671620042862801 -1.07260584765108E-06 -8.27935680882463E-07
2.5 4.03648913596069E-07 -2.35983381826645E-07 -0.349853864129879 0.698012901724436 -0.349853864129879 0.698012901724436 -1.39169925234388E-06 -3.7202792536098E-07
2.55 8.87712053403091E-07 -2.51397083691907E-07 -0.289830559106351 0.726226289435671 -0.289830559106351 0.72622628943567 -1.657295673657E-06 1.26055002450945E-07
2.6 1.37163961204087E-06 -3.65477501269202E-07 -0.227321749871972 0.74852904228313 -0.227321749871972 0.74852904228313 -1.86215675578592E-06 6.60078492477132E-07
2.65 1.83827275250629E-06 -5.76260073293519E-07 -0.161155193837261 0.756195711503525 -0.161155193837261 0.756195711503525 -1.99963537890825E-06 1.22240892797361E-06
2.7 2.27084327370093E-06 -8.78864877882815E-07 -0.0967278052722819 0.769035799636952 -0.0967278052722819 0.769035799636952 -2.06431274144834E-06 1.80400504002593E-06
2.75 2.65372933535185E-06 -1.26581140170757E-06 -0.0315682548664394 0.783113194753162 -0.0315682548664394 0.783113194753162 -2.05186857306787E-06 2.39457013451901E-06
2.8 2.97284615109571E-06 -1.72695845486646E-06 0.033978266979469 0.762694554281311 0.033978266979469 0.762694554281311 -1.95979492322448E-06 2.98300584124853E-06
2.85 3.21584203986153E-06 -2.25000225185459E-06 0.0971682432837554 0.747255194978798 0.0971682432837554 0.747255194978798 -1.78760884340441E-06 3.55714445957206E-06
2.9 3.3728328296636E-06 -2.82090748594717E-06 0.16569602317342 0.762166245151399 0.16569602317342 0.762166245151399 -1.53627136961947E-06 4.10487386004593E-06
2.95 3.43637963447712E-06 -3.42404276511955E-06 0.224916137191115 0.730178195979358 0.224916137191115 0.730178195979358 -1.2094830439928E-06 4.61421046925259E-06
3 3.40174036435172E-06 -4.04300148933977E-06 0.291365915314065 0.722105170462688 0.291365915314065 0.722105170462688 -8.12674333918806E-07 5.0732528130227E-06
3.05 3.26714832260886E-06 -4.66082413862911E-06 0.351051245482657 0.694188104444967 0.351051245482657 0.694188104444967 -3.53342235475014E-07 5.47143127253713E-06
3.1 3.03352619391706E-06 -5.26056453406973E-06 0.400667804103298 0.649342941922894 0.400667804103298 0.649342941922892 1.58941786814757E-07 5.79901567730962E-06
3.15 2.70480390657742E-06 -5.82599799446282E-06 0.453672650561247 0.612548012618757 0.453672650561247 0.612548012618757 7.13749755172079E-07 6.04824042712176E-06
3.2 2.2875933163224E-06 -6.34165510129803E-06 0.511750605983909 0.581037546960243 0.511750605983909 0.581037546960243 1.29867415716386E-06 6.21321381837831E-06
3.25 1.79081155762891E-06 -6.79356969039753E-06 0.553926512292159 0.53086449623178 0.553926512292159 0.53086449623178 1.90070099269217E-06 6.28963062775291E-06
3.3 1.2257300754432E-06 -7.16965827475871E-06 0.605031689681282 0.488855903156173 0.605031689681282 0.488855903156173 2.50643639035529E-06 6.27580417428425E-06
3.35 6.05406538206071E-07 -7.45988622788642E-06 0.63601110801786 0.430522017839115 0.63601110801786 0.430522017839115 3.10216712398113E-06 6.1719183904134E-06
3.4 -5.56270058357419E-08 -7.65681537244539E-06 0.669539818071442 0.374996529718073 0.669539818071442 0.374996529718073 3.67505143247329E-06 5.98061342324347E-06
3.45 -7.41704146262355E-07 -7.75551066695437E-06 0.689783120653078 0.313062844194409 0.689783120653078 0.313062844194409 4.21224700697251E-06 5.70651473436358E-06
3.5 -1.43671704946782E-06 -7.75373209076877E-06 0.70782430747463 0.251641126668776 0.70782430747463 0.251641126668776 4.70207150369299E-06 5.35555562904615E-06
3.55 -2.12439190470226E-06 -7.65214956642848E-06 0.732060253146587 0.192481587807957 0.732060253146587 0.192481587807957 5.13427092126513E-06 4.93577449951731E-06
3.6 -2.78876468886448E-06 -7.45415177530776E-06 0.730146984921233 0.127331332219084 0.730146984921233 0.127331332219084 5.49965676798571E-06 4.45633184103244E-06
3.65 -3.41476392289678E-06 -7.1658067502983E-06 0.753721704789119 0.0666553117742479 0.753721704789119 0.0666553117742479 5.79096055744704E-06 3.92735410455659E-06
3.7 -3.9884964919148E-06 -6.79567101338467E-06 0.721426365959552 0.0027129970657906 0.721426365959552 0.0027129970657906 6.00232169293639E-06 3.35983473708816E-06
3.75 -4.49772177350286E-06 -6.3544714787664E-06 0.737599974539996 -0.0596402165132603 0.737599974539996 -0.0596402165132603 6.12951369684061E-06 2.76523781291777E-06
3.8 -4.9322076970223E-06 -5.85488511573248E-06 0.716879113653585 -0.11946114980403 0.716879113653584 -0.11946114980403 6.16990293395839E-06 2.1552220887392E-06
3.85 -5.28395097550361E-06 -5.31105858485133E-06 0.714014983683772 -0.181987995038893 0.714014983683772 -0.181987995038893 6.12235662777726E-06 1.54139399710819E-06
3.9 -5.54748492095672E-06 -4.73828465839351E-06 0.685118025635787 -0.237745115437097 0.685118025635787 -0.237745115437097 5.98719174517186E-06 9.35398755153906E-07
3.95 -5.719970422713E-06 -4.15254256034008E-06 0.671432227478818 -0.298604863132194 0.671432227478818 -0.298604863132194 5.7660440918663E-06 3.48410976096238E-07
4 -5.80132311169691E-06 -3.57000111382417E-06 0.645735454030143 -0.355215864700207 0.645735454030143 -0.355215864700207 5.46192564868601E-06 -2.08679426482906E-07
4.05 -5.79416447412975E-06 -3.00659003729815E-06 0.595159520541306 -0.396235528882855 0.595159520541306 -0.396235528882855 5.07889566569047E-06 -7.2535848333885E-07
4.1 -5.70376821677798E-06 -2.47749257025776E-06 0.554272614467002 -0.440791725305673 0.554272614467002 -0.440791725305673 4.62217074100165E-06 -1.19173234056095E-06
4.15 -5.53787794531706E-06 -1.99674173808165E-06 0.548362222284824 -0.517364178955102 0.548362222284824 -0.517364178955102 4.09796914780636E-06 -1.59838504725717E-06
4.2 -5.30642407232212E-06 -1.57673089797164E-06 0.490505466594637 -0.548108164018496 0.490505466594637 -0.548108164018496 3.51348448938343E-06 -1.93667567438219E-06
4.25 -5.02135488890532E-06 -1.22789534077549E-06 0.42631384041602 -0.566053052025268 0.42631384041602 -0.566053052025268 2.87706010899997E-06 -2.19855406978612E-06
4.3 -4.69617503675628E-06 -9.58461983542566E-07 0.387820261356755 -0.617201084169072 0.387820261356755 -0.617201084169072 2.1979045084785E-06 -2.37679742957495E-06
4.35 -4.34548040811924E-06 -7.7408481292745E-07 0.334359481432574 -0.647764205275728 0.334359481432574 -0.647764205275728 1.48631833954742E-06 -2.46512541967488E-06
4.4 -3.98461272001181E-06 -6.77808336333371E-07 0.274651031696324 -0.66439015979158 0.274651031696324 -0.66439015979158 7.53534594119971E-07 -2.45826592340747E-06
4.45 -3.62904491971822E-06 -6.70091460745354E-07 0.211465110196446 -0.665922920318366 0.211465110196446 -0.665922920318366 1.16591911061357E-08 -2.3522830886342E-06
4.5 -3.29412903540098E-06 -7.48665801674109E-07 0.156398035132419 -0.689787765571496 0.156398035132419 -0.689787765571496 -7.26317177608916E-07 -2.14456640692658E-06
4.55 -2.99471150139562E-06 -9.08705873628449E-07 0.0989178832991329 -0.709918757153625 0.0989178832991329 -0.709918757153625 -1.4467961832854E-06 -1.83418527184304E-06
4.6 -2.74458972651138E-06 -1.14284428336966E-06 0.0381444508277038 -0.706640271094715 0.0381444508277038 -0.706640271094715 -2.13561046272748E-06 -1.42197149483215E-06
4.65 -2.55617222000857E-06 -1.44134558268807E-06 -0.0218766523924023 -0.714994052424803 -0.0218766523924023 -0.714994052424803 -2.77845817376038E-06 -9.10719650967793E-07
4.7 -2.44004731730136E-06 -1.79249924796912E-06 -0.0802966520665526 -0.694559094534717 -0.0802966520665526 -0.694559094534717 -3.36095167049438E-06 -3.05400596137685E-07
4.75 -2.40460149729918E-06 -2.18282557505676E-06 -0.139428772293864 -0.6892442967467 -0.139428772293864 -0.6892442967467 -3.86913123186842E-06 3.87013445559503E-07
4.8 -2.45589765309179E-06 -2.59754427925546E-06 -0.193910075994742 -0.664106003009347 -0.193910075994742 -0.664106003009347 -4.28979076049583E-06 1.1571914118895E-06
4.85 -2.59735160939882E-06 -3.02102628161069E-06 -0.252042837165641 -0.652600530087788 -0.252042837165641 -0.652600530087788 -4.61080948338727E-06 1.993808740792E-06
4.9 -2.82970278016423E-06 -3.43714008375404E-06 -0.314661310185143 -0.646401664241761 -0.314661310185143 -0.646401664241761 -4.82178904921221E-06 2.88339736776028E-06
4.95 -3.15102782366075E-06 -3.82984675689739E-06 -0.359241035322245 -0.602770573929282 -0.359241035322245 -0.602770573929282 -4.91384876486197E-06 3.81062115212469E-06
5 -3.55664902047533E-06 -4.18363355644633E-06 -0.400914154376267 -0.55935621969099 -0.400914154376267 -0.55935621969099 -4.88026024954212E-06 4.75889652626881E-06
5.05 -4.03937299610518E-06 -4.483893948016E-06 -0.453479533831609 -0.531599366958297 -0.453479533831609 -0.531599366958297 -4.71689795151391E-06 5.71045355299257E-06
5.1 -4.58960673325555E-06 -4.71744210470514E-06 -0.503615219277266 -0.498385150091002 -0.503615219277265 -0.498385150091002 -4.42265546177633E-06 6.64657725506173E-06
5.15 -5.19561212359057E-06 -4.87282392937571E-06 -0.534922596286314 -0.446780452130987 -0.534922596286314 -0.446780452130987 -3.99921697980629E-06 7.54795306594819E-06
5.2 -5.84397439135557E-06 -4.94066926053457E-06 -0.552339127270201 -0.387325641626554 -0.552339127270201 -0.387325641626554 -3.45065466147601E-06 8.39572947348558E-06
5.25 -6.51988780869816E-06 -4.91403137550721E-06 -0.59739014749787 -0.347861916082264 -0.59739014749787 -0.347861916082264 -2.78450817334837E-06 9.17186081649161E-06
5.3 -7.20756559339211E-06 -4.78856174927206E-06 -0.628077548795914 -0.298056678828394 -0.628077548795913 -0.298056678828394 -2.01080360202465E-06 9.85902491745947E-06
5.35 -7.890727290967E-06 -4.56252578318304E-06 -0.638656138030204 -0.239590065299363 -0.638656138030204 -0.239590065299363 -1.14186616638668E-06 1.04417079305626E-05
5.4 -8.55305983711668E-06 -4.23699685258365E-06 -0.641367370323361 -0.180788309663409 -0.641367370323361 -0.180788309663409 -1.92848356318682E-07 1.09062516786149E-05
5.45 -9.17862232567971E-06 -3.81570106445153E-06 -0.689591665327339 -0.133077377911506 -0.689591665327339 -0.133077377911506 8.19560819178337E-07 1.12408494515867E-05
5.5 -9.75237920216643E-06 -3.3049920125961E-06 -0.676041282983278 -0.0723098851492508 -0.676041282983278 -0.0723098851492508 1.87676967584969E-06 1.14366819056319E-05
5.55 -1.02605388024558E-05 -2.71371057477436E-06 -0.655561664472611 -0.0147564919680417 -0.655561664472611 -0.0147564919680417 2.95878032720053E-06 1.1487292411399E-05
5.6 -1.06909215231525E-05 -2.05279133517476E-06 -0.677169372773027 0.0417089031400733 -0.677169372773027 0.0417089031400733 4.04500973225492E-06 1.13892716000093E-05
5.65 -1.10333518108443E-05 -1.33506306690692E-06 -0.672355294166945 0.0985315551972517 -0.672355294166945 0.0985315551972517 5.1139541738077E-06 1.11423538504513E-05
5.7 -1.12798911437788E-05 -5.74885370288948E-07 -0.622827859772823 0.145492765325908 -0.622827859772823 0.145492765325908 6.14436831115109E-06 1.0749025545351E-05
5.75 -1.14250838450781E-05 2.12284294981697E-07 -0.619339664532584 0.200744096048131 -0.619339664532584 0.200744096048131 7.11546603592053E-06 1.0214975206529E-05
5.8 -1.14661425903286E-05 1.01024131803244E-06 -0.645858735357679 0.271075091483443 -0.645858735357679 0.271075091483443 8.00747605763605E-06 9.54878473762556E-06
