# GHZ S RI R 50
0.5 0.0001 0.0001 0.0054070752989287 0 0.0054070752989287 0 0.0001 0.0001
0.55 0.0001 0.0001 0.00690842008921432 0 0.00690842008921432 0 0.0001 0.0001
0.6 0.0001 0.0001 0.00681157835802761 0 0.00681157835802761 0 0.0001 0.0001
0.65 0.0001 0.0001 0.00743411323246364 0 0.00743411323246364 0 0.0001 0.0001
0.7 0.0001 0.0001 0.00840285815504208 0 0.00840285815504208 0 0.0001 0.0001
0.75 0.0001 0.0001 0.00861032020199537 0 0.00861032020199537 0 0.0001 0.0001
0.8 0.0001 0.0001 0.00880128587009161 0 0.00880128587009161 0 0.0001 0.0001
0.85 0.0001 0.0001 0.00968856507105446 0 0.00968856507105446 0 0.0001 0.0001
0.9 0.0001 0.0001 0.0100074952738483 0 0.0100074952738483 0 0.0001 0.0001
0.95 0.0001 0.0001 0.0104753810645339 0 0.0104753810645339 0 0.0001 0.0001
1 0.0001 0.0001 0.0111973087927662 0 0.0111973087927662 0 0.0001 0.0001
1.05 0.0001 0.0001 0.0118441961849626 0 0.0118441961849626 0 0.0001 0.0001
1.1 0.0001 0.0001 0.0120588286022911 0 0.0120588286022911 0 0.0001 0.0001
1.15 0.0001 0.0001 0.0126331366058943 0 0.0126331366058943 0 0.0001 0.0001
1.2 0.0001 0.0001 0.0134717820731098 0 0.0134717820731098 0 0.0001 0.0001
1.25 0.0001 0.0001 0.0135796806505126 0 0.0135796806505126 0 0.0001 0.0001
1.3 0.0001 0.0001 0.0140568864695705 0 0.0140568864695705 0 0.0001 0.0001
1.35 0.0001 0.0001 0.0144140812046546 0 0.0144140812046546 0 0.0001 0.0001
1.4 0.0001 0.0001 0.0149918311749623 0 0.0149918311749623 0 0.0001 0.0001
1.45 0.0001 0.0001 0.0150926561710807 0 0.0150926561710807 0 0.0001 0.0001
1.5 0.0001 0.0001 0.0157363356458257 0 0.0157363356458257 0 0.0001 0.0001
1.55 0.0001 0.0001 0.0157644891199235 0 0.0157644891199235 0 0.0001 0.0001
1.6 0.0001 0.0001 0.0162384148568082 0 0.0162384148568082 0 0.0001 0.0001
1.65 0.0001 0.0001 0.0166434692645491 0 0.0166434692645491 0 0.0001 0.0001
1.7 0.0001 0.0001 0.0171880735480521 0 0.0171880735480521 0 0.0001 0.0001
1.75 0.0001 0.0001 0.0177218876614088 0 0.0177218876614088 0 0.0001 0.0001
1.8 0.0001 0.0001 0.0181800434689891 0 0.0181800434689891 0 0.0001 0.0001
1.85 0.0001 0.0001 0.0183367052612234 0 0.0183367052612234 0 0.0001 0.0001
1.9 0.0001 0.0001 0.0189724941590763 0 0.0189724941590763 0 0.0001 0.0001
1.95 0.0001 0.0001 0.0191484353636919 0 0.0191484353636919 0 0.0001 0.0001
2 0.0001 0.0001 0.0196903806654768 0 0.0196903806654768 0 0.0001 0.0001
2.05 0.0001 0.0001 0.0202373783472235 0 0.0202373783472235 0 0.0001 0.0001
2.1 0.0001 0.0001 0.0203068497380638 0 0.0203068497380638 0 0.0001 0.0001
2.15 0.0001 0.0001 0.0208070634984311 0 0.0208070634984311 0 0.0001 0.0001
2.2 0.0001 0.0001 0.0208768859211242 0 0.0208768859211242 0 0.0001 0.0001
2.25 0.0001 0.0001 0.0215295377853467 0 0.0215295377853467 0 0.0001 0.0001
2.3 0.0001 0.0001 0.0213932269558605 0 0.0213932269558605 0 0.0001 0.0001
2.35 0.0001 0.0001 0.0212170756067457 0 0.0212170756067457 0 0.0001 0.0001
2.4 0.0001 0.0001 0.021214941849846 0 0.021214941849846 0 0.0001 0.0001
2.45 0.0001 0.0001 0.0215146790068053 0 0.0215146790068053 0 0.0001 0.0001
2.5 0.0001 0.0001 0.0213462726378946 0 0.0213462726378946 0 0.0001 0.0001
2.55 0.0001 0.0001 0.0225907606795785 0 0.0225907606795785 0 0.0001 0.0001
2.6 0.0001 0.0001 0.0231114569274786 0 0.0231114569274786 0 0.0001 0.0001
2.65 0.0001 0.0001 0.0233081467529582 0 0.0233081467529582 0 0.0001 0.0001
2.7 0.0001 0.0001 0.0227950193826877 0 0.0227950193826877 0 0.0001 0.0001
2.75 0.0001 0.0001 0.0228896608828778 0 0.0228896608828778 0 0.0001 0.0001
2.8 0.0001 0.0001 0.0234871925451993 0 0.0234871925451993 0 0.0001 0.0001
2.85 0.0001 0.0001 0.0235646943100256 0 0.0235646943100256 0 0.0001 0.0001
2.9 0.0001 0.0001 0.0237026167906288 0 0.0237026167906288 0 0.0001 0.0001
2.95 0.0001 0.0001 0.0240830550483066 0 0.0240830550483066 0 0.0001 0.0001
3 0.0001 0.0001 0.0244990522742084 0 0.0244990522742084 0 0.0001 0.0001
3.05 0.0001 0.0001 0.0246237492162821 0 0.0246237492162821 0 0.0001 0.0001
3.1 0.0001 0.0001 0.024734226863705 0 0.024734226863705 0 0.0001 0.0001
3.15 0.0001 0.0001 0.0247746697242566 0 0.0247746697242566 0 0.0001 0.0001
3.2 0.0001 0.0001 0.0254175801116687 0 0.0254175801116687 0 0.0001 0.0001
3.25 0.0001 0.0001 0.0246574914206032 0 0.0246574914206032 0 0.0001 0.0001
3.3 0.0001 0.0001 0.0261140893398064 0 0.0261140893398064 0 0.0001 0.0001
3.35 0.0001 0.0001 0.0256280652064199 0 0.0256280652064199 0 0.0001 0.0001
3.4 0.0001 0.0001 0.0257889555710349 0 0.0257889555710349 0 0.0001 0.0001
3.45 0.0001 0.0001 0.0258064840996717 0 0.0258064840996717 0 0.0001 0.0001
3.5 0.0001 0.0001 0.0262001648413898 0 0.0262001648413898 0 0.0001 0.0001
3.55 0.0001 0.0001 0.0260437687650364 0 0.0260437687650364 0 0.0001 0.0001
3.6 0.0001 0.0001 0.0249518481265261 0 0.0249518481265261 0 0.0001 0.0001
3.65 0.0001 0.0001 0.0263451446975843 0 0.0263451446975843 0 0.0001 0.0001
3.7 0.0001 0.0001 0.0258250657110666 0 0.0258250657110666 0 0.0001 0.0001
3.75 0.0001 0.0001 0.026340549356841 0 0.026340549356841 0 0.0001 0.0001
3.8 0.0001 0.0001 0.0263006284176591 0 0.0263006284176591 0 0.0001 0.0001
3.85 0.0001 0.0001 0.0265833645625872 0 0.0265833645625872 0 0.0001 0.0001
3.9 0.0001 0.0001 0.0257745890471758 0 0.0257745890471758 0 0.0001 0.0001
3.95 0.0001 0.0001 0.0256558022976139 0 0.0256558022976139 0 0.0001 0.0001
4 0.0001 0.0001 0.0262606007492788 0 0.0262606007492788 0 0.0001 0.0001
4.05 0.0001 0.0001 0.0262862400635873 0 0.0262862400635873 0 0.0001 0.0001
4.1 0.0001 0.0001 0.0264180030672718 0 0.0264180030672718 0 0.0001 0.0001
4.15 0.0001 0.0001 0.0267649791738612 0 0.0267649791738612 0 0.0001 0.0001
4.2 0.0001 0.0001 0.0276500656625935 0 0.0276500656625935 0 0.0001 0.0001
4.25 0.0001 0.0001 0.0263471267724704 0 0.0263471267724704 0 0.0001 0.0001
4.3 0.0001 0.0001 0.0270151889440409 0 0.0270151889440409 0 0.0001 0.0001
4.35 0.0001 0.0001 0.0268943814353544 0 0.0268943814353544 0 0.0001 0.0001
4.4 0.0001 0.0001 0.0266397326135546 0 0.0266397326135546 0 0.0001 0.0001
4.45 0.0001 0.0001 0.0259672206605965 0 0.0259672206605965 0 0.0001 0.0001
4.5 0.0001 0.0001 0.0262249412119528 0 0.0262249412119528 0 0.0001 0.0001
4.55 0.0001 0.0001 0.0266572762746444 0 0.0266572762746444 0 0.0001 0.0001
4.6 0.0001 0.0001 0.0266153732314839 0 0.0266153732314839 0 0.0001 0.0001
4.65 0.0001 0.0001 0.026694801558012 0 0.026694801558012 0 0.0001 0.0001
4.7 0.0001 0.0001 0.0262265306827076 0 0.0262265306827076 0 0.0001 0.0001
4.75 0.0001 0.0001 0.0265780296373683 0 0.0265780296373683 0 0.0001 0.0001
4.8 0.0001 0.0001 0.0261713242904539 0 0.0261713242904539 0 0.0001 0.0001
4.85 0.0001 0.0001 0.0260846882498007 0 0.0260846882498007 0 0.0001 0.0001
4.9 0.0001 0.0001 0.0271292224984726 0 0.0271292224984726 0 0.0001 0.0001
4.95 0.0001 0.0001 0.0261214075045379 0 0.0261214075045379 0 0.0001 0.0001
5 0.0001 0.0001 0.0256193324909608 0 0.0256193324909608 0 0.0001 0.0001
5.05 0.0001 0.0001 0.0263951679256954 0 0.0263951679256954 0 0.0001 0.0001
5.1 0.0001 0.0001 0.0262028253194002 0 0.0262028253194002 0 0.0001 0.0001
5.15 0.0001 0.0001 0.0259432597397603 0 0.0259432597397603 0 0.0001 0.0001
5.2 0.0001 0.0001 0.0257238585589622 0 0.0257238585589622 0 0.0001 0.0001
5.25 0.0001 0.0001 0.0262706711773123 0 0.0262706711773123 0 0.0001 0.0001
5.3 0.0001 0.0001 0.0260954476129758 0 0.0260954476129758 0 0.0001 0.0001
5.35 0.0001 0.0001 0.0251710546727242 0 0.0251710546727242 0 0.0001 0.0001
5.4 0.0001 0.0001 0.0256038212572224 0 0.0256038212572224 0 0.0001 0.0001
5.45 0.0001 0.0001 0.0261926428581513 0 0.0261926428581513 0 0.0001 0.0001
5.5 0.0001 0.0001 0.0254302197416211 0 0.0254302197416211 0 0.0001 0.0001
5.55 0.0001 0.0001 0.0247120657039108 0 0.0247120657039108 0 0.0001 0.0001
5.6 0.0001 0.0001 0.0255226393032988 0 0.0255226393032988 0 0.0001 0.0001
5.65 0.0001 0.0001 0.0259753190247388 0 0.0259753190247388 0 0.0001 0.0001
5.7 0.0001 0.0001 0.0237844851313691 0 0.0237844851313691 0 0.0001 0.0001
5.75 0.0001 0.0001 0.0240383247298506 0 0.0240383247298506 0 0.0001 0.0001
5.8 0.0001 0.0001 0.0256167560082975 0 0.0256167560082975 0 0.0001 0.0001
