# GHZ S RI R 50
0.5 1.12425076861741E-06 3.90726399498341E-06 0.00363094399484713 -0.00394608001268209 0.00363094399484713 -0.00394608001268209 4.05863624697101E-06 4.49957235920149E-06
0.55 1.63184120900997E-06 4.10040305065275E-06 0.00420392891060488 -0.00540356772120938 0.00420392891060488 -0.00540356772120938 4.30356115275922E-06 4.52907481745239E-06
0.6 2.17629795550992E-06 4.21254113711813E-06 0.0036883333779235 -0.00564767845006832 0.0036883333779235 -0.00564767845006832 4.56635648839262E-06 4.52078734267671E-06
0.65 2.74314449425089E-06 4.23795780121911E-06 0.00350037706962048 -0.00647038727324587 0.00350037706962048 -0.00647038727324587 4.84087605102145E-06 4.4712913566007E-06
0.7 3.31722993619089E-06 4.17336728062373E-06 0.00333701888843734 -0.00760969335713499 0.00333701888843734 -0.00760969335713499 5.12041192022825E-06 4.37819922089543E-06
0.75 3.88306660110929E-06 4.01801706137059E-06 0.00276230268208744 -0.00804747588981307 0.00276230268208744 -0.00804747588981307 5.39787103504955E-06 4.24016814682693E-06
0.8 4.42524717864098E-06 3.77367131975965E-06 0.0021336701768388 -0.00842503143728274 0.0021336701768388 -0.00842503143728274 5.6659718918049E-06 4.0570707452403E-06
0.85 4.92892315982586E-06 3.44459233643682E-06 0.00157444849315224 -0.00943008933140574 0.00157444849315224 -0.00943008933140573 5.91736446154254E-06 3.83005370641491E-06
0.9 5.38013524624215E-06 3.03744855163834E-06 0.000816538778212172 -0.00983484624698577 0.000816538778212171 -0.00983484624698576 6.14493881800636E-06 3.56139097024988E-06
0.95 5.76625908126813E-06 2.56110174361211E-06 2.48027970022782E-06 -0.010323237243941 2.48027970022782E-06 -0.010323237243941 6.34203490360848E-06 3.25457144410792E-06
1 6.07634973245133E-06 2.0263953811562E-06 -0.000907107307391727 -0.0109901253503462 -0.000907107307391727 -0.0109901253503462 6.5025511125412E-06 2.9141805183159E-06
1.05 6.30142831120084E-06 1.44587493642031E-06 -0.00191404250946219 -0.0114989024334161 -0.00191404250946219 -0.0114989024334161 6.62124914302894E-06 2.54569843371053E-06
1.1 6.43475177402767E-06 8.33383930759017E-07 -0.00290606283203415 -0.0114993767275513 -0.00290606283203415 -0.0114993767275513 6.69385367529384E-06 2.15547029498754E-06
1.15 6.4720164691661E-06 2.03735161091486E-07 -0.00402544351581939 -0.0117475497383688 -0.00402544351581938 -0.0117475497383688 6.71715678434588E-06 1.75043655152545E-06
1.2 6.41146694104969E-06 -4.27712615514857E-07 -0.00530830553428919 -0.0121231774483548 -0.00530830553428919 -0.0121231774483548 6.68912303731024E-06 1.33793599604433E-06
1.25 6.25396922141347E-06 -1.04548631163363E-06 -0.00633697241100676 -0.0117301192171704 -0.00633697241100676 -0.0117301192171704 6.60894915581112E-06 9.25510089148016E-07
1.3 6.00297966082937E-06 -1.63442551092054E-06 -0.00753464396961807 -0.0115528711150259 -0.00753464396961807 -0.0115528711150259 6.47702849053259E-06 5.20693848688559E-07
1.35 5.664482638312E-06 -2.18009212067644E-06 -0.00867212681428007 -0.0111620126870472 -0.00867212681428007 -0.0111620126870472 6.29491802776625E-06 1.30748917636839E-07
1.4 5.24681170110628E-06 -2.66916331580158E-06 -0.00994113776936224 -0.0108192650892135 -0.00994113776936224 -0.0108192650892135 6.06532293710442E-06 -2.37520467855774E-07
1.45 4.76041797500084E-06 -3.08983062826011E-06 -0.0108663939732896 -0.0100232234366961 -0.0108663939732896 -0.0100232234366961 5.79188191729751E-06 -5.77835285032522E-07
1.5 4.21762814270697E-06 -3.43212326775351E-06 -0.0121466369706944 -0.00947459713881719 -0.0121466369706944 -0.00947459713881719 5.47901203285497E-06 -8.84692517638809E-07
1.55 3.6322903621461E-06 -3.68817637575152E-06 -0.0129027786956015 -0.00845005018551959 -0.0129027786956015 -0.00845005018551959 5.13186030527452E-06 -1.15347024258816E-06
1.6 3.01940721182013E-06 -3.85245410087401E-06 -0.0139556893255882 -0.00757308379172353 -0.0139556893255882 -0.00757308379172353 4.7560248626655E-06 -1.38044935158998E-06
1.65 2.39471036687578E-06 -3.92189612834569E-06 -0.0148870741990802 -0.00655110062836575 -0.0148870741990802 -0.00655110062836575 4.3573829967965E-06 -1.56280946852549E-06
1.7 1.77426023185872E-06 -3.89602146622168E-06 -0.0158709818235221 -0.00547018029872026 -0.0158709818235221 -0.00547018029872025 3.94194946388116E-06 -1.69874379778114E-06
1.75 1.17404216169168E-06 -3.77691649135835E-06 -0.0167638289931179 -0.00426757152284478 -0.0167638289931179 -0.00426757152284478 3.51577620979306E-06 -1.78732565478471E-06
1.8 6.0946973744239E-07 -3.5691740849683E-06 -0.0174896288998003 -0.00294164973397804 -0.0174896288998003 -0.00294164973397804 3.084672802561E-06 -1.82830108321459E-06
1.85 9.50499631039433E-08 -3.27984995241228E-06 -0.0178144939876089 -0.00149981186626378 -0.0178144939876089 -0.00149981186626378 2.65415328842368E-06 -1.82221965643705E-06
1.9 -3.56027235531316E-07 -2.91822952370032E-06 -0.0184863020930471 -2.49712366680517E-05 -0.0184863020930471 -2.49712366680517E-05 2.22946107647286E-06 -1.77023062188436E-06
1.95 -7.32276126602189E-07 -2.4956179666592E-06 -0.0185849006091562 0.00151409486215841 -0.0185849006091562 0.00151409486215841 1.81541281770352E-06 -1.67394847698969E-06
2 -1.02419723156224E-06 -2.02504385129978E-06 -0.0189056055054612 0.00312721197794269 -0.0189056055054612 0.00312721197794269 1.41643608257642E-06 -1.53541952058083E-06
2.05 -1.22420127970557E-06 -1.52075145074373E-06 -0.019086310501371 0.00480370490848292 -0.019086310501371 0.00480370490848292 1.03657010652479E-06 -1.35694906390932E-06
2.1 -1.3279968010202E-06 -9.98348551384895E-07 -0.0186759977826399 0.0063801508345194 -0.0186759977826399 0.0063801508345194 6.79497060630248E-07 -1.14112868037737E-06
2.15 -1.3334969301096E-06 -4.737175182274E-07 -0.0185186485978879 0.0080888344946269 -0.0185186485978879 0.0080888344946269 3.48575894867571E-07 -8.90693506460263E-07
2.2 -1.2413166508589E-06 3.71621235305667E-08 -0.0178354878670312 0.00961512164193695 -0.017835487867031 0.00961512164193725 4.69082199932E-08 -6.08546316198531E-07
2.25 -1.05473326428848E-06 5.18626801272753E-07 -0.0175001383361069 0.0113918531630866 -0.0175001383361069 0.0113918531630866 -2.22664852157946E-07 -2.97715250157727E-07
2.3 -7.79575180987931E-07 9.55786201263581E-07 -0.0163848016666497 0.0127071913386176 -0.0163848016666497 0.0127071913386176 -4.57518057218773E-07 3.8600423937774E-08
2.35 -4.24115453332683E-07 1.3348990015203E-06 -0.0151443222300665 0.013890642381347 -0.0151443222300665 0.013890642381347 -6.55124669313294E-07 3.96979014168237E-07
2.4 1.20270207470353E-09 1.64378702321741E-06 -0.0139357901944121 0.0150805997916946 -0.0139357901944121 0.0150805997916946 -8.13195741189931E-07 7.73851341596277E-07
2.45 4.84011316423758E-07 1.87212317578856E-06 -0.0128141778956599 0.0163958059958634 -0.0128141778956599 0.0163958059958634 -9.29632620593812E-07 1.16532029592999E-06
2.5 1.01036081665977E-06 2.01175574544572E-06 -0.0113210883224993 0.0172484833177025 -0.0113210883224993 0.0172484833177025 -1.00255159119167E-06 1.56723567767046E-06
2.55 1.56509208401049E-06 2.05691537081044E-06 -0.010427817132324 0.0191663569022598 -0.0104278171323239 0.0191663569022598 -1.03042088025337E-06 1.97508709744811E-06
2.6 2.13223779406925E-06 2.00436120935509E-06 -0.00900894637492493 0.0204064874970295 -0.00900894637492492 0.0204064874970294 -1.01202954362863E-06 2.38395702486104E-06
2.65 2.69547215062497E-06 1.85348708217564E-06 -0.00735309810617413 0.0212439917368449 -0.00735309810617413 0.0212439917368449 -9.46667392295145E-07 2.7886483126937E-06
2.7 3.23850197698711E-06 1.60637074934197E-06 -0.00545064028491866 0.0212831672081447 -0.00545064028491866 0.0212831672081447 -8.3416819062853E-07 3.18355737681028E-06
2.75 3.74556047932034E-06 1.26764648606695E-06 -0.00369107297951565 0.0217343738428156 -0.00369107297951565 0.0217343738428156 -6.75062332160658E-07 3.56293747284561E-06
2.8 4.20181099269577E-06 8.44470597136986E-07 -0.0019359380813405 0.0225219080503773 -0.0019359380813405 0.0225219080503773 -4.70702106163997E-07 3.92083520880091E-06
2.85 4.59369757112356E-06 3.46269743379552E-07 -7.45703911245724E-05 0.0226632843900338 -7.45703911245724E-05 0.0226632843900338 -2.23214369646747E-07 4.25124926260199E-06
2.9 4.90940125384368E-06 -2.15510790695737E-07 0.00180111385463729 0.0227085375526644 0.00180111385463729 0.0227085375526644 6.43037395228485E-08 4.54835485290661E-06
2.95 5.13908359066498E-06 -8.27650861830275E-07 0.00372071742785121 0.0228278482286128 0.00372071742785121 0.0228278482286128 3.87870502135961E-07 4.80649645658176E-06
3 5.27514221680956E-06 -1.47563644728371E-06 0.00567953485726915 0.0228157265534889 0.00567953485726915 0.0228157265534889 7.42574623267906E-07 5.02056882046082E-06
3.05 5.31242631966539E-06 -2.14396944787397E-06 0.00757086190196693 0.0223686409737974 0.00757086190196692 0.0223686409737974 1.12261127156562E-06 5.18600877960041E-06
3.1 5.24827626157592E-06 -2.81656735782666E-06 0.00942109229829029 0.0217520283516934 0.00942109229829026 0.0217520283516934 1.52146919099249E-06 5.29904121845026E-06
3.15 5.08265800491138E-06 -3.47724260983063E-06 0.0111889773325685 0.0209231495052345 0.0111889773325685 0.0209231495052345 1.93186619839823E-06 5.35692288771189E-06
3.2 4.81814769914365E-06 -4.10999948160959E-06 0.0131968361228788 0.0204354403839039 0.0131968361228788 0.0204354403839039 2.34605251968268E-06 5.3578617437881E-06
3.25 4.45981485931661E-06 -4.69952157265988E-06 0.0143792344342858 0.0186920150563828 0.0143792344342858 0.0186920150563828 2.75598800193871E-06 5.30130372300649E-06
3.3 4.0151545531157E-06 -5.23157565158679E-06 0.0167934538097278 0.0184650499033534 0.0167934538097278 0.0184650499033534 3.15343710708936E-06 5.18793944951328E-06
3.35 3.49385614576464E-06 -5.6933615041535E-06 0.017903006366097 0.0166945299230788 0.017903006366097 0.0166945299230788 3.53030088146229E-06 5.01970764695378E-06
3.4 2.90753066213372E-06 -6.07387671095296E-06 0.0193227626577584 0.0152521540628091 0.0193227626577584 0.0152521540628091 3.8787372025967E-06 4.79984934796758E-06
3.45 2.26943959145464E-06 -6.36416871624323E-06 0.0205118287527938 0.0136134235118853 0.0205118287527938 0.0136134235118853 4.19144449101726E-06 4.53279141962003E-06
3.5 1.59409425072131E-06 -6.55755429796988E-06 0.0218764823178788 0.0120558303313763 0.0218764823178788 0.0120558303313763 4.4618676521926E-06 4.22407017653712E-06
3.55 8.96890820315989E-07 -6.6498376430819E-06 0.0226432822238644 0.0101505679270443 0.0226432822238644 0.0101505679270443 4.68435493485467E-06 3.88017792109427E-06
3.6 1.93727963595509E-07 -6.63936347048811E-06 0.0224062536607126 0.00790516188984965 0.0224062536607126 0.00790516188984965 4.85433892854587E-06 3.5084520100929E-06
3.65 -4.99457832576931E-07 -6.52708634812703E-06 0.0242489834701577 0.00637116895646158 0.0242489834701577 0.00637116895646158 4.96840481067273E-06 3.11683024193681E-06
3.7 -1.16706706073915E-06 -6.31651918631024E-06 0.0241891240575564 0.00426913326356278 0.0241891240575564 0.00426913326356278 5.0244177047145E-06 2.71364240062464E-06
3.75 -1.79426279293498E-06 -6.01364297375703E-06 0.0249321823070611 0.00231157637610991 0.0249321823070611 0.00231157637610991 5.02160498130439E-06 2.30735541603245E-06
3.8 -2.36734389186029E-06 -5.62672019169587E-06 0.0249859306730871 0.000255106522296536 0.0249859306730871 0.000255106522296536 4.96047142305757E-06 1.90645044693045E-06
3.85 -2.8741014511844E-06 -5.16610288070084E-06 0.0251764752085842 -0.00181665036451718 0.0251764752085842 -0.00181665036451718 4.84274464360184E-06 1.51910462317428E-06
3.9 -3.30412736313878E-06 -4.64393595305001E-06 0.0241700842887867 -0.00375870240768751 0.0241700842887867 -0.00375870240768751 4.67145115095509E-06 1.15294994708731E-06
3.95 -3.64908030427092E-06 -4.07382693053304E-06 0.0236571518754405 -0.00570211130194697 0.0236571518754405 -0.00570211130194697 4.45055916119791E-06 8.15149455077743E-07
4 -3.90289308354084E-06 -3.47051462038745E-06 0.0236406818669846 -0.00780193577692508 0.0236406818669846 -0.00780193577692508 4.18491809596462E-06 5.11900863950781E-07
4.05 -4.06190273864226E-06 -2.84947956804619E-06 0.0229297545789907 -0.00972202976372113 0.0229297545789907 -0.00972202976372113 3.88024048851658E-06 2.48495579848221E-07
4.1 -4.12494066335976E-06 -2.22654369021087E-06 0.0221520293879049 -0.0116247509680391 0.0221520293879049 -0.0116247509680391 3.54268886926295E-06 2.93220778346725E-08
4.15 -4.09337947034048E-06 -1.61748081397387E-06 0.0213878322180304 -0.0135741477383602 0.0213878322180304 -0.0135741477383602 3.17880263213759E-06 -1.42392734450487E-07
4.2 -3.9710588468039E-06 -1.03755511806011E-06 0.0208568443324871 -0.0157823381065437 0.0208568443324871 -0.0157823381065437 2.79536211375964E-06 -2.6431855773827E-07
4.25 -3.76421030413272E-06 -5.01161479609781E-07 0.0185610011704651 -0.0166115059483179 0.0185610011704651 -0.0166115059483179 2.39902215068599E-06 -3.35145354912969E-07
4.3 -3.48128095948417E-06 -2.1445782453063E-08 0.0175581126603428 -0.0185284687148191 0.0175581126603428 -0.0185284687148191 1.99641282604156E-06 -3.54535815408973E-07
4.35 -3.13267269688737E-06 3.90060952561173E-07 0.0158960986545838 -0.0198082303634032 0.0158960986545838 -0.0198082303634032 1.59384804167141E-06 -3.22819415846279E-07
4.4 -2.73051453331578E-06 7.23731755139476E-07 0.0140724008441159 -0.0208361189687473 0.0140724008441159 -0.0208361189687473 1.19727086408889E-06 -2.41135633859954E-07
4.45 -2.28825757803005E-06 9.72087886085978E-07 0.0119953518766467 -0.021356106523326 0.0119953518766467 -0.021356106523326 8.12274432523209E-07 -1.11110537287044E-07
4.5 -1.82035991822512E-06 1.12999755034589E-06 0.0102956858297206 -0.0224772922428763 0.0102956858297206 -0.0224772922428763 4.43883958952804E-07 6.5145763540889E-08
4.55 -1.34187144511251E-06 1.19480012956789E-06 0.00854821974566128 -0.0236164224423285 0.00854821974566128 -0.0236164224423285 9.68339047278914E-08 2.85087360689443E-07
4.6 -8.68024955889973E-07 1.16635605629615E-06 0.00656529080910706 -0.0241862749402821 0.00656529080910706 -0.0241862749402821 -2.24567465850988E-07 5.46008188338345E-07
4.65 -4.13846554132453E-07 1.04705256534806E-06 0.00456752336123557 -0.0247024736608513 0.00456752336123557 -0.0247024736608513 -5.16402844439434E-07 8.44908092230464E-07
4.7 6.26980796003283E-09 8.41689124335182E-07 0.00247768014830926 -0.0245407835307524 0.00247768014830926 -0.0245407835307524 -7.74940817695534E-07 1.17865171502545E-06
4.75 3.78940367334877E-07 5.57385308782045E-07 0.000459957166569386 -0.0249765463245403 0.000459957166569386 -0.0249765463245403 -9.96784758103768E-07 1.54397053926586E-06
4.8 6.92140242855593E-07 2.03358324973772E-07 -0.00156696947920551 -0.0245332829145091 -0.00156696947920551 -0.0245332829145091 -1.17864728667126E-06 1.93737266973394E-06
4.85 9.3551587110652E-07 -2.09370774815147E-07 -0.00356168318044857 -0.024226151787349 -0.00356168318044857 -0.024226151787349 -1.31739260221155E-06 2.35516735284293E-06
4.9 1.10065943476817E-06 -6.68212959886797E-07 -0.00575639520429041 -0.0247915137978272 -0.00575639520429041 -0.0247915137978272 -1.4099933549921E-06 2.79333977860258E-06
4.95 1.1813090477139E-06 -1.15942344382771E-06 -0.00747821435851115 -0.0233202725847272 -0.00747821435851074 -0.0233202725847273 -1.45349371405268E-06 3.24751100938685E-06
5 1.17353041823978E-06 -1.6684260686578E-06 -0.00918073656159584 -0.0221788094065288 -0.00918073656159584 -0.0221788094065288 -1.44515924405275E-06 3.71286961544124E-06
5.05 1.07580478572363E-06 -2.18023667382697E-06 -0.0112943843315874 -0.0219831725958749 -0.0112943843315874 -0.0219831725958749 -1.38253292871803E-06 4.18406149446404E-06
5.1 8.89021034221605E-07 -2.67985263573246E-06 -0.0129560776185449 -0.0208161774377467 -0.0129560776185449 -0.0208161774377467 -1.26354533280424E-06 4.65516993914526E-06
5.15 6.16484315739923E-07 -3.15265936782262E-06 -0.0144654638268316 -0.0194757691497102 -0.0144654638268316 -0.0194757691497102 -1.08663797474013E-06 5.1196473610712E-06
5.2 2.63790040797472E-07 -3.58481112759376E-06 -0.0158679884527884 -0.0180581080947375 -0.0158679884527884 -0.0180581080947375 -8.50907056176376E-07 5.57036036338944E-06
5.25 -1.61352676296662E-07 -3.96362230890755E-06 -0.0176511531416916 -0.0170402117897227 -0.0176511531416916 -0.0170402117897227 -5.56344824833352E-07 5.99966118108594E-06
5.3 -6.49335064775754E-07 -4.2778889391647E-06 -0.0188495337921456 -0.0154224368343269 -0.0188495337921456 -0.0154224368343269 -2.04002196350737E-07 6.39945021504789E-06
5.35 -1.18894943218157E-06 -4.51813613252356E-06 -0.0193271802345355 -0.0133275277888088 -0.0193271802345355 -0.0133275277888088 2.03906726711665E-07 6.76135428569288E-06
5.4 -1.76767827410488E-06 -4.67686604042292E-06 -0.0206907330297613 -0.0118928124811855 -0.0206907330297613 -0.0118928124811855 6.63795954511526E-07 7.07693802570231E-06
5.45 -2.37200957110885E-06 -4.74870885478604E-06 -0.0220779102043194 -0.0103851372169041 -0.0220779102043194 -0.0103851372169041 1.17067342149857E-06 7.33792667009972E-06
5.5 -2.9878204618419E-06 -4.7305916371975E-06 -0.0221750296823545 -0.00828850074130498 -0.0221750296823545 -0.00828850074130498 1.71806917114779E-06 7.53650768789984E-06
5.55 -3.60074022396071E-06 -4.6217960882414E-06 -0.0221222508265291 -0.00625937318130433 -0.0221222508265291 -0.00625937318130433 2.29802369756187E-06 7.66564329695508E-06
5.6 -4.19652357188402E-06 -4.42396172105189E-06 -0.0232863309125321 -0.00457014457863666 -0.0232863309125321 -0.00457014457863666 2.90124899152576E-06 7.71927314906818E-06
5.65 -4.76145002457166E-06 -4.14100852875843E-06 -0.0239864204028467 -0.00269465220975784 -0.0239864204028467 -0.00269465220975784 3.51723087471836E-06 7.69275103865163E-06
5.7 -5.28268269691802E-06 -3.77903122287612E-06 -0.0220790331319261 -0.000661779333541706 -0.0220790331319261 -0.000661779333541706 4.13440147559238E-06 7.58297256211169E-06
5.75 -5.748585272124E-06 -3.34612095238229E-06 -0.0222823907207871 0.00115813185824569 -0.0222823907207871 0.00115813185824569 4.74050046689861E-06 7.38869418907689E-06
5.8 -6.14904846917147E-06 -2.85211273261047E-06 -0.0235526403679295 0.00317048799935889 -0.0235526403679295 0.00317048799935889 5.32285066006014E-06 7.11059202993438E-06
