# GHZ S RI R 50
0.5 9.49876386954259E-07 2.31918954253303E-06 0.513105943158101 -0.58663208161224 0.5131059431581 -0.586632081612241 5.80028652068474E-06 3.68998913816744E-06
0.55 1.37497158806055E-06 2.42019399229675E-06 0.461637437416647 -0.628631954879001 0.461637437416647 -0.628631954879001 5.87871851730382E-06 3.57810041504551E-06
0.6 1.82849967354469E-06 2.45658200820853E-06 0.396975704886249 -0.650136106617736 0.396975704886249 -0.650136106617737 5.96146819602519E-06 3.46714534637528E-06
0.65 2.29903441946897E-06 2.42355057369769E-06 0.354018859209793 -0.709281206692756 0.354018859209793 -0.709281206692756 6.04959581887723E-06 3.35530918850962E-06
0.7 2.77456398047043E-06 2.31815220594717E-06 0.287182801519267 -0.723822125898355 0.287182801519267 -0.723822125898355 6.14402830131963E-06 3.24034578865505E-06
0.75 3.2427951921061E-06 2.13951925678503E-06 0.230251111042256 -0.76469009196345 0.230251111042256 -0.76469009196345 6.24516871839202E-06 3.12026078085109E-06
0.8 3.69141418298575E-06 1.88876958468384E-06 0.164821886404457 -0.783954717798547 0.164821886404457 -0.783954717798547 6.35265155799979E-06 2.99271314453023E-06
0.85 4.10854404567219E-06 1.56898302539382E-06 0.0979363847415838 -0.798905884079861 0.0979363847415838 -0.798905884079861 6.46596661669441E-06 2.85525059045614E-06
0.9 4.48295548141165E-06 1.18519002572076E-06 0.029417307133422 -0.800556056239101 0.029417307133422 -0.800556056239101 6.58383782846147E-06 2.70582571020466E-06
0.95 4.80442291376657E-06 7.44106207793402E-07 -0.0388572636224403 -0.800152092018485 -0.0388572636224403 -0.800152092018485 6.70456752700142E-06 2.54233661554078E-06
1 5.06408314504688E-06 2.54036196252461E-07 -0.105580714248575 -0.7844848293436 -0.105580714248575 -0.7844848293436 6.82635014715274E-06 2.36321934287596E-06
1.05 5.25451820838927E-06 -2.75355373705402E-07 -0.170562943481408 -0.766174086644611 -0.170562943481408 -0.766174086644612 6.9467460587681E-06 2.16737585486948E-06
1.1 5.37003920723277E-06 -8.33400515727815E-07 -0.231032689754709 -0.735615878617275 -0.231032689754709 -0.735615878617275 7.06326561294618E-06 1.95381363028007E-06
1.15 5.40683671897939E-06 -1.40862552586918E-06 -0.294975190389555 -0.718454272245419 -0.294975190389555 -0.718454272245419 7.17339848363756E-06 1.72211322463521E-06
1.2 5.36309049882908E-06 -1.9891316246993E-06 -0.343514672290907 -0.668188168318521 -0.343514672290907 -0.668188168318521 7.27459617758715E-06 1.47228820590776E-06
1.25 5.23895411568358E-06 -2.56288461532788E-06 -0.404967245534551 -0.645721065225517 -0.404967245534551 -0.645721065225517 7.36434320832951E-06 1.20463338319421E-06
1.3 5.03657192198713E-06 -3.11805846450457E-06 -0.456866979328963 -0.606702932529403 -0.456866979328963 -0.606702932529403 7.44023635172066E-06 9.19650845159811E-07
1.35 4.76005195147049E-06 -3.64337437366769E-06 -0.503518256486848 -0.561807430870466 -0.503518256486848 -0.561807430870466 7.50016194257679E-06 6.18237232048004E-07
1.4 4.41527384781176E-06 -4.12831609705048E-06 -0.547594833838253 -0.515019666693147 -0.547594833838253 -0.515019666693148 7.54176354719213E-06 3.01532826090594E-07
1.45 4.00971230274553E-06 -4.56349870434942E-06 -0.583947836516437 -0.462100518630717 -0.583947836516437 -0.462100518630717 7.56285081794469E-06 -2.94859697365735E-08
1.5 3.55226377421268E-06 -4.940906438882E-06 -0.626589403169899 -0.414215765353067 -0.6265894031699 -0.414215765353067 7.56144236994107E-06 -3.73580863333964E-07
1.55 3.05303818057171E-06 -5.25403694140122E-06 -0.647498086757261 -0.352705892475171 -0.647498086757262 -0.352705892475171 7.53545690213295E-06 -7.29295624509652E-07
1.6 2.52303328259263E-06 -5.49812889892678E-06 -0.683889833455092 -0.300040181793171 -0.683889833455093 -0.300040181793171 7.48284175266062E-06 -1.09502979459277E-06
1.65 1.97377663040806E-06 -5.67019566445792E-06 -0.703164050203142 -0.239348771129514 -0.703164050203142 -0.239348771129514 7.40134771124603E-06 -1.46903092908574E-06
1.7 1.41712466043433E-06 -5.76920887771112E-06 -0.720514412073639 -0.178403003632517 -0.720514412073639 -0.178403003632517 7.28875622157859E-06 -1.84914767807844E-06
1.75 8.64907351673862E-07 -5.79598006691562E-06 -0.73378112910797 -0.116422106313103 -0.73378112910797 -0.116422106313103 7.14269616454832E-06 -2.23279256462306E-06
1.8 3.28493530579045E-07 -5.75310447286143E-06 -0.73297971197283 -0.0528384977089805 -0.73297971197283 -0.0528384977089805 6.96070020103162E-06 -2.61707398698301E-06
1.85 -1.81371813236219E-07 -5.64503423163275E-06 -0.723404337886912 0.0097200457210918 -0.723404337886912 0.0097200457210918 6.74064920990324E-06 -2.99836433088297E-06
1.9 -6.54887310663429E-07 -5.47772941027435E-06 -0.711456738683837 0.0705554638216318 -0.711456738683838 0.0705554638216319 6.48046218810182E-06 -3.37234588468718E-06
1.95 -1.08349025071043E-06 -5.25857138486701E-06 -0.696805831275897 0.129875340898373 -0.696805831275897 0.129875340898373 6.17856254273906E-06 -3.73402908065679E-06
2 -1.4599783885114E-06 -4.99606725655314E-06 -0.682008597369428 0.188539548517161 -0.682008597369428 0.188539548517161 5.83385187554799E-06 -4.07761638118314E-06
2.05 -1.77903191776697E-06 -4.69954507419682E-06 -0.656860363799304 0.243624889474812 -0.656860363799304 0.243624889474812 5.44599724053496E-06 -4.39679267616912E-06
2.1 -2.03645178481422E-06 -4.37894262925298E-06 -0.637808028685826 0.300761746685408 -0.637808028685826 0.300761746685408 5.01591558768005E-06 -4.68455325562612E-06
2.15 -2.2298934304523E-06 -4.04456577950885E-06 -0.611177382578809 0.35491962962438 -0.611177382578809 0.35491962962438 4.54555800881487E-06 -4.93350053457141E-06
2.2 -2.35880478327986E-06 -3.70682309567443E-06 -0.581078589987462 0.407528374982561 -0.581078589987463 0.407528374982561 4.03840924426914E-06 -5.13619730741955E-06
2.25 -2.42430710746195E-06 -3.37600610692401E-06 -0.534804040567463 0.447846282611277 -0.534804040567463 0.447846282611277 3.49945803376838E-06 -5.28516810032578E-06
2.3 -2.42924661915511E-06 -3.06186513516921E-06 -0.503757902601004 0.501014234966261 -0.503757902601004 0.501014234966261 2.93519006826712E-06 -5.37357295136669E-06
2.35 -2.37808298478916E-06 -2.77346531417041E-06 -0.451946961339978 0.533769116291044 -0.451946961339978 0.533769116291044 2.3538183538316E-06 -5.39530952528938E-06
2.4 -2.27658597823394E-06 -2.51883539289032E-06 -0.402605422988492 0.56751862681156 -0.402605422988492 0.56751862681156 1.76492388131201E-06 -5.34543707641508E-06
2.45 -2.13176700444605E-06 -2.30478874299343E-06 -0.351987605958674 0.598772794911164 -0.351987605958674 0.598772794911164 1.17940167154728E-06 -5.22064122482987E-06
2.5 -1.95153102687901E-06 -2.13683048792261E-06 -0.294153201498295 0.615462473118796 -0.294153201498295 0.615462473118796 6.09198333228116E-07 -5.01937604635293E-06
2.55 -1.74451608354821E-06 -2.01895327805881E-06 -0.239792613337439 0.636606569273992 -0.239792613337439 0.636606569273992 6.68385467481513E-08 -4.74228355696594E-06
2.6 -1.51989303402457E-06 -1.95370604229116E-06 -0.179613677609613 0.637522301339741 -0.179613677609613 0.637522301339741 -4.348714867113E-07 -4.39236233243325E-06
2.65 -1.2869378949406E-06 -1.94206128240835E-06 -0.125293152743098 0.655046920400724 -0.125293152743098 0.655046920400724 -8.83325824035734E-07 -3.97493560863088E-06
2.7 -1.05500475142959E-06 -1.98340310534892E-06 -0.0680404860213165 0.655975380645737 -0.0680404860213165 0.655975380645737 -1.26674711288251E-06 -3.49781566182496E-06
2.75 -8.33081837141888E-07 -2.07569354867032E-06 -0.0114454413112657 0.646133443678074 -0.0114454413112657 0.646133443678074 -1.57444049331506E-06 -2.97101005561741E-06
2.8 -6.29521935063248E-07 -2.21535812011169E-06 0.0449959787380042 0.661316067029218 0.0449959787380042 0.661316067029218 -1.79754217763961E-06 -2.40661900181215E-06
2.85 -4.52035792536077E-07 -2.39755969483997E-06 0.0995216332813032 0.642885906923686 0.0995216332813032 0.642885906923686 -1.92930505602795E-06 -1.81867795852707E-06
2.9 -3.07164428946646E-07 -2.61642066508073E-06 0.151533976149712 0.621276296999358 0.151533976149711 0.621276296999359 -1.96517440382778E-06 -1.22224105631057E-06
2.95 -2.00317665667819E-07 -2.86506133010959E-06 0.209025172685935 0.620580762941992 0.209025172685935 0.620580762941992 -1.90366956130371E-06 -6.33271592549012E-07
3 -1.35638033726303E-07 -3.1360486665728E-06 0.257696799756067 0.592041738077681 0.257696799756067 0.592041738077681 -1.74593495661748E-06 -6.82522683728721E-08
3.05 -1.15793320897877E-07 -3.42150531350346E-06 0.309161585979098 0.571089463523838 0.309161585979097 0.571089463523839 -1.4960326532502E-06 4.5682533350477E-07
3.1 -1.42186062212224E-07 -3.71338488690066E-06 0.346498315377963 0.526772119772933 0.346498315377963 0.526772119772933 -1.16102890083257E-06 9.26544015191128E-07
3.15 -2.14675848640713E-07 -4.0039073841777E-06 0.397748034549731 0.504674650775176 0.397748034549731 0.504674650775176 -7.50190850706288E-07 1.32695834227781E-06
3.2 -3.3180355675195E-07 -4.28550824685523E-06 0.434746257035491 0.46378438837295 0.434746257035491 0.46378438837295 -2.7544869418567E-07 1.64588550171006E-06
3.25 -4.91004856444258E-07 -4.55124306866985E-06 0.45557725626745 0.409410880805599 0.45557725626745 0.409410880805599 2.49352962420768E-07 1.8730833012486E-06
3.3 -6.88529063085743E-07 -4.79503300960784E-06 0.520838850072045 0.393036715674401 0.520838850072045 0.393036715674401 8.08981520096357E-07 2.00093378196355E-06
3.35 -9.19754264604348E-07 -5.01165925002698E-06 0.509597406244346 0.320083524740206 0.509597406244346 0.320083524740206 1.38701110999643E-06 2.02432106658979E-06
3.4 -1.17934494940646E-06 -5.19713892102392E-06 0.552530734636693 0.284301900415335 0.552530734636694 0.284301900415335 1.9667310365714E-06 1.94098845917955E-06
3.45 -1.46138794448372E-06 -5.34857492664652E-06 0.569033935747938 0.23363812603357 0.569033935747938 0.233638126033571 2.53111430326095E-06 1.75138980887578E-06
3.5 -1.75982103829736E-06 -5.46425837695478E-06 0.575070663517621 0.180403860335899 0.575070663517621 0.180403860335899 3.06348353058809E-06 1.45841092520735E-06
3.55 -2.06849499387599E-06 -5.54381444929448E-06 0.597338528183543 0.132552985013235 0.597338528183543 0.132552985013235 3.54805639844288E-06 1.06764537022431E-06
3.6 -2.38141376525215E-06 -5.58802602942817E-06 0.59561207705381 0.0795340618718166 0.59561207705381 0.0795340618718166 3.97004226839621E-06 5.86830114198392E-07
3.65 -2.69303742976098E-06 -5.59883576119892E-06 0.625216221147935 0.029484671719971 0.625216221147935 0.029484671719971 4.31625454565697E-06 2.56640989767924E-08
3.7 -2.99838337209241E-06 -5.57919556615389E-06 0.590874143681639 -0.0227630832502132 0.590874143681639 -0.0227630832502132 4.57503129963149E-06 -6.04371454176694E-07
3.75 -3.29325992967889E-06 -5.53290385466657E-06 0.608042698662121 -0.0758739699223843 0.608042698662121 -0.0758739699223843 4.73639564263405E-06 -1.29037832544781E-06
3.8 -3.5743789971544E-06 -5.46447208251495E-06 0.593316005518733 -0.126329268843004 0.593316005518733 -0.126329268843004 4.79235620728065E-06 -2.01845633829822E-06
3.85 -3.83945795023468E-06 -5.37885788542742E-06 0.555992512396379 -0.169216746694383 0.555992512396379 -0.169216746694383 4.73679750468914E-06 -2.77373521400042E-06
3.9 -4.08730979661864E-06 -5.28131951358295E-06 0.556428304343403 -0.222961176386565 0.556428304343403 -0.222961176386565 4.5654215845958E-06 -3.5407315303723E-06
3.95 -4.31783985141637E-06 -5.17715141366343E-06 0.511136392096401 -0.257578555771567 0.511136392096401 -0.257578555771567 4.27607295471316E-06 -4.3036716591666E-06
4 -4.53205710872066E-06 -5.07147939632272E-06 0.490003781356853 -0.302099239268379 0.490003781356853 -0.302099239268379 3.86852588273201E-06 -5.04638863358857E-06
4.05 -4.73200404316467E-06 -4.96901932774293E-06 0.450286429771574 -0.333990809059425 0.450286429771574 -0.333990809059425 3.34435064837836E-06 -5.75272867722853E-06
4.1 -4.92066022701643E-06 -4.87390311359999E-06 0.427863017252761 -0.37823282843822 0.427863017252761 -0.37823282843822 2.70724636945997E-06 -6.40662260813305E-06
4.15 -5.10179211130698E-06 -4.7894377540607E-06 0.379793799828306 -0.398670474620597 0.379793799828307 -0.398670474620597 1.96271782155787E-06 -6.9921998783233E-06
4.2 -5.27972544744177E-06 -4.71795732876201E-06 0.346161654629267 -0.432113677525291 0.346161654629267 -0.432113677525291 1.11826021117146E-06 -7.49415915201761E-06
4.25 -5.45926618586144E-06 -4.66072840463996E-06 0.309894684514721 -0.463196175301605 0.309894684514721 -0.463196175301605 1.83525040259898E-07 -7.89773635761402E-06
4.3 -5.64535766541879E-06 -4.6179005855976E-06 0.262541182307689 -0.476197340711701 0.262541182307689 -0.476197340711702 -8.29879264921274E-07 -8.18908517299562E-06
4.35 -5.84288714988316E-06 -4.58847612960893E-06 0.224885418436265 -0.506201194716077 0.224885418436265 -0.506201194716077 -1.90818219246963E-06 -8.35552807035673E-06
4.4 -6.05650950527243E-06 -4.57032084149361E-06 0.184887674488711 -0.535813392485884 0.184887674488711 -0.535813392485884 -3.03558250287032E-06 -8.38583432139796E-06
4.45 -6.29035443276035E-06 -4.56029898773471E-06 0.13693318361375 -0.54432370596681 0.13693318361375 -0.54432370596681 -4.19435945379699E-06 -8.27065761946362E-06
4.5 -6.5479237367479E-06 -4.55422846834552E-06 0.0915707521140591 -0.565172533909606 0.0915707521140592 -0.565172533909607 -5.3649597236854E-06 -8.00279975361573E-06
4.55 -6.83189823081682E-06 -4.54707972840389E-06 0.0425873764053331 -0.568331752915357 0.0425873764053331 -0.568331752915357 -6.52628575135292E-06 -7.57772374962577E-06
4.6 -7.14388726096552E-06 -4.53312856217282E-06 -0.00622978912626985 -0.564071760878317 -0.00622978912626985 -0.564071760878317 -7.6559488021845E-06 -6.99381770000493E-06
4.65 -7.48439206966407E-06 -4.50610737611374E-06 -0.0534764598301227 -0.550230532345776 -0.0534764598301228 -0.550230532345777 -8.73082036952159E-06 -6.25276059715526E-06
4.7 -7.85263073119815E-06 -4.45954348085452E-06 -0.101198341424575 -0.547648716171723 -0.101198341424575 -0.547648716171723 -9.72737617194017E-06 -5.35982149388278E-06
4.75 -8.24647696988086E-06 -4.38687915263051E-06 -0.144027172016644 -0.523331555599083 -0.144027172016645 -0.523331555599084 -1.06224281537829E-05 -4.32394850522758E-06
4.8 -8.66254198206588E-06 -4.28180436917831E-06 -0.185356006324816 -0.500940248825144 -0.185356006324816 -0.500940248825144 -1.1393682462215E-05 -3.15795144237529E-06
4.85 -9.09614071708923E-06 -4.13850221998681E-06 -0.228714572147508 -0.485549595851309 -0.228714572147508 -0.485549595851309 -1.20204702942099E-05 -1.8783608973444E-06
4.9 -9.54141091468297E-06 -3.95180624987162E-06 -0.2679871031996 -0.461581952781627 -0.2679871031996 -0.461581952781627 -1.24845025770372E-05 -5.05335662862792E-07
4.95 -9.99149016707047E-06 -3.71754599216377E-06 -0.302177881716438 -0.430689291826934 -0.302177881716439 -0.430689291826934 -1.27703297262374E-05 9.37757212603179E-07
5 -1.04385877863487E-05 -3.43273107552412E-06 -0.333393083662265 -0.397771830074073 -0.333393083662265 -0.397771830074073 -1.28661313792438E-05 2.42494800746523E-06
5.05 -1.08742645646423E-05 -3.09563899317677E-06 -0.359193473186757 -0.360692441630166 -0.359193473186757 -0.360692441630166 -1.27642713726734E-05 3.92808450237931E-06
5.1 -1.12896149811377E-05 -2.70607976432857E-06 -0.386169756306059 -0.326435346682917 -0.386169756306059 -0.326435346682917 -1.24616321780157E-05 5.41745576314145E-06
5.15 -1.16755299825406E-05 -2.26539882464429E-06 -0.404538994037785 -0.286421476819643 -0.404538994037785 -0.286421476819643 -1.19598034464543E-05 6.86267515389528E-06
5.2 -1.20231077664396E-05 -1.77654349980024E-06 -0.447937617763755 -0.262720201079736 -0.447937617763755 -0.262720201079736 -1.12652990303148E-05 8.23375457314656E-06
5.25 -1.23238504817552E-05 -1.2441412400682E-06 -0.446849529336703 -0.213011948902019 -0.446849529336703 -0.213011948902019 -1.03896299274941E-05 9.5016381609885E-06
5.3 -1.25699525173438E-05 -6.74401215372122E-07 -0.482472411676405 -0.181196883084086 -0.482472411676406 -0.181196883084087 -9.34877936847079E-06 1.06391686671387E-05
5.35 -1.27546720291759E-05 -7.49426229940235E-08 -0.485102401515956 -0.136205155895274 -0.485102401515957 -0.136205155895274 -8.16313250313799E-06 1.16219987583605E-05
5.4 -1.28725240843537E-05 5.45282859829587E-07 -0.499630970110977 -0.0951749142472027 -0.499630970110978 -0.0951749142472028 -6.85692423704105E-06 1.24290316696668E-05
5.45 -1.29195547341345E-05 1.17627214981382E-06 -0.491996934100101 -0.0507471089954721 -0.491996934100101 -0.0507471089954722 -5.45743986935841E-06 1.30432118554966E-05
5.5 -1.28935725958697E-05 1.80717705501638E-06 -0.481404683892428 -0.00836134291510349 -0.481404683892428 -0.00836134291510349 -3.99455338930999E-06 1.34519672482116E-05
5.55 -1.27942185202795E-05 2.42656074070174E-06 -0.483205447569418 0.0329137654844657 -0.483205447569418 0.0329137654844657 -2.49968973010864E-06 1.36473989434243E-05
5.6 -1.26231337347466E-05 3.02283167243624E-06 -0.451459289447855 0.069780037599193 -0.451459289447855 0.069780037599193 -1.00527013123248E-06 1.3626724373137E-05
5.65 -1.2383968205755E-05 3.58446251242607E-06 -0.455999543400786 0.110943194072387 -0.455999543400786 0.110943194072387 4.56160588534822E-07 1.33920693803912E-05
5.7 -1.20824232396833E-05 4.10041201103628E-06 -0.437987483277816 0.147060345442214 -0.437987483277816 0.147060345442214 1.85289086008787E-06 1.29504972784378E-05
5.75 -1.17261357403778E-05 4.56041504979323E-06 -0.429234397563572 0.186142626584121 -0.429234397563572 0.186142626584121 3.15458550203956E-06 1.23137971998126E-05
5.8 -1.13246487209423E-05 4.9553035838697E-06 -0.403206258847081 0.217353298886078 -0.403206258847081 0.217353298886078 4.33319316295747E-06 1.1498214043598E-05
