# GHZ S RI R 50
0.5 8.87700040271613E-07 4.49088149592666E-06 0.00357354105620116 -0.00405079296496821 0.00357354105620116 -0.00405079296496821 4.32733692996999E-06 4.98257172422487E-06
0.55 1.50653752147497E-06 4.73985793001346E-06 0.00408894297103107 -0.00551330212015366 0.00408894297103107 -0.00551330212015366 4.58968365501916E-06 5.04487981235239E-06
0.6 2.17206111852268E-06 4.88926685422327E-06 0.00345034377412382 -0.00558496790698438 0.00345034377412382 -0.00558496790698438 4.87719487695431E-06 5.06955962390352E-06
0.65 2.86645501907524E-06 4.93196894280742E-06 0.00331802260139077 -0.00655352276345486 0.00331802260139077 -0.00655352276345486 5.18378849923487E-06 5.05173324211359E-06
0.7 3.57107379388788E-06 4.86379809613211E-06 0.00308580468604142 -0.00763801361917677 0.00308580468604142 -0.00763801361917677 5.50273302620974E-06 4.98714698186816E-06
0.75 4.26692256798719E-06 4.68384956181259E-06 0.00255390524117815 -0.00827811489042317 0.00255390524117817 -0.00827811489042318 5.82672483539033E-06 4.87322272422648E-06
0.8 4.93508187190658E-06 4.39433817417023E-06 0.00190048273929006 -0.00872164331694265 0.00190048273929006 -0.00872164331694265 6.14746397875456E-06 4.70851222421044E-06
0.85 5.55743451569526E-06 4.00054373168858E-06 0.00124993311008201 -0.00957105234422939 0.00124993311008203 -0.0095710523442294 6.45677936135421E-06 4.4927719825176E-06
0.9 6.11699112032464E-06 3.51075109539815E-06 0.000442331026387661 -0.00978449521899087 0.000442331026387661 -0.00978449521899087 6.74614931855501E-06 4.22763326477039E-06
0.95 6.59841721250031E-06 2.93583070301144E-06 -0.000403700069105648 -0.0102144234375487 -0.000403700069105648 -0.0102144234375487 7.00732107123814E-06 3.91576510871485E-06
1 6.98859754486604E-06 2.28906802226009E-06 -0.00136520230723537 -0.0109374253188671 -0.00136520230723537 -0.0109374253188672 7.23300221667564E-06 3.56160405762531E-06
1.05 7.27677652838383E-06 1.58578405665396E-06 -0.00243684541098785 -0.0114977535728109 -0.00243684541098785 -0.0114977535728109 7.41629807889323E-06 3.17099167825258E-06
1.1 7.45498326853448E-06 8.42763956871214E-07 -0.00341688161022739 -0.0113046600958256 -0.00341688161022739 -0.0113046600958256 7.5515681625459E-06 2.75047309667187E-06
1.15 7.51821827282589E-06 7.79073633339957E-08 -0.00465048559474109 -0.011704489026965 -0.0046504855947411 -0.011704489026965 7.63452043653887E-06 2.30767628304783E-06
1.2 7.46463391032764E-06 -6.90338147992153E-07 -0.00588245230948606 -0.0117876434854816 -0.00588245230948606 -0.0117876434854816 7.66238613804363E-06 1.85086847401145E-06
1.25 7.29550020437909E-06 -1.44345847488699E-06 -0.00704738113657928 -0.0115578303162644 -0.00704738113657928 -0.0115578303162644 7.63377922160024E-06 1.38851845079273E-06
1.3 7.01518130293433E-06 -2.1634331924803E-06 -0.00811214546851403 -0.0110737259487405 -0.00811214546851403 -0.0110737259487405 7.54881559701922E-06 9.2892813440236E-07
1.35 6.63108857305594E-06 -2.83325720450942E-06 -0.00937816215505848 -0.0107589166676169 -0.00937816215505848 -0.0107589166676169 7.40938771532761E-06 4.80252693607017E-07
1.4 6.15336551667754E-06 -3.43729814386829E-06 -0.0105080882993971 -0.0101722265549723 -0.0105080882993971 -0.0101722265549723 7.21811848326297E-06 5.00660809842944E-08
1.45 5.59455116180121E-06 -3.96187046600994E-06 -0.0115636116250578 -0.00943650258897448 -0.0115636116250578 -0.00943650258897448 6.97883346265334E-06 -3.55298072277616E-07
1.5 4.96935608715767E-06 -4.39558997428406E-06 -0.01278021724652 -0.00873850762401781 -0.01278021724652 -0.00873850762401781 6.69639594092016E-06 -7.30336432120269E-07
1.55 4.2941956773844E-06 -4.72963146110301E-06 -0.0134470340682064 -0.00761055021250296 -0.0134470340682064 -0.00761055021250296 6.37609233225968E-06 -1.07051335775196E-06
1.6 3.58672144920506E-06 -4.95802434054858E-06 -0.0145453445974537 -0.00667591791591895 -0.0145453445974537 -0.00667591791591896 6.0235871862091E-06 -1.37239918876882E-06
1.65 2.86524991805524E-06 -5.07773087717739E-06 -0.0152721552295537 -0.00549801180074818 -0.0152721552295537 -0.00549801180074818 5.64439887220216E-06 -1.63380262460096E-06
1.7 2.14834746212962E-06 -5.08887905301851E-06 -0.0162900459564968 -0.00434780272831232 -0.0162900459564968 -0.00434780272831232 5.24415321527407E-06 -1.85330292584751E-06
1.75 1.45431172990621E-06 -4.99458798341736E-06 -0.0171279046458485 -0.00304739037773324 -0.0171279046458485 -0.00304739037773324 4.82791510667414E-06 -2.03014755841302E-06
1.8 8.0048313583445E-07 -4.80084611148065E-06 -0.0177562268880795 -0.00162621520307362 -0.0177562268880795 -0.00162621520307362 4.40020812796063E-06 -2.1645671714269E-06
1.85 2.02907971711998E-07 -4.51653308771498E-06 -0.0180031728241981 -0.000118492690487933 -0.0180031728241981 -0.000118492690487933 3.96535778850703E-06 -2.25696218449803E-06
1.9 -3.24104681021173E-07 -4.15293456936644E-06 -0.0186298639715579 0.00145926480610105 -0.0186298639715579 0.00145926480610105 3.5269773641125E-06 -2.30791272059755E-06
1.95 -7.68495312710488E-07 -3.72350199622488E-06 -0.0182896405787162 0.00300644506512895 -0.0182896405787162 0.00300644506512895 3.08836593085416E-06 -2.31811698944574E-06
2 -1.12069015284308E-06 -3.24338344870799E-06 -0.0187071781463981 0.00473045298189988 -0.0187071781463981 0.00473045298189988 2.65241569377906E-06 -2.28814371303284E-06
2.05 -1.37353150103804E-06 -2.72887128354381E-06 -0.0183242177680016 0.00632630314260048 -0.0183242177680016 0.00632630314260048 2.2218735921481E-06 -2.21851921293093E-06
2.1 -1.52365116018345E-06 -2.1973476959523E-06 -0.0180998108566898 0.00802182326284252 -0.0180998108566898 0.00802182326284252 1.79968207327644E-06 -2.10942771802972E-06
2.15 -1.57015229595048E-06 -1.66612739439839E-06 -0.0176444299427943 0.00968361053157828 -0.0176444299427943 0.00968361053157828 1.38876794602964E-06 -1.96097763270708E-06
2.2 -1.51511132687449E-06 -1.15228912081239E-06 -0.0170481199844228 0.0113330569969408 -0.0170481199844228 0.0113330569969408 9.92533226256654E-07 -1.77329306129982E-06
2.25 -1.36340238118743E-06 -6.72284001225532E-07 -0.016443620458246 0.0130660074850413 -0.016443620458246 0.0130660074850413 6.14736577418472E-07 -1.54651811273279E-06
2.3 -1.12260318840754E-06 -2.4138001185616E-07 -0.0151945366063103 0.0143316382036858 -0.0151945366063103 0.0143316382036858 2.59582252151233E-07 -1.28121776458241E-06
2.35 -8.02861346021312E-07 1.26650506787576E-07 -0.0138793853917864 0.0155130834713061 -0.0138793853917864 0.0155130834713061 -6.81996641587207E-08 -9.78401191905413E-07
2.4 -4.16394161781651E-07 4.20063878324756E-07 -0.012396455431855 0.0164724204909197 -0.012396455431855 0.0164724204909197 -3.63569792018911E-07 -6.39798739652791E-07
2.45 2.2728554594343E-08 6.29392474723616E-07 -0.0112202619255497 0.0178804677461178 -0.0112202619255497 0.0178804677461178 -6.2125215482417E-07 -2.68078715381155E-07
2.5 4.99128144314271E-07 7.47692509602907E-07 -0.00957668767730941 0.0185906030387086 -0.00957668767730943 0.0185906030387086 -8.35856278652722E-07 1.3311032533784E-07
2.55 9.9642438942532E-07 7.70797375821339E-07 -0.00812962986515636 0.019723098848425 -0.00812962986515636 0.019723098848425 -1.00234224615549E-06 5.59034286792041E-07
2.6 1.49769621814874E-06 6.9725056371795E-07 -0.00670661105872961 0.0212089999895831 -0.00670661105872962 0.0212089999895831 -1.11618102077202E-06 1.0037214129063E-06
2.65 1.98612906650425E-06 5.28500570117819E-07 -0.00500888692668132 0.0222346197481643 -0.00500888692668132 0.0222346197481643 -1.17350524646208E-06 1.46023428173041E-06
2.7 2.44525027010698E-06 2.6886362489283E-07 -0.00296818054863778 0.0215459404304206 -0.00296818054863778 0.0215459404304206 -1.17173726864905E-06 1.92062881996419E-06
2.75 2.85965978667327E-06 -7.47640399304777E-08 -0.00116931651437736 0.0223640722597938 -0.00116931651437736 0.0223640722597938 -1.10929639828771E-06 2.37626539363788E-06
2.8 3.21543252325774E-06 -4.92850406364348E-07 0.000734180498900538 0.0226477419316781 0.000734180498900538 0.0226477419316781 -9.86335156615079E-07 2.81820073024033E-06
2.85 3.50029488988072E-06 -9.73727024903415E-07 0.00264385677569866 0.0224876733745079 0.00264385677569866 0.0224876733745079 -8.04709720880717E-07 3.23690250802947E-06
2.9 3.70438584922775E-06 -1.50400116270424E-06 0.00466594880672689 0.0228256762232011 0.0046659488067269 0.0228256762232011 -5.67366024238428E-07 3.62345156887264E-06
2.95 3.82020136604021E-06 -2.06869939462582E-06 0.00657830550807548 0.0223518279479116 0.00657830550807552 0.0223518279479116 -2.79527876443701E-07 3.96947018197538E-06
3 3.84286533865635E-06 -2.65204313488862E-06 0.00856987751823801 0.0220432185309487 0.00856987751823801 0.0220432185309487 5.24763128365412E-08 4.26703249075284E-06
3.05 3.77041133400927E-06 -3.23769026360738E-06 0.0104022990199838 0.0212439381579643 0.0104022990199838 0.0212439381579643 4.20935830714286E-07 4.50982229791728E-06
3.1 3.60349847533628E-06 -3.80926939258503E-06 0.0122061640258118 0.0203689867978491 0.0122061640258118 0.0203689867978491 8.16789985238912E-07 4.692433415996E-06
3.15 3.34572554763844E-06 -4.35108368724927E-06 0.0138887236493338 0.019275397083929 0.0138887236493338 0.019275397083929 1.23096487447696E-06 4.81141249383229E-06
3.2 3.00334334484534E-06 -4.84817246785623E-06 0.0158608019448558 0.0184950565510175 0.0158608019448558 0.0184950565510175 1.65315385390948E-06 4.86503034816517E-06
3.25 2.58486217911331E-06 -5.28701471075458E-06 0.0171431956244197 0.0168727320883631 0.0171431956244197 0.0168727320883631 2.07320533057088E-06 4.85270823026709E-06
3.3 2.10110540581233E-06 -5.65592527548566E-06 0.019186326308264 0.0159316852930705 0.019186326308264 0.0159316852930705 2.48132102819278E-06 4.77602930724021E-06
3.35 1.56466047648512E-06 -5.9452196859146E-06 0.0201383568028921 0.0140312158504633 0.0201383568028921 0.0140312158504633 2.86788904708152E-06 4.63779558077578E-06
3.4 9.89562999187472E-07 -6.14776338549832E-06 0.0213740053725005 0.0123544758899653 0.0213740053725005 0.0123544758899653 3.2246711024934E-06 4.44248035383702E-06
3.45 3.90974561081959E-07 -6.25887442278493E-06 0.0226102766327924 0.0106352726655894 0.0226102766327924 0.0106352726655894 3.54366400391491E-06 4.19576975801715E-06
3.5 -2.15535095655533E-07 -6.27652909270524E-06 0.023396176579895 0.00867957851587193 0.023396176579895 0.00867957851587193 3.8181358351158E-06 3.90371709535892E-06
3.55 -8.14229589662364E-07 -6.20158167821317E-06 0.0238064907397645 0.00660984011299868 0.0238064907397645 0.00660984011299872 4.04275720528676E-06 3.57365387870072E-06
3.6 -1.38971345829016E-06 -6.03753372172108E-06 0.0241665082177833 0.00455788241814759 0.0241665082177833 0.00455788241814759 4.21298161100064E-06 3.21322920858956E-06
3.65 -1.92749391071016E-06 -5.79055872401846E-06 0.0250698427446443 0.00256608793861428 0.0250698427446443 0.00256608793861428 4.32580900434756E-06 2.83026312337739E-06
3.7 -2.41427148022292E-06 -5.46925191644099E-06 0.0244447263748567 0.000430070297856161 0.0244447263748567 0.000430070297856161 4.37916610443497E-06 2.4328339206929E-06
3.75 -2.83843990299458E-06 -5.08435883934441E-06 0.0249844397848636 -0.00167193011228419 0.0249844397848636 -0.00167193011228419 4.37197359285228E-06 2.02897942882973E-06
3.8 -3.19040579802974E-06 -4.64850318805077E-06 0.024633826789646 -0.00375408514924845 0.024633826789646 -0.00375408514924845 4.30411342537022E-06 1.62655536403903E-06
3.85 -3.46282785489316E-06 -4.17573554778818E-06 0.024363972819912 -0.00584998969856472 0.0243639728199121 -0.00584998969856468 4.17622056252716E-06 1.23316440438891E-06
3.9 -3.6509344991283E-06 -3.68120264517252E-06 0.0233748399085371 -0.00774788724302153 0.0233748399085371 -0.00774788724302153 3.98976918031449E-06 8.56349889477629E-07
3.95 -3.75259404268884E-06 -3.18065136901662E-06 0.0231602918410694 -0.00991479739222391 0.0231602918410694 -0.00991479739222391 3.74690735880139E-06 5.03232065495607E-07
4 -3.76843489582413E-06 -2.68996369457696E-06 0.0216931885644314 -0.0115407183738366 0.0216931885644314 -0.0115407183738366 3.4505940953111E-06 1.807628688702E-07
4.05 -3.70181980469289E-06 -2.22468723873439E-06 0.0213225608228374 -0.0137680682522437 0.0213225608228374 -0.0137680682522437 3.10433529503804E-06 -1.04270451417939E-07
4.1 -3.55873322732352E-06 -1.79955023665117E-06 0.0197169245190596 -0.0152326303895124 0.0197169245190596 -0.0152326303895124 2.71240010288331E-06 -3.45446848053279E-07
4.15 -3.34764419946693E-06 -1.42802886071097E-06 0.0190140697259701 -0.0174395198616291 0.0190140697259701 -0.0174395198616291 2.27974221998043E-06 -5.36568568651215E-07
4.2 -3.07917377467871E-06 -1.1218969214694E-06 0.0174430198779644 -0.0189461299893131 0.0174430198779644 -0.0189461299893131 1.81201621445885E-06 -6.71954200984994E-07
4.25 -2.765940482294E-06 -8.90855466097484E-07 0.0150245618417646 -0.0193725205589573 0.0150245618417646 -0.0193725205589573 1.31581689030636E-06 -7.4630479964891E-07
4.3 -2.42206107235667E-06 -7.42277667621623E-07 0.014168169615378 -0.0218533291908647 0.014168169615378 -0.0218533291908647 7.98450805917071E-07 -7.54926232514202E-07
4.35 -2.06268057000358E-06 -6.80901127707851E-07 0.0119204285983192 -0.0223089362861836 0.0119204285983193 -0.0223089362861837 2.68116357040043E-07 -6.93938210310059E-07
4.4 -1.70359684114307E-06 -7.08763662201712E-07 0.00987356637611282 -0.022950982895246 0.00987356637611282 -0.022950982895246 -2.66259038792079E-07 -5.60303623502792E-07
4.45 -1.36065953557412E-06 -8.25241754825771E-07 0.00782144277421388 -0.023460536516503 0.00782144277421388 -0.023460536516503 -7.95092165279437E-07 -3.52194700196758E-07
4.5 -1.04950913245859E-06 -1.0269388269518E-06 0.00589443294129303 -0.0243685533614506 0.00589443294129303 -0.0243685533614506 -1.30824789970761E-06 -6.8966882186108E-08
4.55 -7.85168363142945E-07 -1.30779851393555E-06 0.00377973657340867 -0.024534202917969 0.00377973657340867 -0.024534202917969 -1.79526799496073E-06 2.8854888730922E-07
4.6 -5.81465341535129E-07 -1.65917594287249E-06 0.00173439062119178 -0.0253206705770468 0.00173439062119178 -0.0253206705770468 -2.24548665432228E-06 7.18050704242765E-07
4.65 -4.50690866502393E-07 -2.07003622742148E-06 -0.000403579200879312 -0.025106221551495 -0.000403579200879312 -0.025106221551495 -2.64850614436887E-06 1.21562668367361E-06
4.7 -4.03155451444248E-07 -2.5273641965273E-06 -0.00247088119507765 -0.0244955459723178 -0.00247088119507765 -0.0244955459723179 -2.99416970695947E-06 1.77569115850434E-06
4.75 -4.46822862593818E-07 -3.01639495073754E-06 -0.00447468920393427 -0.0239137205842785 -0.00447468920393427 -0.0239137205842785 -3.27304505122112E-06 2.39124371252397E-06
4.8 -5.8718591673982E-07 -3.52109086156859E-06 -0.0065922155782627 -0.023873616986609 -0.00659221557826271 -0.023873616986609 -3.47668056104435E-06 3.05366381078433E-06
4.85 -8.26939846382619E-07 -4.02459472218049E-06 -0.00848569670329661 -0.0229724263781358 -0.00848569670329661 -0.0229724263781358 -3.5977646841053E-06 3.75310843428879E-06
4.9 -1.16593906778566E-06 -4.50961591383109E-06 -0.0105790552975773 -0.0225738669099769 -0.0105790552975773 -0.0225738669099769 -3.63060335970703E-06 4.47849421535312E-06
4.95 -1.60120060541778E-06 -4.95902952846342E-06 -0.0122501155671395 -0.0212650097145801 -0.0122501155671395 -0.0212650097145801 -3.57077609159729E-06 5.21778658859449E-06
5 -2.12686367844956E-06 -5.35636134638232E-06 -0.0142235086238349 -0.0204810115590035 -0.0142235086238349 -0.0204810115590035 -3.41553947434478E-06 5.95859429033594E-06
5.05 -2.73437125191185E-06 -5.68615417057042E-06 -0.0158089760220244 -0.0191018396662368 -0.0158089760220244 -0.0191018396662368 -3.1640172226811E-06 6.6881378443653E-06
5.1 -3.41264950177127E-06 -5.93453065762775E-06 -0.0169244320800023 -0.0172566934554901 -0.0169244320800023 -0.0172566934554901 -2.81743548960501E-06 7.39331531288503E-06
5.15 -4.14835398322228E-06 -6.08952591208823E-06 -0.0186740664819684 -0.0160775355120929 -0.0186740664819684 -0.0160775355120929 -2.37871434858344E-06 8.0610175703027E-06
5.2 -4.92636654757254E-06 -6.14142981673228E-06 -0.0195562693972243 -0.0141556065365165 -0.0195562693972243 -0.0141556065365165 -1.85209853686981E-06 8.67878165255453E-06
5.25 -5.73008505227474E-06 -6.083191115895E-06 -0.0210697397747076 -0.0126958345071986 -0.0210697397747076 -0.0126958345071986 -1.24404325900214E-06 9.23487229524532E-06
5.3 -6.54186077373996E-06 -5.91056917596577E-06 -0.0213358774047928 -0.0105199379825223 -0.0213358774047928 -0.0105199379825223 -5.6220756680913E-07 9.71814646951209E-06
5.35 -7.34354191442097E-06 -5.62218429449825E-06 -0.0221542759719121 -0.00869215551151081 -0.0221542759719121 -0.00869215551151081 1.84424479057422E-07 1.0118718297045E-05
5.4 -8.11691758732182E-06 -5.21971413425105E-06 -0.0225839358223962 -0.00673260680492286 -0.0225839358223962 -0.00673260680492286 9.85168420614648E-07 1.04277311510913E-05
5.45 -8.84420296764453E-06 -4.70775795835475E-06 -0.023237050447006 -0.00484571461938881 -0.023237050447006 -0.00484571461938881 1.828678588632E-06 1.06374302971644E-05
5.5 -9.50859047398565E-06 -4.0938005824884E-06 -0.0231130989937217 -0.00282153079781495 -0.0231130989937217 -0.00282153079781495 2.70224996964113E-06 1.07418171505521E-05
5.55 -1.0094621967878E-05 -3.38805664957094E-06 -0.0235117396650752 -0.000879369160230024 -0.0235117396650752 -0.000879369160230024 3.59229603889208E-06 1.07360035369909E-05
5.6 -1.05886057862012E-05 -2.60308238647114E-06 -0.0231850628639384 0.00108316676571801 -0.0231850628639384 0.00108316676571801 4.48464197901855E-06 1.06170107309847E-05
5.65 -1.09790305014659E-05 -1.75354604007214E-06 -0.0234070392390044 0.00307762081391813 -0.0234070392390044 0.00307762081391813 5.3640997926033E-06 1.03835211726444E-05
5.7 -1.12568467545828E-05 -8.55837318342532E-07 -0.0222361456076079 0.00485032213193417 -0.0222361456076079 0.00485032213193417 6.21528067374816E-06 1.00358962869971E-05
5.75 -1.14157376319552E-05 7.23823682466857E-08 -0.0217109530658296 0.00668698034431089 -0.0217109530658296 0.00668698034431089 7.02254211854639E-06 9.57682800220674E-06
5.8 -1.14523184106214E-05 1.01256174013031E-06 -0.0216150198426575 0.00870319697157427 -0.0216150198426575 0.00870319697157427 7.77044303477813E-06 9.01098884737377E-06
