#  MHZ S MA R 50.0
2000.0 1.70539084e-2 12.6476883 9.59689180e-1 135.349421 9.59689180e-1 135.349421 2.24092657e-2 -99.1482490
2010.0 1.67152648e-2 10.1096192 9.59509642e-1 134.233965 9.59509642e-1 134.233965 2.24711203e-2 -100.551579
2020.0 1.63959776e-2 7.48568479 9.59330393e-1 133.118549 9.59330393e-1 133.118549 2.25308930e-2 -101.959288
2030.0 1.60976231e-2 4.77670021 9.59151431e-1 132.003177 9.59151431e-1 132.003177 2.25887307e-2 -103.366932
2040.0 1.58220192e-2 1.98488834 9.58972748e-1 130.887844 9.58972748e-1 130.887844 2.26440226e-2 -104.775452
2050.0 1.55708179e-2 -8.85839656e-1 9.58794346e-1 129.772559 9.58794346e-1 129.772559 2.26980828e-2 -106.188321
2060.0 1.53454855e-2 -3.83047058 9.58616217e-1 128.657313 9.58616217e-1 128.657313 2.27505199e-2 -107.603059
2070.0 1.51473918e-2 -6.84241022 9.58438360e-1 127.542100 9.58438360e-1 127.542100 2.28012871e-2 -109.020548
2080.0 1.49778965e-2 -9.91322146 9.58260771e-1 126.426938 9.58260771e-1 126.426938 2.28505237e-2 -110.445877
2090.0 1.48381562e-2 -13.0343775 9.58083447e-1 125.311814 9.58083447e-1 125.311814 2.28979516e-2 -111.874800
2100.0 1.47287212e-2 -16.1945751 9.57906383e-1 124.196734 9.57906383e-1 124.196734 2.29427164e-2 -113.306849
2110.0 1.46503443e-2 -19.3822219 9.57729583e-1 123.081691 9.57729583e-1 123.081691 2.29854528e-2 -114.743993
2120.0 1.46032691e-2 -22.5853686 9.57553032e-1 121.966693 9.57553032e-1 121.966693 2.30256885e-2 -116.183966
2130.0 1.45875091e-2 -25.7902998 9.57376731e-1 120.851734 9.57376731e-1 120.851734 2.30626298e-2 -117.628349
2140.0 1.46029470e-2 -28.9845730 9.57200668e-1 119.736812 9.57200668e-1 119.736812 2.30975106e-2 -119.069924
2150.0 1.46488491e-2 -32.1555445 9.57024875e-1 118.621934 9.57024875e-1 118.621934 2.31304871e-2 -120.516128
2160.0 1.47245998e-2 -35.2908309 0.95684930 117.507096 0.95684930 117.507096 2.31607973e-2 -121.968476
2170.0 1.48291060e-2 -38.3800934 9.56673982e-1 116.392296 9.56673982e-1 116.392296 2.31890036e-2 -123.428116
2180.0 1.49609613e-2 -41.4131368 9.56498894e-1 115.277539 9.56498894e-1 115.277539 2.32130854e-2 -124.892095
2190.0 1.51189612e-2 -44.3809354 9.56324036e-1 114.162823 9.56324036e-1 114.162823 2.32342110e-2 -126.365971
2200.0 1.53013874e-2 -47.2777147 9.56149414e-1 113.048147 9.56149414e-1 113.048147 2.32502337e-2 -127.845860
2210.0 1.55066960e-2 -50.0969829 9.55975015e-1 111.933513 9.55975015e-1 111.933513 2.32612131e-2 -129.337183
2220.0 1.57329745e-2 -52.8347879 9.55800838e-1 110.818916 9.55800838e-1 110.818916 2.32669429e-2 -130.832061
2230.0 1.59785815e-2 -55.4884009 9.55626890e-1 109.704357 9.55626890e-1 109.704357 2.32656211e-2 -132.331160
2240.0 1.62415833e-2 -58.0569052 9.55453165e-1 108.589844 9.55453165e-1 108.589844 2.32533061e-2 -133.822792
2250.0 1.65204037e-2 -60.5391873 9.55279636e-1 107.475367 9.55279636e-1 107.475367 2.32333046e-2 -135.306635
2260.0 1.68130588e-2 -62.9358308 9.55106352e-1 106.360932 9.55106352e-1 106.360932 2.32087239e-2 -136.773372
2270.0 1.71180494e-2 -65.2482354 9.54933267e-1 105.246532 9.54933267e-1 105.246532 2.31833816e-2 -138.219109
2280.0 1.74336189e-2 -67.4787481 9.54760387e-1 104.132173 9.54760387e-1 104.132173 2.31592066e-2 -139.648988
2290.0 1.77583356e-2 -69.6297131 9.54587717e-1 103.017847 9.54587717e-1 103.017847 2.31374636e-2 -141.065763
2300.0 1.80906060e-2 -71.7036794 9.54415253e-1 101.903563 9.54415253e-1 101.903563 2.31174863e-2 -142.472520
2310.0 1.84290115e-2 -73.7036479 0.95424300 100.789311 0.95424300 100.789311 2.31003321e-2 -143.871698
2320.0 1.87722283e-2 -75.6331840 9.54070940e-1 99.6750997 9.54070940e-1 99.6750997 2.30849955e-2 -145.264573
2330.0 1.91190903e-2 -77.4955207 9.53899075e-1 98.5609277 9.53899075e-1 98.5609277 2.30733180e-2 -146.653795
2340.0 1.94683193e-2 -79.2944266 0.95372740 97.4467852 0.95372740 97.4467852 2.30641527e-2 -148.039195
2350.0 1.98188916e-2 -81.0326929 9.53555932e-1 96.3326807 9.53555932e-1 96.3326807 2.30576994e-2 -149.423318
2360.0 2.01697201e-2 -82.7142930 9.53384647e-1 95.2186148 9.53384647e-1 95.2186148 2.30545341e-2 -150.805596
2370.0 2.05199136e-2 -84.3422606 9.53213552e-1 94.1045840 9.53213552e-1 94.1045840 2.30544504e-2 -152.188492
2380.0 2.08685307e-2 -85.9198016 9.53042629e-1 92.9905869 9.53042629e-1 92.9905869 2.30574208e-2 -153.572842
2390.0 2.12148120e-2 -87.4501454 0.95287190 91.8766224 0.95287190 91.8766224 2.30636286e-2 -154.958866
2400.0 2.15579568e-2 -88.9360347 9.52701360e-1 90.7626963 9.52701360e-1 90.7626963 2.30728345e-2 -156.347589
2410.0 2.18973032e-2 -90.3806697 9.52530981e-1 89.6488010 9.52530981e-1 89.6488010 2.30854480e-2 -157.739121
2420.0 2.22321580e-2 -91.7862346 9.52360769e-1 88.5349410 9.52360769e-1 88.5349410 2.31009873e-2 -159.134556
2430.0 2.25619751e-2 -93.1557802 9.52190742e-1 87.4211070 9.52190742e-1 87.4211070 2.31196655e-2 -160.534106
2440.0 2.28862102e-2 -94.4915596 9.52020878e-1 86.3073126 9.52020878e-1 86.3073126 2.31413186e-2 -161.938330
2450.0 0.02320430 -95.7960901 9.51851153e-1 85.1935469 9.51851153e-1 85.1935469 2.31658126e-2 -163.348142
2460.0 2.35156537e-2 -97.0712264 9.51681619e-1 84.0798162 9.51681619e-1 84.0798162 2.31931596e-2 -164.764355
2470.0 2.38199959e-2 -98.3191631 9.51512240e-1 82.9661192 9.51512240e-1 82.9661192 2.32232681e-2 -166.186801
2480.0 2.41168966e-2 -99.5419258 0.95134300 81.8524559 0.95134300 81.8524559 2.32561747e-2 -167.616703
2490.0 2.44059841e-2 -100.741638 9.51173919e-1 80.7388188 9.51173919e-1 80.7388188 2.32916953e-2 -169.053887
2500.0 2.46867961e-2 -101.919781 9.51004994e-1 79.6252209 9.51004994e-1 79.6252209 2.33298104e-2 -170.499419
2510.0 2.49591462e-2 -103.077818 9.50836192e-1 78.5116566 9.50836192e-1 78.5116566 2.33704319e-2 -171.953094
2520.0 2.52228085e-2 -104.217774 9.50667541e-1 77.3981252 9.50667541e-1 77.3981252 2.34135275e-2 -173.415336
2530.0 2.54774755e-2 -105.340847 9.50499021e-1 76.2846293 9.50499021e-1 76.2846293 2.34590765e-2 -174.886760
2540.0 2.57229086e-2 -106.448328 9.50330623e-1 75.1711690 9.50330623e-1 75.1711690 2.35067154e-2 -176.367567
2550.0 2.59588767e-2 -107.541774 9.50162390e-1 74.0577338 9.50162390e-1 74.0577338 2.35566738e-2 -177.858003
2560.0 2.61853360e-2 -108.622230 9.49994290e-1 72.9443469 9.49994290e-1 72.9443469 2.36086533e-2 -179.358593
2570.0 2.64020507e-2 -109.690902 9.49826275e-1 71.8309862 9.49826275e-1 71.8309862 2.36625874e-2 179.130855
2580.0 2.66089032e-2 -110.749291 9.49658419e-1 70.7176610 9.49658419e-1 70.7176610 2.37185489e-2 177.609435
2590.0 2.68059761e-2 -111.797767 9.49490688e-1 69.6043741 9.49490688e-1 69.6043741 2.37762492e-2 176.077599
2600.0 2.69929725e-2 -112.838081 9.49323052e-1 68.4911204 9.49323052e-1 68.4911204 2.38357986e-2 174.535014
2610.0 2.71698942e-2 -113.870837 9.49155570e-1 67.3779030 9.49155570e-1 67.3779030 2.38970115e-2 172.981398
2620.0 2.73367572e-2 -114.897233 9.48988147e-1 66.2647237 9.48988147e-1 66.2647237 2.39597268e-2 171.416555
2630.0 2.74935739e-2 -115.917754 9.48820877e-1 65.1515768 9.48820877e-1 65.1515768 2.40239643e-2 169.840305
2640.0 2.76403431e-2 -116.933669 9.48653713e-1 64.0384692 9.48653713e-1 64.0384692 2.40896268e-2 168.253154
2650.0 2.77770062e-2 -117.945562 9.48486676e-1 62.9253906 9.48486676e-1 62.9253906 2.41565189e-2 166.654220
2660.0 2.79037308e-2 -118.954268 9.48319716e-1 61.8123555 9.48319716e-1 61.8123555 2.42246535e-2 165.043704
2670.0 2.80205719e-2 -119.960661 9.48152871e-1 60.6993494 9.48152871e-1 60.6993494 2.42937360e-2 163.421671
2680.0 2.81275705e-2 -120.965494 9.47986134e-1 59.5863850 9.47986134e-1 59.5863850 2.43638387e-2 161.787966
2690.0 2.82249387e-2 -121.969252 9.47819519e-1 58.4734532 9.47819519e-1 58.4734532 2.44349035e-2 160.142330
2700.0 2.83127057e-2 -122.972792 9.47652966e-1 57.3605562 9.47652966e-1 57.3605562 2.45066675e-2 158.484709
2710.0 2.83909534e-2 -123.976962 9.47486519e-1 56.2476929 9.47486519e-1 56.2476929 2.45791869e-2 156.815708
2720.0 2.84599085e-2 -124.981963 0.94732020 55.1348673 0.94732020 55.1348673 2.46523585e-2 155.134500
2730.0 2.85197602e-2 -125.988890 9.47153949e-1 54.0220701 9.47153949e-1 54.0220701 2.47260275e-2 153.442016
2740.0 2.85705736e-2 -126.998197 0.94698780 52.9093157 0.94698780 52.9093157 2.48001740e-2 151.737700
2750.0 2.86126254e-2 -128.010445 9.46821758e-1 51.7965914 9.46821758e-1 51.7965914 2.48747134e-2 150.022214
2760.0 2.86461422e-2 -129.026454 9.46655775e-1 50.6839060 9.46655775e-1 50.6839060 2.49496269e-2 148.295147
2770.0 2.86712274e-2 -130.046616 9.46489891e-1 49.5712516 9.46489891e-1 49.5712516 2.50247455e-2 146.556619
2780.0 2.86881789e-2 -131.071408 9.46324088e-1 48.4586335 9.46324088e-1 48.4586335 2.50998888e-2 144.806780
2790.0 2.86971714e-2 -132.101519 9.46158417e-1 47.3460482 9.46158417e-1 47.3460482 2.51752057e-2 143.045896
2800.0 2.86986090e-2 -133.137428 9.45992787e-1 46.2334965 9.45992787e-1 46.2334965 2.52505562e-2 141.273962
2810.0 2.86926538e-2 -134.179646 9.45827229e-1 45.1209756 9.45827229e-1 45.1209756 2.53259293e-2 139.490799
2820.0 2.86795710e-2 -135.228770 9.45661783e-1 44.0084942 9.45661783e-1 44.0084942 2.54012117e-2 137.696897
2830.0 2.86596687e-2 -136.285144 9.45496411e-1 42.8960419 9.45496411e-1 42.8960419 2.54763081e-2 135.891835
2840.0 2.86332752e-2 -137.349338 9.45331144e-1 41.7836216 9.45331144e-1 41.7836216 2.55512668e-2 134.076559
2850.0 2.86006961e-2 -138.421733 9.45165917e-1 40.6712341 9.45165917e-1 40.6712341 2.56260422e-2 132.250586
2860.0 2.85622077e-2 -139.502950 9.45000785e-1 39.5588797 9.45000785e-1 39.5588797 2.57004736e-2 130.414340
2870.0 2.85180939e-2 -140.593229 9.44835713e-1 38.4465534 9.44835713e-1 38.4465534 2.57744594e-2 128.568013
2880.0 2.84688707e-2 -141.693377 9.44670747e-1 37.3342662 9.44670747e-1 37.3342662 2.58480979e-2 126.711825
2890.0 2.84146378e-2 -142.803225 9.44505817e-1 36.2220069 9.44505817e-1 36.2220069 2.59212020e-2 124.845926
2900.0 2.83558602e-2 -143.923546 9.44340972e-1 35.1097806 9.44340972e-1 35.1097806 2.59939064e-2 122.970616
2910.0 2.82928761e-2 -145.054546 9.44176219e-1 33.9975812 9.44176219e-1 33.9975812 2.60660525e-2 121.085975
2920.0 2.82260589e-2 -146.196642 9.44011480e-1 32.8854180 9.44011480e-1 32.8854180 2.61377139e-2 119.192319
2930.0 2.81558465e-2 -147.350222 9.43846816e-1 31.7732846 9.43846816e-1 31.7732846 2.62088441e-2 117.289615
2940.0 2.80825439e-2 -148.515366 9.43682242e-1 30.6611847 9.43682242e-1 30.6611847 2.62793133e-2 115.378324
2950.0 2.80064252e-2 -149.692480 9.43517761e-1 29.5491098 9.43517761e-1 29.5491098 2.63492708e-2 113.458348
2960.0 2.79281218e-2 -150.881626 9.43353317e-1 28.4370685 9.43353317e-1 28.4370685 2.64186454e-2 111.530460
2970.0 2.78479982e-2 -152.083430 9.43188937e-1 27.3250583 9.43188937e-1 27.3250583 2.64873846e-2 109.594371
2980.0 2.77662125e-2 -153.297811 9.43024625e-1 26.2130765 9.43024625e-1 26.2130765 2.65555070e-2 107.650440
2990.0 2.76834054e-2 -154.524764 9.42860382e-1 25.1011249 9.42860382e-1 25.1011249 2.66228354e-2 105.698648
3000.0 2.75999045e-2 -155.764843 9.42696185e-1 23.9892004 9.42696185e-1 23.9892004 2.66895233e-2 103.739591
3010.0 2.75161027e-2 -157.017945 9.42532065e-1 22.8773077 9.42532065e-1 22.8773077 2.67554754e-2 101.773093
3020.0 2.74323926e-2 -158.284074 9.42367973e-1 21.7654382 9.42367973e-1 21.7654382 2.68206238e-2 99.7998578
3030.0 2.73491267e-2 -159.563155 9.42203956e-1 20.6535988 9.42203956e-1 20.6535988 2.68850735e-2 97.8195818
3040.0 2.72667925e-2 -160.855388 9.42040012e-1 19.5417897 9.42040012e-1 19.5417897 2.69488251e-2 95.8330478
3050.0 2.71858971e-2 -162.160616 9.41876079e-1 18.4300069 9.41876079e-1 18.4300069 2.70118519e-2 93.8401969
3060.0 2.71066437e-2 -163.478395 9.41712216e-1 17.3182533 9.41712216e-1 17.3182533 2.70741721e-2 91.8414064
3070.0 0.02702950 -164.808918 9.41548449e-1 16.2065225 9.41548449e-1 16.2065225 2.71358238e-2 89.8369970
3080.0 2.69548822e-2 -166.151845 0.94138470 15.0948206 0.94138470 15.0948206 2.71967250e-2 87.8270700
3090.0 2.68831829e-2 -167.507051 9.41221025e-1 13.9831464 9.41221025e-1 13.9831464 2.72568978e-2 85.8118461
3100.0 2.68147045e-2 -168.873928 9.41057387e-1 12.8714983 9.41057387e-1 12.8714983 2.73163453e-2 83.7920797
3110.0 2.67498138e-2 -170.252352 9.40893817e-1 11.7598809 9.40893817e-1 11.7598809 2.73750729e-2 81.7671583
3120.0 2.66889535e-2 -171.641895 9.40730294e-1 10.6482844 9.40730294e-1 10.6482844 2.74331129e-2 79.7380052
3130.0 2.66325283e-2 -173.042078 9.40566839e-1 9.53671382 9.40566839e-1 9.53671382 2.74903334e-2 77.7043978
3140.0 2.65806484e-2 -174.452317 9.40403412e-1 8.42516975 9.40403412e-1 8.42516975 2.75469899e-2 75.6669137
3150.0 2.65337371e-2 -175.872293 9.40240047e-1 7.31364687 9.40240047e-1 7.31364687 2.76029177e-2 73.6255030
3160.0 2.64923094e-2 -177.301072 0.94007670 6.20215094 0.94007670 6.20215094 2.76582174e-2 71.5807804
3170.0 2.64564116e-2 -178.738171 9.39913458e-1 5.09067976 9.39913458e-1 5.09067976 2.77130185e-2 69.5326084
3180.0 2.64263934e-2 179.817228 9.39750241e-1 3.97922847 9.39750241e-1 3.97922847 2.77671122e-2 67.4816601
3190.0 2.64025692e-2 178.365837 9.39587110e-1 2.86780210 9.39587110e-1 2.86780210 2.78207184e-2 65.4280380
3200.0 2.63850908e-2 176.908374 9.39423985e-1 1.75640499 9.39423985e-1 1.75640499 2.78736936e-2 63.3719407
3210.0 2.63741992e-2 175.445634 9.39260918e-1 6.45021978e-1 9.39260918e-1 6.45021978e-1 2.79259952e-2 61.3136342
3220.0 2.63701516e-2 173.978646 9.39097920e-1 -4.66334588e-1 9.39097920e-1 -4.66334588e-1 2.79778558e-2 59.2535826
3230.0 2.63730398e-2 172.508447 9.38934994e-1 -1.57766791 9.38934994e-1 -1.57766791 2.80291027e-2 57.1919119
3240.0 2.63831673e-2 171.035473 9.38772112e-1 -2.68898204 9.38772112e-1 -2.68898204 2.80798309e-2 55.1290052
3250.0 2.64005018e-2 169.560648 9.38609274e-1 -3.80027028 9.38609274e-1 -3.80027028 2.81300174e-2 53.0648622
3260.0 2.64252615e-2 168.085406 9.38446472e-1 -4.91154119 9.38446472e-1 -4.91154119 2.81796716e-2 51.0000134
3270.0 2.64574383e-2 166.610426 9.38283773e-1 -6.02278630 9.38283773e-1 -6.02278630 2.82288924e-2 48.9343708
3280.0 2.64971704e-2 165.136460 9.38121088e-1 -7.13401514 9.38121088e-1 -7.13401514 2.82776103e-2 46.8686254
3290.0 2.65445527e-2 163.664583 9.37958478e-1 -8.24522643 9.37958478e-1 -8.24522643 2.83259505e-2 44.8027062
3300.0 2.65995323e-2 162.196051 9.37795919e-1 -9.35641255 9.37795919e-1 -9.35641255 2.83738761e-2 42.7369032
3310.0 2.66620978e-2 160.731310 9.37633448e-1 -10.4675849 9.37633448e-1 -10.4675849 2.84213913e-2 40.6715465
3320.0 2.67322390e-2 159.271312 9.37471016e-1 -11.5787333 9.37471016e-1 -11.5787333 2.84684990e-2 38.6069544
3330.0 2.68099800e-2 157.817281 9.37308653e-1 -12.6898667 9.37308653e-1 -12.6898667 2.85153578e-2 36.5432333
3340.0 2.68951592e-2 156.369845 9.37146325e-1 -13.8009835 9.37146325e-1 -13.8009835 2.85617910e-2 34.4806401
3350.0 2.69877192e-2 154.929848 9.36984075e-1 -14.9120832 9.36984075e-1 -14.9120832 2.86078774e-2 32.4196139
3360.0 2.70875476e-2 153.498227 9.36821855e-1 -16.0231590 9.36821855e-1 -16.0231590 2.86536858e-2 30.3600692
3370.0 2.71945136e-2 152.075604 9.36659744e-1 -17.1342255 9.36659744e-1 -17.1342255 2.86991420e-2 28.3025673
3380.0 2.73085291e-2 150.663001 9.36497671e-1 -18.2452697 9.36497671e-1 -18.2452697 2.87444208e-2 26.2472038
3390.0 2.74294146e-2 149.260617 9.36335697e-1 -19.3563005 9.36335697e-1 -19.3563005 2.87894180e-2 24.1943304
3400.0 2.75569920e-2 147.869174 9.36173782e-1 -20.4673161 9.36173782e-1 -20.4673161 2.88342052e-2 22.1440481
3410.0 2.76910159e-2 146.489608 9.36011890e-1 -21.5783174 9.36011890e-1 -21.5783174 2.88788018e-2 20.0967947
3420.0 2.78313790e-2 145.122176 9.35850088e-1 -22.6893018 9.35850088e-1 -22.6893018 2.89232269e-2 18.0527000
3430.0 2.79777589e-2 143.767457 0.93568840 -23.8002735 0.93568840 -23.8002735 2.89675779e-2 16.0120734
3440.0 2.81300243e-2 142.425790 9.35526748e-1 -24.9112311 9.35526748e-1 -24.9112311 2.90117745e-2 13.9751688
3450.0 2.82879517e-2 141.097741 9.35365179e-1 -26.0221747 9.35365179e-1 -26.0221747 2.90557460e-2 11.9420765
3460.0 2.84512436e-2 139.783599 9.35203664e-1 -27.1331035 9.35203664e-1 -27.1331035 2.90997640e-2 9.91302340
3470.0 2.86195564e-2 138.483765 9.35042283e-1 -28.2440271 9.35042283e-1 -28.2440271 2.91436591e-2 7.88825013
3480.0 2.87929048e-2 137.198278 9.34880957e-1 -29.3549263 9.34880957e-1 -29.3549263 2.91874688e-2 5.86803065
3490.0 2.89707278e-2 135.927598 0.93471970 -30.4658237 0.93471970 -30.4658237 2.92311971e-2 3.85250155
3500.0 2.91529124e-2 134.671619 9.34558498e-1 -31.5767025 9.34558498e-1 -31.5767025 2.92749391e-2 1.84192780
3510.0 2.93390801e-2 133.430812 9.34397442e-1 -32.6875734 9.34397442e-1 -32.6875734 2.93186924e-2 -1.63570162e-1
3520.0 2.95292137e-2 132.204944 9.34236487e-1 -33.7984295 9.34236487e-1 -33.7984295 2.93626108e-2 -2.16361610
3530.0 2.97227553e-2 130.994451 9.34075557e-1 -34.9092750 9.34075557e-1 -34.9092750 2.94064432e-2 -4.15798411
3540.0 2.99195905e-2 129.798856 9.33914744e-1 -36.0201150 9.33914744e-1 -36.0201150 2.94504985e-2 -6.14658440
3550.0 3.01193993e-2 128.618478 9.33754080e-1 -37.1309424 9.33754080e-1 -37.1309424 2.94947358e-2 -8.12917908
3560.0 3.03219010e-2 127.453178 9.33593451e-1 -38.2417611 9.33593451e-1 -38.2417611 2.95391493e-2 -10.1055227
3570.0 3.05269372e-2 126.302797 9.33432921e-1 -39.3525695 9.33432921e-1 -39.3525695 2.95837345e-2 -12.0756739
3580.0 3.07340855e-2 125.167285 9.33272535e-1 -40.4633685 9.33272535e-1 -40.4633685 2.96286055e-2 -14.0390375
3590.0 3.09430876e-2 124.046606 9.33112288e-1 -41.5741625 9.33112288e-1 -41.5741625 2.96737030e-2 -15.9958883
3600.0 3.11537977e-2 122.940496 9.32952065e-1 -42.6849485 9.32952065e-1 -42.6849485 2.97192898e-2 -17.9457698
3610.0 3.13659038e-2 121.848818 9.32791998e-1 -43.7957255 9.32791998e-1 -43.7957255 2.97651542e-2 -19.8885798
3620.0 0.03157910 120.771282 0.93263200 -44.9064976 0.93263200 -44.9064976 2.98114233e-2 -21.8242131
3630.0 3.17932276e-2 119.708025 9.32472242e-1 -46.0172595 9.32472242e-1 -46.0172595 2.98582175e-2 -23.7525028
3640.0 3.20080584e-2 118.658361 9.32312514e-1 -47.1280158 9.32312514e-1 -47.1280158 2.99054279e-2 -25.6735368
3650.0 0.03222320 117.622328 9.32152919e-1 -48.2387679 9.32152919e-1 -48.2387679 2.99531778e-2 -27.5866713
3660.0 3.24385675e-2 116.599612 9.31993479e-1 -49.3495137 9.31993479e-1 -49.3495137 3.00015480e-2 -29.4921932
3670.0 3.26539303e-2 115.589946 9.31834137e-1 -50.4602556 9.31834137e-1 -50.4602556 3.00506815e-2 -31.3898627
3680.0 3.28690086e-2 114.593009 0.93167500 -51.5709904 0.93167500 -51.5709904 3.01004454e-2 -33.2796324
3690.0 3.30836557e-2 113.608673 9.31515895e-1 -52.6817212 9.31515895e-1 -52.6817212 3.01509655e-2 -35.1611989
3700.0 3.32975684e-2 112.636485 9.31357019e-1 -53.7924487 9.31357019e-1 -53.7924487 3.02023272e-2 -37.0347428
3710.0 3.35106027e-2 111.676259 9.31198268e-1 -54.9031773 9.31198268e-1 -54.9031773 3.02545701e-2 -38.8999579
3720.0 3.37225817e-2 110.727721 9.31039664e-1 -56.0138986 9.31039664e-1 -56.0138986 3.03077817e-2 -40.7568179
3730.0 3.39334164e-2 109.790348 9.30881230e-1 -57.1246149 9.30881230e-1 -57.1246149 3.03620048e-2 -42.6052394
3740.0 3.41426808e-2 108.864114 9.30722953e-1 -58.2353322 9.30722953e-1 -58.2353322 3.04173591e-2 -44.4450450
3750.0 3.43503101e-2 107.948664 9.30564812e-1 -59.3460456 9.30564812e-1 -59.3460456 3.04738967e-2 -46.2764921
3760.0 3.45562497e-2 107.043590 9.30406853e-1 -60.4567581 9.30406853e-1 -60.4567581 3.05317460e-2 -48.0992188
3770.0 3.47603076e-2 106.148591 9.30249070e-1 -61.5674720 9.30249070e-1 -61.5674720 3.05906958e-2 -49.9136109
3780.0 3.49622168e-2 105.263525 9.30091429e-1 -62.6781835 9.30091429e-1 -62.6781835 3.06511567e-2 -51.7192421
3790.0 3.51618954e-2 104.387918 9.29934014e-1 -63.7888943 9.29934014e-1 -63.7888943 0.03071310 -53.5161119
3800.0 3.53593527e-2 103.521633 9.29776760e-1 -64.8996034 9.29776760e-1 -64.8996034 3.07764722e-2 -55.3046140
3810.0 3.55542399e-2 102.664218 9.29619695e-1 -66.0103170 9.29619695e-1 -66.0103170 3.08415820e-2 -57.0842882
3820.0 3.57464816e-2 101.815566 9.29462826e-1 -67.1210302 9.29462826e-1 -67.1210302 3.09082976e-2 -58.8553776
3830.0 3.59360643e-2 100.975144 9.29306175e-1 -68.2317465 9.29306175e-1 -68.2317465 0.03097690 -60.6178511
