!Agilent Technologies,E8358A,US40260214,A.04.86
!Agilent E8358A: A.04.86
!Date: Wednesday, July 24, 2019 08:31:13
!Correction: S11(Full 2 Port SOLT,1,2) S21(Full 2 Port SOLT,1,2) S12(Full 2 Port SOLT,1,2) S22(Full 2 Port SOLT,1,2) 
!S2P File: Measurements: S11, S21, S12, S22:
# Hz S  dB   R 50
1000000000 -2.244591e+001 7.016279e+001 -1.370646e+000 2.991030e+000 -1.377400e+000 2.971358e+000 -2.218000e+001 9.258652e+001
1025000000 -2.363604e+001 -3.163186e+001 -1.350646e+000 -1.051046e+002 -1.355330e+000 -1.051923e+002 -2.455322e+001 -1.224448e+000
1050000000 -3.880079e+001 1.464332e+002 -1.346958e+000 1.474920e+002 -1.287120e+000 1.474581e+002 -3.522876e+001 -4.537804e+001
1075000000 -2.653749e+001 8.607375e+001 -1.433949e+000 3.960771e+001 -1.412992e+000 3.951363e+001 -2.694726e+001 1.444393e+002
1100000000 -2.262400e+001 -3.150597e+000 -1.361661e+000 -6.849842e+001 -1.362024e+000 -6.872212e+001 -2.357069e+001 3.265112e+001
1125000000 -4.353693e+001 -9.514908e+001 -1.359892e+000 -1.758698e+002 -1.347352e+000 -1.760200e+002 -4.207541e+001 -2.266573e+001
1150000000 -4.165366e+001 1.302452e+002 -1.466016e+000 7.571665e+001 -1.448802e+000 7.585101e+001 -3.569226e+001 1.315058e+002
1175000000 -2.171890e+001 4.352892e+001 -1.417750e+000 -3.198838e+001 -1.424248e+000 -3.216076e+001 -2.177906e+001 5.231596e+001
1200000000 -2.471036e+001 -5.675302e+001 -1.411055e+000 -1.390918e+002 -1.374504e+000 -1.393769e+002 -2.529241e+001 -4.586528e+001
1225000000 -3.475362e+001 1.398616e+002 -1.442114e+000 1.123010e+002 -1.465443e+000 1.122130e+002 -3.148705e+001 -1.048306e+002
1250000000 -2.294340e+001 4.860432e+001 -1.431270e+000 4.596068e+000 -1.434485e+000 4.368298e+000 -2.395690e+001 1.197715e+002
1275000000 -2.413734e+001 -4.769828e+001 -1.493208e+000 -1.025047e+002 -1.489807e+000 -1.027410e+002 -2.575091e+001 1.462799e+001
1300000000 -3.587589e+001 4.036384e+001 -1.482231e+000 1.490594e+002 -1.503848e+000 1.487894e+002 -3.494481e+001 4.979702e+001
1325000000 -3.707283e+001 9.490600e+001 -1.411230e+000 4.144090e+001 -1.419642e+000 4.101055e+001 -3.306895e+001 1.025503e+002
1350000000 -2.256189e+001 4.606854e+000 -1.550196e+000 -6.643985e+001 -1.537774e+000 -6.634982e+001 -2.282253e+001 1.797902e+001
1375000000 -2.951872e+001 -7.899632e+001 -1.512512e+000 -1.747159e+002 -1.544396e+000 -1.745595e+002 -3.068851e+001 -7.795300e+001
1400000000 -3.676297e+001 1.597001e+002 -1.494304e+000 7.799061e+001 -1.477519e+000 7.797710e+001 -3.262811e+001 1.601526e+002
1425000000 -2.129584e+001 3.225558e+001 -1.602589e+000 -2.994042e+001 -1.593909e+000 -2.988985e+001 -2.132172e+001 6.663360e+001
1450000000 -2.306941e+001 -7.725440e+001 -1.516049e+000 -1.378109e+002 -1.527429e+000 -1.380315e+002 -2.339040e+001 -1.684598e+001
1475000000 -3.477542e+001 9.411402e+001 -1.545919e+000 1.148032e+002 -1.508385e+000 1.145417e+002 -3.025007e+001 -5.915468e+001
1500000000 -2.853341e+001 3.535149e+001 -1.392241e+000 6.489586e+000 -1.385916e+000 6.431145e+000 -3.161077e+001 1.133663e+002
1525000000 -2.500081e+001 -4.332126e+001 -1.402132e+000 -1.012073e+002 -1.394216e+000 -1.013903e+002 -2.656496e+001 3.842682e+000
1550000000 -3.974777e+001 -1.402993e+001 -2.141757e+000 1.521182e+002 -2.007081e+000 1.520062e+002 -4.214508e+001 4.173397e+001
1575000000 -4.036181e+001 -1.665053e+002 -1.902073e+000 4.188089e+001 -2.084295e+000 4.136230e+001 -3.142266e+001 7.509238e+001
1600000000 -2.230417e+001 1.014447e+001 -1.875146e+000 -6.437277e+001 -1.864456e+000 -6.502152e+001 -2.274723e+001 1.577411e+001
1625000000 -2.403355e+001 -9.605605e+001 -2.313368e+000 -1.717353e+002 -2.137840e+000 -1.709045e+002 -2.370040e+001 -5.904567e+001
1650000000 -3.579708e+001 8.899168e+001 -1.930910e+000 7.921718e+001 -2.039926e+000 7.845831e+001 -3.139121e+001 -1.245852e+002
1675000000 -2.436171e+001 8.957784e+000 -1.883466e+000 -2.661530e+001 -1.803298e+000 -2.818501e+001 -2.680919e+001 9.352052e+001
1700000000 -2.631151e+001 -8.754865e+001 -2.249477e+000 -1.365945e+002 -2.237985e+000 -1.354330e+002 -2.789373e+001 -1.560518e+000
1725000000 -3.488105e+001 1.807812e+001 -1.963778e+000 1.151188e+002 -2.091396e+000 1.148891e+002 -3.355909e+001 1.342386e+001
1750000000 -4.666888e+001 -2.719161e+000 -2.134429e+000 1.024560e+001 -1.884460e+000 9.529168e+000 -3.491785e+001 1.936173e+001
1775000000 -2.496345e+001 -3.072169e+001 -2.223311e+000 -9.969842e+001 -2.228603e+000 -9.965579e+001 -2.435389e+001 -1.848610e+001
1800000000 -3.446303e+001 -9.410535e+001 -1.805012e+000 1.522666e+002 -1.979090e+000 1.510204e+002 -3.482281e+001 -9.458875e+001
1825000000 -3.966885e+001 1.099866e+002 -2.218580e+000 4.559483e+001 -2.093747e+000 4.577578e+001 -3.373199e+001 8.596302e+001
1850000000 -2.241419e+001 -3.790370e+000 -2.326262e+000 -6.390946e+001 -2.341867e+000 -6.299067e+001 -2.275433e+001 2.914100e+001
1875000000 -2.342488e+001 -1.137120e+002 -1.940578e+000 -1.697859e+002 -1.868967e+000 -1.713983e+002 -2.379260e+001 -4.762965e+001
1900000000 -3.713541e+001 4.111025e+001 -2.291761e+000 8.145320e+001 -2.266528e+000 8.154639e+001 -3.069690e+001 -6.462835e+001
1925000000 -2.920129e+001 1.814786e+000 -1.892113e+000 -2.690204e+001 -1.993333e+000 -2.789074e+001 -3.226097e+001 6.542094e+001
1950000000 -2.661655e+001 -7.235034e+001 -2.162824e+000 -1.333949e+002 -2.105839e+000 -1.330482e+002 -2.739782e+001 -1.953431e+001
1975000000 -3.499350e+001 -4.163416e+001 -2.426426e+000 1.172191e+002 -2.383478e+000 1.180830e+002 -3.969539e+001 -8.174077e-001
2000000000 -3.583458e+001 -1.347375e+002 -1.995449e+000 9.945452e+000 -1.947858e+000 9.249479e+000 -3.011973e+001 9.066550e+000
2025000000 -2.438711e+001 -2.441605e+001 -2.148334e+000 -9.618757e+001 -2.101922e+000 -9.666412e+001 -2.286974e+001 -2.042193e+001
2050000000 -2.732616e+001 -1.275757e+002 -2.312340e+000 1.527533e+002 -2.400849e+000 1.535712e+002 -2.596244e+001 -8.409275e+001
2075000000 -3.686124e+001 5.359623e+001 -2.070921e+000 4.647962e+001 -2.041562e+000 4.644829e+001 -3.790804e+001 1.653913e+002
2100000000 -2.653093e+001 -2.275943e+001 -2.412913e+000 -5.956827e+001 -2.226417e+000 -5.962190e+001 -2.664206e+001 4.745427e+001
2125000000 -2.542352e+001 -1.272361e+002 -2.220097e+000 -1.695569e+002 -2.277838e+000 -1.701896e+002 -2.532549e+001 -3.240941e+001
2150000000 -3.395972e+001 -3.696961e-001 -1.960961e+000 8.373770e+001 -2.016427e+000 8.284602e+001 -3.028057e+001 -4.306183e+001
2175000000 -3.630280e+001 -7.340335e+001 -2.466558e+000 -2.412257e+001 -2.439548e+000 -2.358667e+001 -3.312683e+001 -2.454339e+001
2200000000 -2.714635e+001 -7.805383e+001 -2.307064e+000 -1.334693e+002 -2.286674e+000 -1.333228e+002 -2.822704e+001 -2.559120e+001
2225000000 -3.929316e+001 -1.268408e+002 -2.076230e+000 1.213138e+002 -1.995431e+000 1.203938e+002 -5.290236e+001 1.593036e+002
2250000000 -3.284151e+001 1.647137e+002 -2.416924e+000 1.248552e+001 -2.428734e+000 1.201622e+001 -2.780384e+001 3.486922e+001
2275000000 -2.270445e+001 -3.106284e+001 -2.184286e+000 -9.728032e+001 -2.264807e+000 -9.749576e+001 -2.187836e+001 -8.681859e+000
2300000000 -2.370457e+001 -1.478707e+002 -2.332783e+000 1.577889e+002 -2.219026e+000 1.579421e+002 -2.193687e+001 -6.768261e+001
2325000000 -3.518286e+001 -1.376588e+001 -2.533455e+000 4.913340e+001 -2.413779e+000 4.910975e+001 -3.030897e+001 -9.317008e+001
2350000000 -3.199912e+001 -6.454992e+001 -2.062999e+000 -5.961730e+001 -2.104699e+000 -6.071258e+001 -3.837870e+001 8.806281e+001
2375000000 -2.671484e+001 -1.416582e+002 -2.277888e+000 -1.659892e+002 -2.264915e+000 -1.664704e+002 -2.957788e+001 -1.448606e+001
2400000000 -3.275514e+001 -5.785595e+001 -2.540272e+000 8.410387e+001 -2.547797e+000 8.462932e+001 -3.069350e+001 -4.340365e+000
2425000000 -3.041525e+001 1.769907e+002 -2.204224e+000 -2.227908e+001 -2.136345e+000 -2.271668e+001 -2.516841e+001 -3.536063e+001
2450000000 -2.634146e+001 -5.326844e+001 -2.398689e+000 -1.284144e+002 -2.292813e+000 -1.290450e+002 -2.293196e+001 -5.219939e+001
2475000000 -2.822794e+001 -1.536430e+002 -2.408169e+000 1.207603e+002 -2.434747e+000 1.204780e+002 -2.616527e+001 -1.194317e+002
2500000000 -4.589621e+001 1.776841e+002 -2.173285e+000 1.381277e+001 -2.192848e+000 1.368405e+001 -4.345001e+001 1.024805e+002
2525000000 -2.626570e+001 -7.154278e+001 -2.596915e+000 -9.264951e+001 -2.509638e+000 -9.229192e+001 -2.974602e+001 1.915374e+001
2550000000 -2.485914e+001 -1.754585e+002 -2.440249e+000 1.578998e+002 -2.373682e+000 1.575843e+002 -2.467974e+001 -4.110006e+001
2575000000 -3.229028e+001 -4.950830e+001 -2.108072e+000 5.166012e+001 -2.121515e+000 5.057394e+001 -2.589273e+001 -5.732603e+001
2600000000 -3.294188e+001 -1.450948e+002 -2.549889e+000 -5.665822e+001 -2.576746e+000 -5.663512e+001 -2.786481e+001 -8.594568e+001
2625000000 -3.087413e+001 -1.213877e+002 -2.434348e+000 -1.662807e+002 -2.412655e+000 -1.661123e+002 -3.484665e+001 -6.407906e+001
2650000000 -3.169493e+001 -1.157091e+002 -2.346320e+000 8.897091e+001 -2.222684e+000 8.841038e+001 -3.866061e+001 6.413051e+001
2675000000 -2.840473e+001 1.574054e+002 -2.574845e+000 -1.988782e+001 -2.529818e+000 -2.068655e+001 -2.479811e+001 -1.266017e+001
2700000000 -2.498850e+001 -7.337715e+001 -2.237334e+000 -1.295793e+002 -2.344140e+000 -1.301759e+002 -2.253685e+001 -3.724452e+001
2725000000 -2.516201e+001 1.696735e+002 -2.408565e+000 1.250968e+002 -2.409235e+000 1.249147e+002 -2.267597e+001 -8.033691e+001
2750000000 -3.344090e+001 -9.639102e+001 -2.715376e+000 1.588429e+001 -2.616975e+000 1.634362e+001 -2.876744e+001 -6.177082e+001
2775000000 -3.609746e+001 -1.396286e+002 -2.237911e+000 -9.180292e+001 -2.193437e+000 -9.266527e+001 -3.522186e+001 -9.136032e+001
2800000000 -2.769718e+001 1.792565e+002 -2.407359e+000 1.620691e+002 -2.380694e+000 1.611227e+002 -2.758027e+001 -4.350375e+001
2825000000 -2.932318e+001 -8.598568e+001 -2.627984e+000 5.133547e+001 -2.684494e+000 5.165231e+001 -2.684728e+001 -2.531037e+001
2850000000 -2.581322e+001 1.548599e+002 -2.384221e+000 -5.556857e+001 -2.340590e+000 -5.524157e+001 -2.192000e+001 -6.708777e+001
2875000000 -3.031181e+001 -9.863960e+001 -2.599287e+000 -1.608458e+002 -2.432928e+000 -1.613932e+002 -2.433977e+001 -7.504977e+001
2900000000 -3.144064e+001 1.784066e+002 -2.505419e+000 8.875694e+001 -2.556035e+000 8.799276e+001 -3.064568e+001 -1.414558e+002
2925000000 -2.906565e+001 1.687420e+002 -2.275707e+000 -1.854775e+001 -2.342910e+000 -1.916148e+001 -2.779321e+001 -3.213332e+001
2950000000 -3.012795e+001 -1.063538e+002 -2.728375e+000 -1.255644e+002 -2.658076e+000 -1.250152e+002 -2.797542e+001 -3.924844e+001
2975000000 -2.476462e+001 1.521745e+002 -2.623535e+000 1.249917e+002 -2.570916e+000 1.252114e+002 -2.332089e+001 -7.470501e+001
3000000000 -3.206829e+001 -9.836559e+001 -1.943865e+000 1.785077e+001 -1.958992e+000 1.792031e+001 -2.762883e+001 -7.364610e+001
3025000000 -2.852051e+001 1.691587e+002 -1.953283e+000 -8.975163e+001 -1.925000e+000 -8.990017e+001 -2.781387e+001 -1.266373e+002
3050000000 -3.018134e+001 1.506679e+002 -2.643176e+000 1.651992e+002 -2.652209e+000 1.635993e+002 -3.511696e+001 -3.819357e+001
3075000000 -3.054587e+001 -1.315925e+002 -3.328768e+000 5.473943e+001 -3.497076e+000 5.399889e+001 -2.840217e+001 -3.585115e+000
3100000000 -2.543653e+001 1.416375e+002 -3.046683e+000 -5.612535e+001 -2.988756e+000 -5.509977e+001 -2.145180e+001 -5.422577e+001
3125000000 -2.945800e+001 -1.293174e+002 -2.906849e+000 -1.579254e+002 -2.716135e+000 -1.582652e+002 -2.528179e+001 -6.361643e+001
3150000000 -2.605641e+001 1.381622e+002 -3.355295e+000 9.249100e+001 -3.309499e+000 9.040967e+001 -2.715346e+001 -1.020715e+002
3175000000 -3.038395e+001 1.771289e+002 -2.754517e+000 -1.899916e+001 -2.852862e+000 -1.943527e+001 -2.842906e+001 -5.953214e+001
3200000000 -3.062715e+001 -1.670829e+002 -2.976083e+000 -1.226625e+002 -3.074853e+000 -1.214220e+002 -3.719565e+001 -6.395806e+001
3225000000 -2.518701e+001 1.354760e+002 -3.705217e+000 1.278064e+002 -3.429938e+000 1.273380e+002 -2.365249e+001 -5.132448e+001
3250000000 -3.056623e+001 -1.345209e+002 -2.784122e+000 1.975572e+001 -2.552686e+000 1.851301e+001 -2.246497e+001 -5.187804e+001
3275000000 -2.407909e+001 1.330729e+002 -2.963624e+000 -8.472668e+001 -3.179939e+000 -8.632511e+001 -2.221588e+001 -1.030882e+002
3300000000 -3.393874e+001 -1.568441e+002 -3.407040e+000 1.619843e+002 -3.499827e+000 1.621290e+002 -2.990089e+001 -1.134611e+002
3325000000 -2.803748e+001 -1.777875e+002 -2.879806e+000 5.610336e+001 -2.747614e+000 5.738693e+001 -4.565203e+001 7.972193e+001
3350000000 -2.428486e+001 1.349513e+002 -3.388707e+000 -4.728382e+001 -3.167319e+000 -4.839784e+001 -2.314279e+001 -5.185385e+001
3375000000 -3.293296e+001 -1.752497e+002 -3.252182e+000 -1.601072e+002 -3.197022e+000 -1.623349e+002 -2.485655e+001 -5.604498e+001
3400000000 -2.545768e+001 1.113854e+002 -2.691785e+000 9.392056e+001 -2.880366e+000 9.347971e+001 -2.302313e+001 -9.138659e+001
3425000000 -2.766702e+001 -1.526492e+002 -3.547176e+000 -1.339668e+001 -3.579137e+000 -1.257163e+001 -2.478497e+001 -8.401857e+001
3450000000 -2.580986e+001 1.419292e+002 -3.341081e+000 -1.241414e+002 -3.077506e+000 -1.241946e+002 -2.678986e+001 -1.654284e+002
3475000000 -3.126850e+001 1.026072e+002 -2.826046e+000 1.329415e+002 -2.692931e+000 1.312222e+002 -3.684023e+001 -4.725531e+001
3500000000 -2.588037e+001 -1.549379e+002 -3.452839e+000 2.295148e+001 -3.632978e+000 2.125949e+001 -2.351818e+001 -1.703371e+001
3525000000 -2.321328e+001 1.143820e+002 -3.091541e+000 -8.854200e+001 -3.135732e+000 -8.786710e+001 -2.041654e+001 -8.014310e+001
3550000000 -2.759724e+001 -1.676213e+002 -3.168348e+000 1.689420e+002 -3.066173e+000 1.698773e+002 -2.403811e+001 -8.987001e+001
3575000000 -2.846998e+001 1.277705e+002 -3.658042e+000 5.969192e+001 -3.416472e+000 5.797757e+001 -2.822738e+001 -1.352283e+002
3600000000 -2.732956e+001 1.611896e+002 -2.813469e+000 -5.019564e+001 -2.809160e+000 -5.166488e+001 -2.699477e+001 -9.289740e+001
3625000000 -2.892611e+001 1.674530e+002 -3.035133e+000 -1.548264e+002 -3.336785e+000 -1.545620e+002 -3.506226e+001 -7.618707e+001
3650000000 -2.534327e+001 1.143490e+002 -3.707897e+000 9.375098e+001 -3.622473e+000 9.418719e+001 -2.381949e+001 -6.741839e+001
3675000000 -2.402243e+001 -1.779283e+002 -3.018345e+000 -1.212504e+001 -2.769631e+000 -1.260357e+001 -2.115897e+001 -6.737818e+001
3700000000 -2.297244e+001 1.073402e+002 -3.339255e+000 -1.159404e+002 -3.242372e+000 -1.180887e+002 -2.136369e+001 -1.330582e+002
3725000000 -3.754523e+001 1.660682e+002 -3.317888e+000 1.301591e+002 -3.492713e+000 1.286417e+002 -3.336659e+001 -1.300169e+002
3750000000 -2.670379e+001 1.748631e+002 -2.932088e+000 2.386143e+001 -2.985545e+000 2.468281e+001 -3.057476e+001 -2.115458e+001
3775000000 -2.244928e+001 1.082315e+002 -3.730263e+000 -8.116719e+001 -3.576364e+000 -8.086900e+001 -2.041080e+001 -7.897447e+001
3800000000 -3.009138e+001 1.607639e+002 -3.362695e+000 1.675132e+002 -3.120284e+000 1.657972e+002 -2.403765e+001 -7.475890e+001
3825000000 -2.690127e+001 9.723277e+001 -2.806520e+000 6.329059e+001 -2.885164e+000 6.153192e+001 -2.413998e+001 -1.055013e+002
3850000000 -2.460921e+001 1.690592e+002 -3.634369e+000 -4.593687e+001 -3.821615e+000 -4.671042e+001 -2.232527e+001 -9.518076e+001
3875000000 -2.626937e+001 1.008053e+002 -3.301380e+000 -1.571190e+002 -3.170896e+000 -1.565119e+002 -2.699521e+001 -1.757875e+002
3900000000 -2.880172e+001 7.252799e+001 -3.185442e+000 1.010038e+002 -2.955276e+000 1.001636e+002 -2.822180e+001 -5.998129e+001
3925000000 -2.356720e+001 1.748069e+002 -3.702475e+000 -9.111550e+000 -3.615226e+000 -1.138754e+001 -2.099490e+001 -4.634978e+001
3950000000 -2.277069e+001 9.036137e+001 -2.957665e+000 -1.196639e+002 -3.142470e+000 -1.205283e+002 -2.124696e+001 -1.112451e+002
3975000000 -2.754863e+001 1.625572e+002 -3.327124e+000 1.363204e+002 -3.327454e+000 1.371924e+002 -2.755091e+001 -1.015762e+002
4000000000 -2.812690e+001 1.390568e+002 -3.833429e+000 2.561261e+001 -3.626654e+000 2.611670e+001 -3.647895e+001 -4.690450e+001
4025000000 -2.275400e+001 9.903556e+001 -3.015911e+000 -8.079456e+001 -2.853991e+000 -8.242104e+001 -2.118093e+001 -8.908580e+001
4050000000 -3.065145e+001 1.374291e+002 -3.317902e+000 1.738212e+002 -3.443788e+000 1.723940e+002 -2.643941e+001 -7.767324e+001
4075000000 -2.785648e+001 8.161101e+001 -3.493726e+000 6.014066e+001 -3.706596e+000 6.075263e+001 -2.382578e+001 -9.172520e+001
4100000000 -2.206749e+001 1.599786e+002 -3.140657e+000 -4.517046e+001 -2.963921e+000 -4.361993e+001 -2.044958e+001 -9.605589e+001
4125000000 -2.436583e+001 8.119177e+001 -3.716357e+000 -1.494301e+002 -3.470992e+000 -1.495656e+002 -2.256877e+001 -1.706696e+002
4150000000 -3.823948e+001 1.344869e+002 -3.370986e+000 9.783672e+001 -3.341025e+000 9.662751e+001 -4.128300e+001 -1.554358e+002
4175000000 -2.267453e+001 1.492468e+002 -2.962388e+000 -7.834087e+000 -3.160400e+000 -7.428788e+000 -2.321147e+001 -3.488851e+001
4200000000 -2.247009e+001 8.478175e+001 -3.819275e+000 -1.149534e+002 -3.898764e+000 -1.138008e+002 -2.040107e+001 -1.049656e+002
4225000000 -2.733064e+001 1.423984e+002 -3.506404e+000 1.343300e+002 -3.185787e+000 1.348300e+002 -2.533275e+001 -1.063015e+002
4250000000 -2.851867e+001 1.101130e+002 -3.105882e+000 3.140156e+001 -3.001449e+000 3.053017e+001 -3.362687e+001 -1.530461e+002
4275000000 -2.374667e+001 1.302562e+002 -3.700599e+000 -7.833495e+001 -3.810063e+000 -7.979109e+001 -2.327756e+001 -1.056654e+002
4300000000 -2.563954e+001 9.585574e+001 -3.237827e+000 1.702103e+002 -3.300086e+000 1.711651e+002 -4.044203e+001 1.708604e+002
4325000000 -3.010561e+001 8.618139e+001 -3.410304e+000 6.765023e+001 -3.317079e+000 6.876417e+001 -2.851565e+001 -7.296350e+001
4350000000 -2.111615e+001 1.445466e+002 -3.932060e+000 -4.199103e+001 -3.715279e+000 -4.406830e+001 -1.988285e+001 -6.953071e+001
4375000000 -2.383382e+001 6.801435e+001 -3.065432e+000 -1.506998e+002 -3.079618e+000 -1.522084e+002 -2.272322e+001 -1.434374e+002
4400000000 -2.820069e+001 1.530530e+002 -3.370987e+000 1.044141e+002 -3.571711e+000 1.040590e+002 -2.852397e+001 -1.459955e+002
4425000000 -2.488244e+001 1.381029e+002 -3.920651e+000 -7.496059e+000 -3.795094e+000 -6.906020e+000 -2.886088e+001 -1.498219e+001
4450000000 -2.265110e+001 8.235316e+001 -3.266087e+000 -1.132147e+002 -2.961606e+000 -1.134727e+002 -2.216201e+001 -1.065281e+002
4475000000 -2.582825e+001 1.368767e+002 -3.562440e+000 1.425328e+002 -3.579696e+000 1.401278e+002 -2.392531e+001 -8.154873e+001
4500000000 -3.053370e+001 4.694632e+001 -2.427452e+000 3.066467e+001 -2.408616e+000 3.018261e+001 -2.653755e+001 -1.146904e+002
4525000000 -1.923018e+001 1.263452e+002 -2.497065e+000 -7.714623e+001 -2.519687e+000 -7.764888e+001 -1.820546e+001 -1.131195e+002
4550000000 -2.660887e+001 5.322700e+001 -2.454261e+000 1.754400e+002 -2.442855e+000 1.750056e+002 -2.513768e+001 1.702457e+002
4575000000 -3.100503e+001 1.128407e+002 -2.447461e+000 6.746611e+001 -2.435096e+000 6.680036e+001 -3.520822e+001 -1.657435e+002
4600000000 -2.148730e+001 1.136837e+002 -5.136792e+000 -3.267539e+001 -4.878484e+000 -3.521163e+001 -2.196696e+001 -5.607740e+001
4625000000 -2.413249e+001 5.656915e+001 -4.379919e+000 -1.427295e+002 -4.251611e+000 -1.403806e+002 -2.103548e+001 -1.322746e+002
4650000000 -2.864962e+001 1.205134e+002 -3.611957e+000 1.045694e+002 -4.048787e+000 1.046403e+002 -2.431310e+001 -1.489714e+002
4675000000 -2.832404e+001 1.139105e+002 -3.892339e+000 -5.267686e+000 -3.964838e+000 -8.686705e+000 -3.311041e+001 -1.257872e+002
4700000000 -2.516272e+001 7.927650e+001 -5.049656e+000 -1.136121e+002 -4.511916e+000 -1.158431e+002 -2.387867e+001 -1.281224e+002
4725000000 -2.645927e+001 8.364702e+001 -5.623180e+000 1.394840e+002 -5.418016e+000 1.414456e+002 -4.324147e+001 -1.404721e+002
4750000000 -2.971768e+001 1.437711e+002 -5.054054e+000 3.726905e+001 -5.530319e+000 3.644628e+001 -3.004827e+001 -6.384914e+001
4775000000 -2.319974e+001 1.057709e+002 -4.391465e+000 -6.594704e+001 -4.380455e+000 -7.050339e+001 -1.836594e+001 -9.822520e+001
