#  MHZ S MA R 50.0
2000.0 2.98001441e-2 42.6026086 9.64290122e-1 134.606839 9.64290122e-1 134.606839 2.76642558e-2 -80.6577900
2010.0 2.93005544e-2 41.1996173 9.64114391e-1 133.485038 9.64114391e-1 133.485038 2.77536964e-2 -81.9039856
2020.0 2.88038986e-2 39.7640628 9.63938898e-1 132.363274 9.63938898e-1 132.363274 2.78401143e-2 -83.1503612
2030.0 2.83113031e-2 38.2947190 9.63763638e-1 131.241545 9.63763638e-1 131.241545 2.79235944e-2 -84.3958325
2040.0 2.78233770e-2 36.7902425 0.96358860 130.119854 0.96358860 130.119854 2.80040790e-2 -85.6412878
2050.0 2.73409480e-2 35.2499396 9.63413798e-1 128.998200 9.63413798e-1 128.998200 2.80817976e-2 -86.8866093
2060.0 2.68652498e-2 33.6719623 9.63239217e-1 127.876587 9.63239217e-1 127.876587 2.81566453e-2 -88.1319243
2070.0 2.63966993e-2 32.0561891 9.63064852e-1 126.755001 9.63064852e-1 126.755001 2.82286613e-2 -89.3772514
2080.0 2.59364063e-2 30.4009650 9.62890696e-1 125.633460 9.62890696e-1 125.633460 2.82981543e-2 -90.6229094
2090.0 2.54853549e-2 28.7054692 9.62716753e-1 124.511958 9.62716753e-1 124.511958 2.83648979e-2 -91.8686316
2100.0 2.50442024e-2 26.9691825 9.62543015e-1 123.390494 9.62543015e-1 123.390494 2.84290189e-2 -93.1140897
2110.0 2.46138274e-2 25.1915081 9.62369479e-1 122.269064 9.62369479e-1 122.269064 2.84905154e-2 -94.3597051
2120.0 2.41952671e-2 23.3719677 9.62196132e-1 121.147680 9.62196132e-1 121.147680 2.85495305e-2 -95.6061068
2130.0 2.37892714e-2 21.5103286 9.62022992e-1 120.026330 9.62022992e-1 120.026330 2.86062076e-2 -96.8526188
2140.0 2.33967683e-2 19.6065986 9.61850040e-1 118.905024 9.61850040e-1 118.905024 2.86602677e-2 -98.0999462
2150.0 2.30184526e-2 17.6617197 9.61677269e-1 117.783753 9.61677269e-1 117.783753 2.87118368e-2 -99.3477211
2160.0 2.26552755e-2 15.6755867 9.61504682e-1 116.662523 9.61504682e-1 116.662523 2.87609728e-2 -100.596403
2170.0 2.23078954e-2 13.6488738 9.61332279e-1 115.541334 9.61332279e-1 115.541334 2.88077232e-2 -101.845827
2180.0 2.19770615e-2 11.5837502 9.61160047e-1 114.420190 9.61160047e-1 114.420190 2.88519454e-2 -103.096263
2190.0 2.16633794e-2 9.48102851 9.60987983e-1 113.299081 9.60987983e-1 113.299081 2.88938584e-2 -104.347910
2200.0 2.13674946e-2 7.34259257 9.60816089e-1 112.178014 9.60816089e-1 112.178014 2.89332250e-2 -105.600739
2210.0 2.10899560e-2 5.17114943 9.60644357e-1 111.056993 9.60644357e-1 111.056993 2.89704650e-2 -106.854826
2220.0 2.08311820e-2 2.96907614 9.60472785e-1 109.936009 9.60472785e-1 109.936009 2.90052159e-2 -108.110406
2230.0 2.05916751e-2 7.39295764e-1 9.60301376e-1 108.815070 9.60301376e-1 108.815070 2.90375964e-2 -109.367807
2240.0 2.03716101e-2 -1.51489586 9.60130114e-1 107.694174 9.60130114e-1 107.694174 2.90675667e-2 -110.626595
2250.0 2.01712496e-2 -3.79002404 0.95995900 106.573321 0.95995900 106.573321 2.90954758e-2 -111.886984
2260.0 1.99905811e-2 -6.08155972 9.59788034e-1 105.452513 9.59788034e-1 105.452513 2.91210247e-2 -113.149695
2270.0 1.98297650e-2 -8.38610315 0.95961720 104.331746 0.95961720 104.331746 2.91440697e-2 -114.413717
2280.0 1.96888089e-2 -10.6993825 9.59446515e-1 103.211025 9.59446515e-1 103.211025 2.91646926e-2 -115.680171
2290.0 1.95671754e-2 -13.0171189 9.59275950e-1 102.090351 9.59275950e-1 102.090351 2.91829726e-2 -116.948544
2300.0 1.94647304e-2 -15.3343111 9.59105525e-1 100.969719 9.59105525e-1 100.969719 2.91990800e-2 -118.218984
2310.0 1.93811460e-2 -17.6472350 0.95893520 99.8491314 0.95893520 99.8491314 2.92123998e-2 -119.491717
2320.0 1.93159264e-2 -19.9509984 0.95876500 98.7285921 0.95876500 98.7285921 2.92234477e-2 -120.767058
2330.0 1.92685270e-2 -22.2420772 9.58594950e-1 97.6081017 9.58594950e-1 97.6081017 2.92319517e-2 -122.044421
2340.0 1.92381302e-2 -24.5153033 9.58424981e-1 96.4876514 9.58424981e-1 96.4876514 2.92380899e-2 -123.325130
2350.0 1.92241494e-2 -26.7681424 9.58255126e-1 95.3672519 9.58255126e-1 95.3672519 2.92415353e-2 -124.608261
2360.0 1.92256277e-2 -28.9964282 9.58085383e-1 94.2469055 9.58085383e-1 94.2469055 2.92425193e-2 -125.894455
2370.0 1.92417256e-2 -31.1971227 9.57915737e-1 93.1266023 9.57915737e-1 93.1266023 2.92410069e-2 -127.182982
2380.0 1.92716070e-2 -33.3670457 9.57746185e-1 92.0063506 9.57746185e-1 92.0063506 2.92367326e-2 -128.475107
2390.0 1.93142479e-2 -35.5039691 9.57576725e-1 90.8861487 9.57576725e-1 90.8861487 2.92299094e-2 -129.769619
2400.0 0.01936860 -37.6060343 9.57407359e-1 89.7659979 9.57407359e-1 89.7659979 2.92202656e-2 -131.067583
2410.0 1.94339042e-2 -39.6709241 9.57238072e-1 88.6458966 9.57238072e-1 88.6458966 2.92078208e-2 -132.368646
2420.0 1.95089604e-2 -41.6965953 9.57068866e-1 87.5258474 9.57068866e-1 87.5258474 2.91929208e-2 -133.672687
2430.0 1.95926982e-2 -43.6835373 9.56899736e-1 86.4058537 9.56899736e-1 86.4058537 2.91751674e-2 -134.980067
2440.0 1.96844346e-2 -45.6299168 9.56730666e-1 85.2859124 9.56730666e-1 85.2859124 2.91545238e-2 -136.291249
2450.0 1.97827363e-2 -47.5350662 9.56561683e-1 84.1660267 9.56561683e-1 84.1660267 2.91308188e-2 -137.605162
2460.0 1.98870896e-2 -49.3991701 9.56392752e-1 83.0461957 9.56392752e-1 83.0461957 2.91044028e-2 -138.923051
2470.0 1.99962505e-2 -51.2219861 9.56223876e-1 81.9264198 9.56223876e-1 81.9264198 2.90748715e-2 -140.244018
2480.0 2.01093993e-2 -53.0038949 9.56055072e-1 80.8066968 9.56055072e-1 80.8066968 2.90421279e-2 -141.568867
2490.0 2.02257705e-2 -54.7449467 9.55886346e-1 79.6870331 9.55886346e-1 79.6870331 2.90068739e-2 -142.897170
2500.0 2.03442674e-2 -56.4462154 9.55717657e-1 78.5674260 9.55717657e-1 78.5674260 2.89682045e-2 -144.229287
2510.0 2.04644286e-2 -58.1079300 9.55548998e-1 77.4478765 9.55548998e-1 77.4478765 2.89265899e-2 -145.564818
2520.0 2.05853657e-2 -59.7316414 0.95538040 76.3283907 0.95538040 76.3283907 2.88814929e-2 -146.904131
2530.0 2.07062222e-2 -61.3176696 9.55211849e-1 75.2089573 9.55211849e-1 75.2089573 2.88336198e-2 -148.247279
2540.0 2.08264652e-2 -62.8672319 9.55043356e-1 74.0895892 9.55043356e-1 74.0895892 2.87824648e-2 -149.594072
2550.0 2.09454850e-2 -64.3817439 9.54874914e-1 72.9702714 9.54874914e-1 72.9702714 2.87280550e-2 -150.944689
2560.0 2.10626513e-2 -65.8622684 9.54706492e-1 71.8510251 9.54706492e-1 71.8510251 2.86701626e-2 -152.299617
2570.0 2.11773570e-2 -67.3100037 9.54538097e-1 70.7318289 9.54538097e-1 70.7318289 2.86091713e-2 -153.657806
2580.0 2.12890401e-2 -68.7261550 9.54369773e-1 69.6126951 9.54369773e-1 69.6126951 2.85446551e-2 -155.019503
2590.0 2.13972032e-2 -70.1119448 9.54201468e-1 68.4936259 9.54201468e-1 68.4936259 2.84769122e-2 -156.385255
2600.0 2.15016471e-2 -71.4690318 9.54033182e-1 67.3746106 9.54033182e-1 67.3746106 2.84057882e-2 -157.755005
2610.0 2.16016331e-2 -72.7989894 9.53864956e-1 66.2556570 9.53864956e-1 66.2556570 2.833093e-2 -159.128146
2620.0 2.16968500e-2 -74.1021892 9.53696741e-1 65.1367640 9.53696741e-1 65.1367640 2.82527578e-2 -160.505374
2630.0 2.17869306e-2 -75.3808208 9.53528551e-1 64.0179277 9.53528551e-1 64.0179277 2.81707956e-2 -161.886595
2640.0 2.18717753e-2 -76.6360457 9.53360370e-1 62.8991496 9.53360370e-1 62.8991496 2.80853632e-2 -163.271700
2650.0 2.19507599e-2 -77.8690453 9.53192245e-1 61.7804307 9.53192245e-1 61.7804307 2.79964953e-2 -164.660456
2660.0 2.20237724e-2 -79.0808215 9.53024121e-1 60.6617651 9.53024121e-1 60.6617651 2.79040686e-2 -166.053636
2670.0 2.20906238e-2 -80.2729065 0.95285600 59.5431606 0.95285600 59.5431606 2.78079107e-2 -167.450024
2680.0 2.21508469e-2 -81.4466351 0.95268790 58.4246157 0.95268790 58.4246157 2.77083530e-2 -168.850535
2690.0 2.22045386e-2 -82.6028936 9.52519847e-1 57.3061223 9.52519847e-1 57.3061223 2.76050628e-2 -170.254831
2700.0 2.22514516e-2 -83.7425897 9.52351759e-1 56.1876924 9.52351759e-1 56.1876924 2.74981718e-2 -171.662985
2710.0 2.22911510e-2 -84.8671783 9.52183699e-1 55.0693121 9.52183699e-1 55.0693121 2.73874916e-2 -173.074859
2720.0 2.23237618e-2 -85.9781592 9.52015658e-1 53.9509947 9.52015658e-1 53.9509947 2.72731806e-2 -174.490598
2730.0 2.23491728e-2 -87.0759003 9.51847593e-1 52.8327295 9.51847593e-1 52.8327295 2.71551262e-2 -175.909975
2740.0 2.23672772e-2 -88.1611658 9.51679512e-1 51.7145238 9.51679512e-1 51.7145238 2.70335281e-2 -177.333431
2750.0 2.23777080e-2 -89.2358742 9.51511446e-1 50.5963728 9.51511446e-1 50.5963728 2.69080936e-2 -178.760661
2760.0 0.02238080 -90.3003641 9.51343379e-1 49.4782810 9.51343379e-1 49.4782810 2.67789828e-2 179.808294
2770.0 2.23761702e-2 -91.3561112 9.51175259e-1 48.3602427 9.51175259e-1 48.3602427 2.66459435e-2 178.373143
2780.0 2.23642543e-2 -92.4037373 9.51007150e-1 47.2422629 9.51007150e-1 47.2422629 2.65095811e-2 176.934004
2790.0 2.23444737e-2 -93.4440613 0.95083900 46.1243367 0.95083900 46.1243367 2.63693446e-2 175.490962
2800.0 2.23172800e-2 -94.4780685 9.50670851e-1 45.0064665 9.50670851e-1 45.0064665 2.62253021e-2 174.044134
2810.0 2.22825294e-2 -95.5069218 9.50502676e-1 43.8886483 9.50502676e-1 43.8886483 2.60779763e-2 172.593639
2820.0 2.22402987e-2 -96.5307162 9.50334450e-1 42.7708933 9.50334450e-1 42.7708933 2.59268628e-2 171.139255
2830.0 2.21906440e-2 -97.5509241 9.50166190e-1 41.6531865 9.50166190e-1 41.6531865 2.57719278e-2 169.681216
2840.0 2.21337615e-2 -98.5686283 9.49997940e-1 40.5355367 9.49997940e-1 40.5355367 2.56136245e-2 168.219151
2850.0 2.20693604e-2 -99.5838433 9.49829624e-1 39.4179415 9.49829624e-1 39.4179415 2.54518261e-2 166.753864
2860.0 2.19979872e-2 -100.597866 9.49661262e-1 38.3004029 9.49661262e-1 38.3004029 2.52863163e-2 165.283951
2870.0 2.19195400e-2 -101.611433 9.49492857e-1 37.1829182 9.49492857e-1 37.1829182 2.51168262e-2 163.810686
2880.0 2.18340144e-2 -102.625270 9.49324424e-1 36.0654940 9.49324424e-1 36.0654940 2.49440046e-2 162.333240
2890.0 2.17418861e-2 -103.640068 9.49155935e-1 34.9481169 9.49155935e-1 34.9481169 2.47677512e-2 160.852581
2900.0 2.16429101e-2 -104.656780 9.48987382e-1 33.8307995 9.48987382e-1 33.8307995 2.45879558e-2 159.367734
2910.0 2.15375821e-2 -105.676404 9.48818770e-1 32.7135323 9.48818770e-1 32.7135323 2.44043876e-2 157.879094
2920.0 2.14259658e-2 -106.699164 9.48650151e-1 31.5963222 9.48650151e-1 31.5963222 2.42175456e-2 156.386316
2930.0 2.13080577e-2 -107.726212 9.48481437e-1 30.4791661 9.48481437e-1 30.4791661 2.40272571e-2 154.889843
2940.0 2.11842595e-2 -108.758292 9.48312675e-1 29.3620651 9.48312675e-1 29.3620651 2.38338323e-2 153.388786
2950.0 2.10546764e-2 -109.796017 0.94814380 28.2450168 0.94814380 28.2450168 2.36365348e-2 151.884352
2960.0 2.09196325e-2 -110.840375 0.94797490 27.1280209 0.94797490 27.1280209 2.34361098e-2 150.375274
2970.0 2.07791638e-2 -111.891738 9.47805931e-1 26.0110808 9.47805931e-1 26.0110808 2.32320952e-2 148.862209
2980.0 2.06336410e-2 -112.951240 9.47636890e-1 24.8941941 9.47636890e-1 24.8941941 2.30252090e-2 147.344861
2990.0 2.04831425e-2 -114.019550 9.47467751e-1 23.7773598 9.47467751e-1 23.7773598 2.28147634e-2 145.822759
3000.0 2.03282812e-2 -115.097650 9.47298557e-1 22.6605793 9.47298557e-1 22.6605793 2.26014231e-2 144.297075
3010.0 2.01689224e-2 -116.186244 9.47129285e-1 21.5438467 9.47129285e-1 21.5438467 2.23849268e-2 142.766603
3020.0 2.00054182e-2 -117.285987 9.46959934e-1 20.4271691 9.46959934e-1 20.4271691 2.21655579e-2 141.231686
3030.0 1.98381740e-2 -118.397818 9.46790477e-1 19.3105437 9.46790477e-1 19.3105437 2.19431372e-2 139.692893
3040.0 1.96673279e-2 -119.522266 9.46620940e-1 18.1939710 9.46620940e-1 18.1939710 2.17175554e-2 138.149040
3050.0 1.94932484e-2 -120.660305 9.46451326e-1 17.0774476 9.46451326e-1 17.0774476 2.14891312e-2 136.600957
3060.0 1.93162871e-2 -121.812491 9.46281629e-1 15.9609765 9.46281629e-1 15.9609765 2.12575633e-2 135.047602
3070.0 1.91367479e-2 -122.980097 9.46111834e-1 14.8445575 9.46111834e-1 14.8445575 0.02102270 133.489575
3080.0 1.89548423e-2 -124.163984 9.45941944e-1 13.7281866 9.45941944e-1 13.7281866 2.07850747e-2 131.924947
3090.0 1.87708474e-2 -125.364035 9.45771968e-1 12.6118716 9.45771968e-1 12.6118716 2.05442387e-2 130.355688
3100.0 1.85851557e-2 -126.581309 9.45601880e-1 11.4956056 9.45601880e-1 11.4956056 2.03007588e-2 128.778160
3110.0 1.83981569e-2 -127.816973 9.45431690e-1 10.3793869 9.45431690e-1 10.3793869 2.00548177e-2 127.194875
3120.0 1.82101887e-2 -129.072467 9.45261392e-1 9.26321701 9.45261392e-1 9.26321701 1.98066620e-2 125.605238
3130.0 1.80214876e-2 -130.347073 9.45091017e-1 8.14709761 9.45091017e-1 8.14709761 1.95558457e-2 124.008754
3140.0 1.78324414e-2 -131.642365 0.94492050 7.03102661 0.94492050 7.03102661 1.93031547e-2 122.405465
3150.0 1.76435254e-2 -132.958967 9.44749917e-1 5.91499876 9.44749917e-1 5.91499876 1.90481381e-2 120.795770
3160.0 1.74550773e-2 -134.297566 9.44579187e-1 4.79902529 9.44579187e-1 4.79902529 1.87904751e-2 119.179516
3170.0 1.72673899e-2 -135.658571 0.94440840 3.68309524 0.94440840 3.68309524 1.85308924e-2 117.556711
3180.0 1.70809470e-2 -137.042888 9.44237488e-1 2.56721334 9.44237488e-1 2.56721334 1.82690107e-2 115.927255
3190.0 1.68960223e-2 -138.451183 9.44066472e-1 1.45137528 9.44066472e-1 1.45137528 1.80050595e-2 114.289723
3200.0 1.67130549e-2 -139.883598 9.43895350e-1 3.35588882e-1 9.43895350e-1 3.35588882e-1 1.77385115e-2 112.644280
3210.0 1.65324913e-2 -141.340532 9.43724083e-1 -0.78015670 9.43724083e-1 -0.78015670 1.74694387e-2 110.990371
3220.0 1.63546139e-2 -142.822337 0.94355270 -1.89585716 0.94355270 -1.89585716 1.71982443e-2 109.325540
3230.0 1.61799566e-2 -144.329684 9.43381265e-1 -3.01150830 9.43381265e-1 -3.01150830 1.69250977e-2 107.649164
3240.0 1.60087225e-2 -145.862494 9.43209671e-1 -4.12711763 9.43209671e-1 -4.12711763 1.66505294e-2 105.962320
3250.0 1.58414323e-2 -147.421048 9.43037943e-1 -5.24268374 9.43037943e-1 -5.24268374 1.63739032e-2 104.264041
3260.0 1.56783337e-2 -149.004570 9.42866157e-1 -6.35820323 9.42866157e-1 -6.35820323 1.60957135e-2 102.553272
3270.0 1.55199198e-2 -150.614259 9.42694188e-1 -7.47368204 9.42694188e-1 -7.47368204 1.58167074e-2 100.828518
3280.0 1.53666068e-2 -152.248751 9.42522146e-1 -8.58911844 9.42522146e-1 -8.58911844 1.55359261e-2 99.0928856
3290.0 1.52187139e-2 -153.908433 9.42350012e-1 -9.70451345 9.42350012e-1 -9.70451345 1.52535807e-2 97.3437673
3300.0 1.50764553e-2 -155.592141 9.42177737e-1 -10.8198656 9.42177737e-1 -10.8198656 1.49694067e-2 95.5773908
3310.0 1.49404631e-2 -157.299889 9.42005335e-1 -11.9351817 9.42005335e-1 -11.9351817 1.46845873e-2 93.7978701
3320.0 1.48108562e-2 -159.030426 9.41832837e-1 -13.0504486 9.41832837e-1 -13.0504486 1.43986606e-2 91.9992442
3330.0 1.46880279e-2 -160.783005 0.94166020 -14.1656832 0.94166020 -14.1656832 1.41113514e-2 90.1810887
3340.0 1.45722684e-2 -162.555861 9.41487471e-1 -15.2808750 9.41487471e-1 -15.2808750 1.38229674e-2 88.3451071
3350.0 1.44638738e-2 -164.348602 0.94131460 -16.3960302 0.94131460 -16.3960302 1.35334879e-2 86.4844836
3360.0 1.43630600e-2 -166.159222 9.41141650e-1 -17.5111439 9.41141650e-1 -17.5111439 1.32439487e-2 84.6020416
3370.0 1.42701100e-2 -167.985682 9.40968580e-1 -18.6262260 9.40968580e-1 -18.6262260 1.29531722e-2 82.6923248
3380.0 1.41851721e-2 -169.827109 9.40795358e-1 -19.7412660 9.40795358e-1 -19.7412660 1.26629256e-2 80.7540951
3390.0 1.41084553e-2 -171.681134 9.40622039e-1 -20.8562688 9.40622039e-1 -20.8562688 1.23717947e-2 78.7855657
3400.0 1.40401379e-2 -173.546057 9.40448657e-1 -21.9712365 9.40448657e-1 -21.9712365 1.20806828e-2 76.7916967
3410.0 1.39804137e-2 -175.419605 9.40275111e-1 -23.0861709 9.40275111e-1 -23.0861709 1.17893122e-2 74.7615162
3420.0 1.39292049e-2 -177.299319 9.40101513e-1 -24.2010684 9.40101513e-1 -24.2010684 1.14976710e-2 72.6987504
3430.0 1.38867108e-2 -179.183561 9.39927792e-1 -25.3159362 9.39927792e-1 -25.3159362 1.12064215e-2 70.5963724
3440.0 1.38528979e-2 178.930800 9.39753929e-1 -26.4307649 9.39753929e-1 -26.4307649 1.09144359e-2 68.4549703
3450.0 1.38278291e-2 177.045665 9.39579996e-1 -27.5455635 9.39579996e-1 -27.5455635 1.06227256e-2 66.2686001
3460.0 1.38113553e-2 175.163896 9.39405958e-1 -28.6603256 9.39405958e-1 -28.6603256 1.03314318e-2 64.0314623
3470.0 1.38034316e-2 173.287340 0.93923180 -29.7750579 0.93923180 -29.7750579 1.00407085e-2 61.7383061
3480.0 1.38040948e-2 171.418761 9.39057591e-1 -30.8897593 9.39057591e-1 -30.8897593 9.75137936e-3 59.3849402
3490.0 1.38130051e-2 169.559871 9.38883251e-1 -32.0044283 9.38883251e-1 -32.0044283 9.46304621e-3 56.9666720
3500.0 1.38300459e-2 167.713540 9.38708828e-1 -33.1190692 9.38708828e-1 -33.1190692 9.17673328e-3 54.4769446
3510.0 1.38550767e-2 165.881473 9.38534286e-1 -34.2336782 9.38534286e-1 -34.2336782 8.89324560e-3 51.9145847
3520.0 1.38878697e-2 164.065581 9.38359671e-1 -35.3482575 9.38359671e-1 -35.3482575 8.61245429e-3 49.2729388
3530.0 1.39281345e-2 162.268093 0.93818500 -36.4628125 0.93818500 -36.4628125 8.33526635e-3 46.5365655
3540.0 1.39755961e-2 160.490462 9.38010266e-1 -37.5773413 9.38010266e-1 -37.5773413 8.06194526e-3 43.7100656
3550.0 1.40300508e-2 158.733941 9.37835410e-1 -38.6918410 9.37835410e-1 -38.6918410 7.79251955e-3 40.7771610
3560.0 1.40912343e-2 157.000941 9.37660483e-1 -39.8063147 9.37660483e-1 -39.8063147 7.52754709e-3 37.7260113
3570.0 1.41586858e-2 155.291772 9.37485477e-1 -40.9207629 9.37485477e-1 -40.9207629 7.26834835e-3 34.5503107
3580.0 1.42321500e-2 153.607896 9.37310450e-1 -42.0351844 9.37310450e-1 -42.0351844 7.01559644e-3 31.2399814
3590.0 1.43113260e-2 151.950292 9.37135299e-1 -43.1495819 9.37135299e-1 -43.1495819 6.77016264e-3 27.7781278
3600.0 1.43958990e-2 150.320237 9.36960127e-1 -44.2639567 9.36960127e-1 -44.2639567 6.53282750e-3 24.1536672
3610.0 1.44853806e-2 148.717864 9.36784914e-1 -45.3783079 9.36784914e-1 -45.3783079 6.30569679e-3 20.3512777
3620.0 1.45794920e-2 147.143522 0.93660960 -46.4926367 0.93660960 -46.4926367 6.08946625e-3 16.3661773
3630.0 1.46779287e-2 145.598494 9.36434237e-1 -47.6069423 9.36434237e-1 -47.6069423 5.88548794e-3 12.1804737
3640.0 1.47803611e-2 144.082274 9.36258833e-1 -48.7212271 9.36258833e-1 -48.7212271 5.69617101e-3 7.78858760
3650.0 1.48863160e-2 142.595140 9.36083397e-1 -49.8354951 9.36083397e-1 -49.8354951 5.52283609e-3 3.19007687
3660.0 1.49954883e-2 141.137612 9.35907960e-1 -50.9497378 9.35907960e-1 -50.9497378 5.36730514e-3 -1.61579497
3670.0 1.51075892e-2 139.708510 9.35732479e-1 -52.0639660 9.35732479e-1 -52.0639660 5.23118906e-3 -6.62584558
3680.0 1.52222649e-2 138.308493 9.35556933e-1 -53.1781736 9.35556933e-1 -53.1781736 5.11620736e-3 -11.8210951
3690.0 1.53391806e-2 136.937384 0.93538140 -54.2923644 0.93538140 -54.2923644 5.02450605e-3 -17.1892345
3700.0 1.54579263e-2 135.594586 9.35205817e-1 -55.4065386 9.35205817e-1 -55.4065386 4.95717575e-3 -22.6952509
3710.0 1.55783988e-2 134.279690 9.35030252e-1 -56.5206927 9.35030252e-1 -56.5206927 4.91549753e-3 -28.3118304
3720.0 1.57002025e-2 132.992938 9.34854656e-1 -57.6348353 9.34854656e-1 -57.6348353 4.90115791e-3 -33.9943357
3730.0 1.58230227e-2 131.733080 9.34679096e-1 -58.7489583 9.34679096e-1 -58.7489583 4.91424852e-3 -39.6893511
3740.0 1.59464054e-2 130.500072 9.34503518e-1 -59.8630698 9.34503518e-1 -59.8630698 4.95526342e-3 -45.3592316
3750.0 1.60703502e-2 129.292881 9.34327892e-1 -60.9771635 9.34327892e-1 -60.9771635 5.02281828e-3 -50.9423057
3760.0 1.61945333e-2 128.111641 9.34152368e-1 -62.0912489 9.34152368e-1 -62.0912489 5.11754567e-3 -56.4103302
3770.0 1.63186587e-2 126.954794 9.33976830e-1 -63.2053211 9.33976830e-1 -63.2053211 5.23658867e-3 -61.7202534
3780.0 1.64424668e-2 125.822512 9.33801329e-1 -64.3193781 9.33801329e-1 -64.3193781 5.37929772e-3 -66.8519500
3790.0 1.65656788e-2 124.713936 9.33625865e-1 -65.4334264 9.33625865e-1 -65.4334264 5.54406534e-3 -71.7856746
3800.0 1.66883014e-2 123.628670 0.93345040 -66.5474617 0.93345040 -66.5474617 5.72895570e-3 -76.5117785
3810.0 1.68098619e-2 122.565401 0.93327500 -67.6614891 0.93327500 -67.6614891 5.93218272e-3 -81.0299504
3820.0 1.69303273e-2 121.524184 9.33099670e-1 -68.7755066 9.33099670e-1 -68.7755066 6.15214770e-3 -85.3426555
3830.0 1.70494273e-2 120.504117 9.32924395e-1 -69.8895177 9.32924395e-1 -69.8895177 6.38738647e-3 -89.4564018
