#  MHZ S MA R 50.0
2000.0 3.28006471e-2 -9.74297914 9.63040553e-1 134.268916 9.63040553e-1 134.268916 1.76589742e-2 -168.151960
2010.0 3.27344260e-2 -11.5869667 9.62871586e-1 133.146740 9.62871586e-1 133.146740 1.77128305e-2 -169.576288
2020.0 3.26830588e-2 -13.4382401 9.62702815e-1 132.024598 9.62702815e-1 132.024598 1.77650733e-2 -171.003429
2030.0 3.26466370e-2 -15.2945585 9.62534246e-1 130.902498 9.62534246e-1 130.902498 1.78156322e-2 -172.432057
2040.0 3.26254025e-2 -17.1538014 9.62365857e-1 129.780430 9.62365857e-1 129.780430 1.78635107e-2 -173.861651
2050.0 3.26195600e-2 -19.0146636 9.62197672e-1 128.658406 9.62197672e-1 128.658406 1.79097755e-2 -175.292943
2060.0 3.26291707e-2 -20.8744842 9.62029664e-1 127.536419 9.62029664e-1 127.536419 1.79542093e-2 -176.725214
2070.0 3.26540257e-2 -22.7314682 9.61861842e-1 126.414463 9.61861842e-1 126.414463 1.79961638e-2 -178.157843
2080.0 3.26944742e-2 -24.5840045 0.96169420 125.292550 0.96169420 125.292550 1.80366035e-2 -179.590532
2090.0 3.27500626e-2 -26.4293974 9.61526741e-1 124.170677 9.61526741e-1 124.170677 1.80754203e-2 178.975880
2100.0 3.28206094e-2 -28.2667694 9.61359457e-1 123.048834 9.61359457e-1 123.048834 1.81122630e-2 177.543889
2110.0 3.29060418e-2 -30.0932636 9.61192347e-1 121.927036 9.61192347e-1 121.927036 1.81467995e-2 176.112061
2120.0 3.30059230e-2 -31.9078973 0.96102540 120.805275 0.96102540 120.805275 1.81802029e-2 174.680349
2130.0 3.31195396e-2 -33.7089026 9.60858637e-1 119.683558 9.60858637e-1 119.683558 1.82117801e-2 173.250819
2140.0 3.32471334e-2 -35.4943472 9.60692035e-1 118.561872 9.60692035e-1 118.561872 0.01824110 171.822214
2150.0 3.33876886e-2 -37.2633630 0.96052560 117.440229 0.96052560 117.440229 1.82689442e-2 170.395570
2160.0 3.35407449e-2 -39.0141009 9.60359329e-1 116.318624 9.60359329e-1 116.318624 1.82951304e-2 168.969689
2170.0 3.37056168e-2 -40.7455394 9.60193221e-1 115.197058 9.60193221e-1 115.197058 1.83203885e-2 167.545494
2180.0 3.38818871e-2 -42.4569013 9.60027274e-1 114.075530 9.60027274e-1 114.075530 1.83435228e-2 166.122526
2190.0 3.40688099e-2 -44.1463812 9.59861477e-1 112.954048 9.59861477e-1 112.954048 1.83657292e-2 164.701498
2200.0 3.42656452e-2 -45.8141564 9.59695840e-1 111.832596 9.59695840e-1 111.832596 1.83865798e-2 163.282976
2210.0 3.44717617e-2 -47.4591526 9.59530361e-1 110.711194 9.59530361e-1 110.711194 1.84063610e-2 161.867189
2220.0 3.46862610e-2 -49.0807023 9.59365032e-1 109.589828 9.59365032e-1 109.589828 1.84247742e-2 160.454222
2230.0 3.49084830e-2 -50.6785570 9.59199857e-1 108.468498 9.59199857e-1 108.468498 1.84425094e-2 159.043330
2240.0 3.51379042e-2 -52.2523269 9.59034825e-1 107.347216 9.59034825e-1 107.347216 1.84591180e-2 157.635815
2250.0 3.53733461e-2 -53.8012663 9.58869949e-1 106.225978 9.58869949e-1 106.225978 1.84752980e-2 156.230670
2260.0 3.56143376e-2 -55.3262472 9.58705210e-1 105.104771 9.58705210e-1 105.104771 1.84903722e-2 154.828653
2270.0 3.58599166e-2 -56.8260216 9.58540628e-1 103.983612 9.58540628e-1 103.983612 1.85045654e-2 153.429990
2280.0 3.61095369e-2 -58.3018057 9.58376179e-1 102.862497 9.58376179e-1 102.862497 1.85184786e-2 152.034144
2290.0 3.63624468e-2 -59.7528541 9.58211875e-1 101.741423 9.58211875e-1 101.741423 1.85316340e-2 150.641094
2300.0 3.66175335e-2 -61.1800507 0.95804770 100.620388 0.95804770 100.620388 1.85444418e-2 149.251129
2310.0 3.68745666e-2 -62.5829697 9.57883683e-1 99.4993954 9.57883683e-1 99.4993954 1.85567737e-2 147.864257
2320.0 3.71324988e-2 -63.9624304 9.57719797e-1 98.3784480 9.57719797e-1 98.3784480 1.85691076e-2 146.479956
2330.0 3.73906012e-2 -65.3183606 9.57556049e-1 97.2575498 9.57556049e-1 97.2575498 1.85812086e-2 145.099068
2340.0 3.76483893e-2 -66.6516157 9.57392425e-1 96.1366846 9.57392425e-1 96.1366846 1.85930418e-2 143.720721
2350.0 3.79051815e-2 -67.9621210 9.57228948e-1 95.0158737 9.57228948e-1 95.0158737 1.86051704e-2 142.345081
2360.0 3.81601504e-2 -69.2508087 0.95706560 93.8951064 0.95706560 93.8951064 1.86171332e-2 140.972447
2370.0 3.84127607e-2 -70.5179576 9.56902387e-1 92.7743853 9.56902387e-1 92.7743853 1.86296255e-2 139.602565
2380.0 3.86624299e-2 -71.7643400 0.95673930 91.6537087 0.95673930 91.6537087 1.86421535e-2 138.235454
2390.0 3.89085767e-2 -72.9901867 9.56576361e-1 90.5330765 9.56576361e-1 90.5330765 1.86552505e-2 136.871401
2400.0 3.91505540e-2 -74.1963648 9.56413530e-1 89.4124919 9.56413530e-1 89.4124919 1.86687233e-2 135.509730
2410.0 3.93881287e-2 -75.3832264 9.56250856e-1 88.2919551 9.56250856e-1 88.2919551 1.86827583e-2 134.150758
2420.0 3.96204730e-2 -76.5514059 9.56088279e-1 87.1714661 9.56088279e-1 87.1714661 1.86973452e-2 132.794573
2430.0 3.98472615e-2 -77.7015157 9.55925847e-1 86.0510215 9.55925847e-1 86.0510215 1.87125531e-2 131.440059
2440.0 4.00680853e-2 -78.8338288 9.55763526e-1 84.9306273 9.55763526e-1 84.9306273 1.87286650e-2 130.087773
2450.0 4.02824127e-2 -79.9494053 9.55601374e-1 83.8102848 9.55601374e-1 83.8102848 1.87458084e-2 128.737831
2460.0 4.04898556e-2 -81.0486404 9.55439323e-1 82.6899876 9.55439323e-1 82.6899876 1.87637768e-2 127.389244
2470.0 4.06902848e-2 -82.1320274 9.55277422e-1 81.5697417 9.55277422e-1 81.5697417 1.87828110e-2 126.042671
2480.0 4.08829463e-2 -83.2004792 9.55115630e-1 80.4495419 9.55115630e-1 80.4495419 1.88031406e-2 124.697603
2490.0 4.10677909e-2 -84.2541223 0.95495400 79.3293893 0.95495400 79.3293893 1.88247383e-2 123.353730
2500.0 4.12444806e-2 -85.2938262 9.54792491e-1 78.2092848 9.54792491e-1 78.2092848 1.88477502e-2 122.011763
2510.0 4.14126013e-2 -86.3200215 9.54631113e-1 77.0892341 9.54631113e-1 77.0892341 1.88722213e-2 120.671352
2520.0 4.15720804e-2 -87.3335562 9.54469854e-1 75.9692286 9.54469854e-1 75.9692286 1.88982085e-2 119.332026
2530.0 4.17226265e-2 -88.3349962 9.54308746e-1 74.8492728 9.54308746e-1 74.8492728 1.89262282e-2 117.993349
2540.0 4.18638363e-2 -89.3248560 9.54147774e-1 73.7293662 9.54147774e-1 73.7293662 1.89555764e-2 116.655989
2550.0 4.19957155e-2 -90.3036093 9.53986927e-1 72.6095031 9.53986927e-1 72.6095031 1.89870830e-2 115.319274
2560.0 4.21181497e-2 -91.2715001 9.53826219e-1 71.4896922 9.53826219e-1 71.4896922 1.90202347e-2 113.982946
2570.0 4.22306248e-2 -92.2299565 9.53665640e-1 70.3699277 9.53665640e-1 70.3699277 1.90557038e-2 112.646816
2580.0 4.23331847e-2 -93.1787971 0.95350520 69.2502078 0.95350520 69.2502078 1.90929323e-2 111.312311
2590.0 4.24257295e-2 -94.1186758 9.53344883e-1 68.1305443 9.53344883e-1 68.1305443 1.91326172e-2 109.978365
2600.0 4.25080530e-2 -95.0501826 9.53184699e-1 67.0109191 9.53184699e-1 67.0109191 1.91744772e-2 108.644130
2610.0 4.25800511e-2 -95.9739555 9.53024682e-1 65.8913484 9.53024682e-1 65.8913484 1.92192936e-2 107.311366
2620.0 4.26416911e-2 -96.8902181 9.52864758e-1 64.7718249 9.52864758e-1 64.7718249 1.92662737e-2 105.979791
2630.0 4.26928471e-2 -97.7994682 9.52704988e-1 63.6523441 9.52704988e-1 63.6523441 1.93160175e-2 104.648478
2640.0 4.27335162e-2 -98.7025227 9.52545328e-1 62.5329173 9.52545328e-1 62.5329173 1.93687537e-2 103.317258
2650.0 4.2763501e-2 -99.5994104 9.52385822e-1 61.4135376 9.52385822e-1 61.4135376 1.94240183e-2 101.988431
2660.0 4.27829750e-2 -100.490746 9.52226439e-1 60.2942070 9.52226439e-1 60.2942070 1.94811250e-2 100.660513
2670.0 4.27918759e-2 -101.377003 9.52067210e-1 59.1749239 9.52067210e-1 59.1749239 1.95429413e-2 99.3363301
2680.0 4.27901548e-2 -102.258469 9.51908090e-1 58.0556906 9.51908090e-1 58.0556906 1.96084845e-2 98.0162784
2690.0 4.27778508e-2 -103.135891 9.51749117e-1 56.9365086 9.51749117e-1 56.9365086 1.96763700e-2 96.6968853
2700.0 4.27550289e-2 -104.009458 9.51590267e-1 55.8173729 9.51590267e-1 55.8173729 1.97459132e-2 95.3854642
2710.0 4.27217756e-2 -104.879442 9.51431571e-1 54.6982864 9.51431571e-1 54.6982864 1.98176443e-2 94.0800040
2720.0 4.26780668e-2 -105.746429 9.51272999e-1 53.5792528 9.51272999e-1 53.5792528 1.98892567e-2 92.7794465
2730.0 4.26239877e-2 -106.610752 9.51114569e-1 52.4602649 9.51114569e-1 52.4602649 1.99638721e-2 91.4850223
2740.0 4.25597293e-2 -107.472788 9.50956248e-1 51.3413266 9.50956248e-1 51.3413266 2.00404023e-2 90.1935563
2750.0 4.24851507e-2 -108.332874 9.50798066e-1 50.2224429 9.50798066e-1 50.2224429 2.01192884e-2 88.9019743
2760.0 4.24006368e-2 -109.191528 9.50640013e-1 49.1036005 9.50640013e-1 49.1036005 2.02015413e-2 87.6189624
2770.0 4.23059531e-2 -110.049415 9.50482149e-1 47.9848154 9.50482149e-1 47.9848154 2.02883895e-2 86.3411576
2780.0 4.22015394e-2 -110.906268 9.50324352e-1 46.8660764 9.50324352e-1 46.8660764 2.03800927e-2 85.0824717
2790.0 4.20875607e-2 -111.763004 9.50166720e-1 45.7473883 9.50166720e-1 45.7473883 2.04729045e-2 83.8468007
2800.0 4.19640886e-2 -112.619638 9.50009222e-1 44.6287459 9.50009222e-1 44.6287459 2.05625565e-2 82.6233292
2810.0 4.18311432e-2 -113.476774 9.49851879e-1 43.5101538 9.49851879e-1 43.5101538 2.06441478e-2 81.4228423
2820.0 4.16892395e-2 -114.334496 9.49694616e-1 42.3916138 9.49694616e-1 42.3916138 2.07316194e-2 80.2273068
2830.0 4.15381322e-2 -115.193076 9.49537551e-1 41.2731255 9.49537551e-1 41.2731255 2.08079104e-2 79.0163552
2840.0 4.13783413e-2 -116.053344 0.94938060 40.1546804 0.94938060 40.1546804 2.08794951e-2 77.7991249
2850.0 4.12100788e-2 -116.915200 0.94922380 39.0362925 0.94922380 39.0362925 2.09490494e-2 76.5754525
2860.0 4.10333221e-2 -117.778973 9.49067117e-1 37.9179532 9.49067117e-1 37.9179532 2.10183981e-2 75.3376926
2870.0 4.08482967e-2 -118.645187 9.48910585e-1 36.7996632 9.48910585e-1 36.7996632 2.10911566e-2 74.1035449
2880.0 4.06555683e-2 -119.514180 9.48754190e-1 35.6814269 9.48754190e-1 35.6814269 2.11611955e-2 72.8603308
2890.0 4.04549077e-2 -120.386311 9.48597951e-1 34.5632396 9.48597951e-1 34.5632396 2.12277711e-2 71.6170257
2900.0 4.02468635e-2 -121.261712 9.48441810e-1 33.4451012 9.48441810e-1 33.4451012 2.12953189e-2 70.3658137
2910.0 4.00316048e-2 -122.140710 9.48285865e-1 32.3270127 9.48285865e-1 32.3270127 2.13613522e-2 69.1046261
2920.0 3.98092909e-2 -123.023968 9.48130025e-1 31.2089753 9.48130025e-1 31.2089753 2.14245261e-2 67.8382838
2930.0 3.95803269e-2 -123.911568 9.47974351e-1 30.0909860 9.47974351e-1 30.0909860 2.14820974e-2 66.5647926
2940.0 3.93449259e-2 -124.803840 9.47818789e-1 28.9730501 9.47818789e-1 28.9730501 2.15394637e-2 65.2846447
2950.0 3.91032227e-2 -125.701309 9.47663396e-1 27.8551612 9.47663396e-1 27.8551612 2.15940715e-2 64.0020224
2960.0 3.88558225e-2 -126.604025 9.47508119e-1 26.7373255 9.47508119e-1 26.7373255 2.16476616e-2 62.7106135
2970.0 3.86025879e-2 -127.512460 9.47353025e-1 25.6195377 9.47353025e-1 25.6195377 2.16965357e-2 61.413646
2980.0 3.83440185e-2 -128.426913 9.47198060e-1 24.5017973 9.47198060e-1 24.5017973 2.17458846e-2 60.1093061
2990.0 3.80804101e-2 -129.347448 9.47043220e-1 23.3841084 9.47043220e-1 23.3841084 2.17908333e-2 58.7971884
3000.0 3.78120743e-2 -130.274911 9.46888546e-1 22.2664669 9.46888546e-1 22.2664669 2.18310041e-2 57.4799049
3010.0 3.75392094e-2 -131.209173 9.46734020e-1 21.1488754 9.46734020e-1 21.1488754 2.18728935e-2 56.1541882
3020.0 3.72621633e-2 -132.150596 0.94657960 20.0313347 0.94657960 20.0313347 2.19119576e-2 54.8288636
3030.0 3.69811396e-2 -133.099604 9.46425366e-1 18.9138376 9.46425366e-1 18.9138376 2.19465092e-2 53.4919254
3040.0 3.66966043e-2 -134.056410 9.46271278e-1 17.7963972 9.46271278e-1 17.7963972 2.19808253e-2 52.1468526
3050.0 3.64087892e-2 -135.021190 9.46117342e-1 16.6789964 9.46117342e-1 16.6789964 2.20141799e-2 50.7996034
3060.0 3.61180704e-2 -135.994428 9.45963517e-1 15.5616537 9.45963517e-1 15.5616537 2.20462967e-2 49.4475801
3070.0 3.58246926e-2 -136.976209 9.45809894e-1 14.4443535 9.45809894e-1 14.4443535 2.20784276e-2 48.0848415
3080.0 3.55289646e-2 -137.967048 9.45656378e-1 13.3270996 9.45656378e-1 13.3270996 2.21099790e-2 46.7164681
3090.0 3.52311912e-2 -138.967021 9.45503049e-1 12.2098989 9.45503049e-1 12.2098989 2.21411038e-2 45.3400195
3100.0 3.49316664e-2 -139.976316 9.45349837e-1 11.0927474 9.45349837e-1 11.0927474 2.21695871e-2 43.9664630
3110.0 3.46307531e-2 -140.995311 0.94519680 9.97563888 0.94519680 9.97563888 2.21943759e-2 42.5913324
3120.0 3.43288478e-2 -142.024424 0.94504390 8.85857960 0.94504390 8.85857960 2.22187454e-2 41.2075529
3130.0 3.40259813e-2 -143.063562 9.44891190e-1 7.74157125 9.44891190e-1 7.74157125 2.22413973e-2 39.8138189
3140.0 3.37229016e-2 -144.113147 9.44738596e-1 6.62460423 9.44738596e-1 6.62460423 2.22605185e-2 38.4116417
3150.0 3.34195278e-2 -145.173334 9.44586152e-1 5.50768410 9.44586152e-1 5.50768410 2.22772768e-2 36.9981683
3160.0 3.31163259e-2 -146.244359 9.44433862e-1 4.39081007 9.44433862e-1 4.39081007 2.22922618e-2 35.5799947
3170.0 3.28136451e-2 -147.326409 9.44281746e-1 3.27398304 9.44281746e-1 3.27398304 2.23049014e-2 34.1504140
3180.0 3.25116463e-2 -148.419615 9.44129793e-1 2.15720158 9.44129793e-1 2.15720158 2.23168627e-2 32.7144472
3190.0 3.22109705e-2 -149.524032 9.43978036e-1 1.04046563 9.43978036e-1 1.04046563 2.23286605e-2 31.2695571
3200.0 3.19115822e-2 -150.639946 9.43826353e-1 -7.62248360e-2 9.43826353e-1 -7.62248360e-2 2.23388343e-2 29.8173813
3210.0 3.16138211e-2 -151.767324 9.43674912e-1 -1.19287285 9.43674912e-1 -1.19287285 2.23459850e-2 28.3613873
3220.0 3.13180950e-2 -152.906157 9.43523554e-1 -2.30947290 9.43523554e-1 -2.30947290 2.23522267e-2 26.9014368
3230.0 3.10247305e-2 -154.056687 0.94337240 -3.42602956 0.94337240 -3.42602956 2.23571155e-2 25.4373313
3240.0 3.07338216e-2 -155.218949 9.43221430e-1 -4.54254373 9.43221430e-1 -4.54254373 2.23579907e-2 23.9681622
3250.0 3.04457907e-2 -156.392876 9.43070567e-1 -5.65900759 9.43070567e-1 -5.65900759 2.23583874e-2 22.4939162
3260.0 3.01608382e-2 -157.578513 9.42919925e-1 -6.77543279 9.42919925e-1 -6.77543279 2.23554897e-2 21.0164617
3270.0 2.98793444e-2 -158.775844 9.42769386e-1 -7.89181532 9.42769386e-1 -7.89181532 2.23500704e-2 19.5312921
3280.0 2.96014337e-2 -159.984829 9.42619047e-1 -9.00815799 9.42619047e-1 -9.00815799 2.23438487e-2 18.0367079
3290.0 2.93273196e-2 -161.205334 9.42468899e-1 -10.1244550 9.42468899e-1 -10.1244550 2.23352785e-2 16.5340244
3300.0 2.90573739e-2 -162.437009 9.42318839e-1 -11.2407102 9.42318839e-1 -11.2407102 2.23245575e-2 15.0274206
3310.0 2.87917415e-2 -163.679955 9.42169072e-1 -12.3569262 9.42169072e-1 -12.3569262 2.23121367e-2 13.5146182
3320.0 2.85306920e-2 -164.933963 9.42019386e-1 -13.4730982 9.42019386e-1 -13.4730982 2.22966026e-2 11.9963948
3330.0 2.82745052e-2 -166.198902 9.41869892e-1 -14.5892293 9.41869892e-1 -14.5892293 2.22806726e-2 10.4747210
3340.0 2.80231823e-2 -167.474238 9.41720558e-1 -15.7053214 9.41720558e-1 -15.7053214 2.22620437e-2 8.94776340
3350.0 2.77772076e-2 -168.759728 9.41571439e-1 -16.8213769 9.41571439e-1 -16.8213769 2.22432089e-2 7.41773529
3360.0 2.75366020e-2 -170.055220 0.94142240 -17.9373838 0.94142240 -17.9373838 2.22217124e-2 5.88080537
3370.0 2.73013313e-2 -171.360170 9.41273657e-1 -19.0533599 9.41273657e-1 -19.0533599 2.21981256e-2 4.33814048
3380.0 2.70718179e-2 -172.674216 9.41125017e-1 -20.1692939 9.41125017e-1 -20.1692939 2.21726798e-2 2.79161685
3390.0 2.68481133e-2 -173.996948 9.40976563e-1 -21.2851900 9.40976563e-1 -21.2851900 2.21461756e-2 1.23909441
3400.0 2.66302581e-2 -175.327839 9.40828311e-1 -22.4010523 9.40828311e-1 -22.4010523 2.21174035e-2 -3.21193628e-1
3410.0 2.64183789e-2 -176.666696 9.40680261e-1 -23.5168713 9.40680261e-1 -23.5168713 2.20875112e-2 -1.88830132
3420.0 2.62126242e-2 -178.012488 9.40532336e-1 -24.6326560 9.40532336e-1 -24.6326560 2.20544911e-2 -3.46054418
3430.0 2.60131177e-2 -179.364757 9.40384621e-1 -25.7484049 9.40384621e-1 -25.7484049 2.20198131e-2 -5.03747954
3440.0 2.58197722e-2 179.276726 9.40237078e-1 -26.8641200 9.40237078e-1 -26.8641200 2.19845707e-2 -6.62168453
3450.0 2.56327075e-2 177.912761 9.40089751e-1 -27.9797961 9.40089751e-1 -27.9797961 2.19478970e-2 -8.20910705
3460.0 2.54520924e-2 176.544340 9.39942620e-1 -29.0954400 9.39942620e-1 -29.0954400 2.19083279e-2 -9.80312507
3470.0 2.52775808e-2 175.171835 9.39795614e-1 -30.2110481 9.39795614e-1 -30.2110481 2.18670506e-2 -11.4017159
3480.0 2.51095894e-2 173.795997 9.39648841e-1 -31.3266216 9.39648841e-1 -31.3266216 2.18239652e-2 -13.0034947
3490.0 2.49477765e-2 172.417494 9.39502251e-1 -32.4421625 9.39502251e-1 -32.4421625 2.17789969e-2 -14.6108616
3500.0 2.47922495e-2 171.036923 9.39355845e-1 -33.5576719 9.39355845e-1 -33.5576719 2.17316644e-2 -16.2238269
3510.0 2.46428931e-2 169.655625 9.39209672e-1 -34.6731459 9.39209672e-1 -34.6731459 2.16823811e-2 -17.8403193
3520.0 2.44997280e-2 168.273706 9.39063633e-1 -35.7885877 9.39063633e-1 -35.7885877 2.16312412e-2 -19.4619281
3530.0 2.43625948e-2 166.892243 9.38917813e-1 -36.9039978 9.38917813e-1 -36.9039978 2.15784256e-2 -21.0883620
3540.0 2.42313965e-2 165.511656 9.38772187e-1 -38.0193787 9.38772187e-1 -38.0193787 2.15240830e-2 -22.7193579
3550.0 2.41059689e-2 164.133158 0.93862680 -39.1347287 0.93862680 -39.1347287 2.14681542e-2 -24.3530174
3560.0 2.39863529e-2 162.756821 9.38481583e-1 -40.2500469 9.38481583e-1 -40.2500469 2.14108549e-2 -25.9896632
3570.0 2.38722452e-2 161.384033 9.38336579e-1 -41.3653374 9.38336579e-1 -41.3653374 2.13526040e-2 -27.6311561
3580.0 2.37636074e-2 160.015004 9.38191792e-1 -42.4805954 9.38191792e-1 -42.4805954 2.12924609e-2 -29.2765126
3590.0 2.36601668e-2 158.650777 9.38047195e-1 -43.5958271 9.38047195e-1 -43.5958271 2.12311648e-2 -30.9245506
3600.0 2.35619032e-2 157.291752 9.37902824e-1 -44.7110299 9.37902824e-1 -44.7110299 2.11686085e-2 -32.5775975
3610.0 2.34683983e-2 155.938690 9.37758678e-1 -45.8262066 9.37758678e-1 -45.8262066 2.11050319e-2 -34.2339874
3620.0 2.33795705e-2 154.592362 9.37614712e-1 -46.9413534 9.37614712e-1 -46.9413534 2.10404207e-2 -35.8969441
3630.0 2.32951549e-2 153.253242 9.37471027e-1 -48.0564769 9.37471027e-1 -48.0564769 2.09743534e-2 -37.5636848
3640.0 2.32151128e-2 151.921939 9.37327448e-1 -49.1715746 9.37327448e-1 -49.1715746 2.09066597e-2 -39.2340731
3650.0 2.31390369e-2 150.599035 9.37184183e-1 -50.2866447 9.37184183e-1 -50.2866447 2.08382573e-2 -40.9095914
3660.0 2.30667686e-2 149.284944 9.37041124e-1 -51.4016915 9.37041124e-1 -51.4016915 2.07687260e-2 -42.5905918
3670.0 2.29980711e-2 147.980404 9.36898273e-1 -52.5167167 9.36898273e-1 -52.5167167 2.06983091e-2 -44.2768389
3680.0 2.29326480e-2 146.685400 9.36755635e-1 -53.6317168 9.36755635e-1 -53.6317168 2.06271952e-2 -45.9681344
3690.0 2.28703913e-2 145.400831 9.36613272e-1 -54.7466954 9.36613272e-1 -54.7466954 2.05552811e-2 -47.6634129
3700.0 2.28108961e-2 144.126753 9.36471130e-1 -55.8616513 9.36471130e-1 -55.8616513 2.04822613e-2 -49.3629472
3710.0 2.27540173e-2 142.863730 9.36329212e-1 -56.9765863 9.36329212e-1 -56.9765863 2.04089753e-2 -51.0684385
3720.0 2.26995309e-2 141.612011 9.36187539e-1 -58.0915015 9.36187539e-1 -58.0915015 2.03344406e-2 -52.7789809
3730.0 2.26471807e-2 140.371680 9.36046080e-1 -59.2063925 9.36046080e-1 -59.2063925 2.02593985e-2 -54.4940412
3740.0 2.25966436e-2 139.143240 9.35904866e-1 -60.3212675 9.35904866e-1 -60.3212675 2.01836262e-2 -56.2133624
3750.0 2.25478703e-2 137.927062 9.35763925e-1 -61.4361177 9.35763925e-1 -61.4361177 2.01070222e-2 -57.9383062
3760.0 2.25004771e-2 136.722884 9.35623187e-1 -62.5509547 9.35623187e-1 -62.5509547 2.00298274e-2 -59.6690984
3770.0 2.24541594e-2 135.531025 9.35482763e-1 -63.6657730 9.35482763e-1 -63.6657730 1.99522268e-2 -61.4052648
3780.0 2.24088463e-2 134.351905 9.35342535e-1 -64.7805732 9.35342535e-1 -64.7805732 1.98738674e-2 -63.145649
3790.0 2.23642048e-2 133.185271 9.35202553e-1 -65.8953560 9.35202553e-1 -65.8953560 1.97951917e-2 -64.8924344
3800.0 2.23200374e-2 132.031397 9.35062811e-1 -67.0101227 9.35062811e-1 -67.0101227 1.97158476e-2 -66.6443442
3810.0 2.22762821e-2 130.890010 9.34923343e-1 -68.1248752 9.34923343e-1 -68.1248752 1.96362577e-2 -68.4028487
3820.0 2.22325152e-2 129.761303 0.93478420 -69.2396130 0.93478420 -69.2396130 1.95560689e-2 -70.1657847
3830.0 2.21886059e-2 128.645696 9.34645249e-1 -70.3543356 9.34645249e-1 -70.3543356 1.94755589e-2 -71.9350122
