#  MHZ S MA R 50.0
2000.0 2.53460644e-2 8.95627439 9.61152681e-1 140.990504 9.61152681e-1 140.990504 1.54302052e-2 -123.495623
2010.0 2.51072894e-2 7.15884309 9.60978371e-1 139.901133 9.60978371e-1 139.901133 1.54580313e-2 -124.828672
2020.0 2.48789390e-2 5.33144845 9.60804340e-1 138.811781 9.60804340e-1 138.811781 1.54828455e-2 -126.162840
2030.0 2.46615823e-2 3.47350837 9.60630580e-1 137.722443 9.60630580e-1 137.722443 1.55050676e-2 -127.494830
2040.0 2.44562478e-2 1.58759831 9.60457091e-1 136.633125 9.60457091e-1 136.633125 1.55235815e-2 -128.832883
2050.0 2.42634935e-2 -3.25921994e-1 9.60283867e-1 135.543823 9.60283867e-1 135.543823 1.55402305e-2 -130.171062
2060.0 2.40840928e-2 -2.26449204 0.96011090 134.454538 0.96011090 134.454538 1.55539724e-2 -131.510744
2070.0 2.39185129e-2 -4.22723149 0.95993820 133.365263 0.95993820 133.365263 1.55645385e-2 -132.853745
2080.0 2.37679285e-2 -6.21144294 9.59765758e-1 132.276008 9.59765758e-1 132.276008 1.55716617e-2 -134.196915
2090.0 2.36322532e-2 -8.21492016 9.59593563e-1 131.186772 9.59593563e-1 131.186772 1.55760770e-2 -135.537522
2100.0 2.35121694e-2 -10.2351526 9.59421614e-1 130.097544 9.59421614e-1 130.097544 1.55776305e-2 -136.876610
2110.0 2.34080712e-2 -12.2704292 0.95924990 129.008336 0.95924990 129.008336 1.55763496e-2 -138.217134
2120.0 2.33203908e-2 -14.3165483 9.59078446e-1 127.919144 9.59078446e-1 127.919144 1.55720323e-2 -139.556561
2130.0 2.32491646e-2 -16.3718233 9.58907221e-1 126.829964 9.58907221e-1 126.829964 1.55653645e-2 -140.892885
2140.0 2.31947909e-2 -18.4320173 9.58736229e-1 125.740799 9.58736229e-1 125.740799 1.55558100e-2 -142.227711
2150.0 2.31573105e-2 -20.4945929 9.58565461e-1 124.651645 9.58565461e-1 124.651645 1.55443866e-2 -143.558874
2160.0 2.31365904e-2 -22.5568163 9.58394933e-1 123.562502 9.58394933e-1 123.562502 1.55312052e-2 -144.891436
2170.0 2.31325703e-2 -24.6153004 9.58224617e-1 122.473376 9.58224617e-1 122.473376 1.55156155e-2 -146.220315
2180.0 2.31448728e-2 -26.6671018 9.58054531e-1 121.384261 9.58054531e-1 121.384261 1.54986218e-2 -147.550007
2190.0 2.31737401e-2 -28.7083565 9.57884644e-1 120.295160 9.57884644e-1 120.295160 1.54804206e-2 -148.876895
2200.0 2.32184778e-2 -30.7368927 9.57714986e-1 119.206065 9.57714986e-1 119.206065 1.54595905e-2 -150.202256
2210.0 2.32790695e-2 -32.7498530 9.57545528e-1 118.116987 9.57545528e-1 118.116987 1.54379290e-2 -151.524315
2220.0 2.33544127e-2 -34.7443344 9.57376277e-1 117.027916 9.57376277e-1 117.027916 1.54148572e-2 -152.847516
2230.0 2.34446443e-2 -36.7182054 9.57207228e-1 115.938857 9.57207228e-1 115.938857 1.53896310e-2 -154.167320
2240.0 2.35487943e-2 -38.6690968 9.57038381e-1 114.849807 9.57038381e-1 114.849807 1.53640596e-2 -155.485012
2250.0 2.36665012e-2 -40.5946443 9.56869733e-1 113.760770 9.56869733e-1 113.760770 1.53376419e-2 -156.792408
2260.0 2.37967223e-2 -42.4931931 9.56701277e-1 112.671738 9.56701277e-1 112.671738 1.53104179e-2 -158.102852
2270.0 2.39389772e-2 -44.3637529 0.95653300 111.582721 0.95653300 111.582721 1.52819217e-2 -159.413809
2280.0 2.40925280e-2 -46.2041183 9.56364923e-1 110.493710 9.56364923e-1 110.493710 1.52516713e-2 -160.718468
2290.0 2.42565252e-2 -48.0135851 9.56197020e-1 109.404709 9.56197020e-1 109.404709 1.52214356e-2 -162.021860
2300.0 2.44302161e-2 -49.7906339 9.56029311e-1 108.315713 9.56029311e-1 108.315713 1.51902616e-2 -163.320814
2310.0 2.46129026e-2 -51.5359121 9.55861774e-1 107.226725 9.55861774e-1 107.226725 1.51595890e-2 -164.615249
2320.0 2.48035885e-2 -53.2475764 9.55694423e-1 106.137748 9.55694423e-1 106.137748 1.51283027e-2 -165.906650
2330.0 2.50017432e-2 -54.9263923 9.55527220e-1 105.048779 9.55527220e-1 105.048779 1.50974923e-2 -167.199556
2340.0 2.52060852e-2 -56.5713153 0.95536020 103.959812 0.95536020 103.959812 1.50664806e-2 -168.493373
2350.0 2.54162995e-2 -58.1823955 9.55193347e-1 102.870860 9.55193347e-1 102.870860 1.50346118e-2 -169.783596
2360.0 2.56313571e-2 -59.7603217 9.55026656e-1 101.781910 9.55026656e-1 101.781910 1.50035176e-2 -171.072958
2370.0 2.58506925e-2 -61.3053142 9.54860125e-1 100.692966 9.54860125e-1 100.692966 1.49720585e-2 -172.358300
2380.0 2.60732323e-2 -62.8173521 9.54693754e-1 99.6040314 9.54693754e-1 99.6040314 1.49395493e-2 -173.642916
2390.0 2.62985204e-2 -64.2972352 9.54527543e-1 98.5151026 9.54527543e-1 98.5151026 0.01490660 -174.924183
2400.0 2.65256702e-2 -65.7452501 9.54361483e-1 97.4261800 9.54361483e-1 97.4261800 1.48745273e-2 -176.202549
2410.0 2.67542539e-2 -67.1622857 9.54195580e-1 96.3372604 9.54195580e-1 96.3372604 1.48412289e-2 -177.475568
2420.0 2.69831931e-2 -68.5487203 0.95402980 95.2483492 0.95402980 95.2483492 1.48084795e-2 -178.748663
2430.0 2.72120117e-2 -69.9061968 9.53864196e-1 94.1594383 9.53864196e-1 94.1594383 1.47768194e-2 179.974798
2440.0 2.74402837e-2 -71.2344789 9.53698738e-1 93.0705344 9.53698738e-1 93.0705344 1.47456070e-2 178.699879
2450.0 2.76671296e-2 -72.5350160 9.53533414e-1 91.9816400 9.53533414e-1 91.9816400 1.47143943e-2 177.428576
2460.0 2.78921398e-2 -73.8087151 9.53368221e-1 90.8927458 9.53368221e-1 90.8927458 1.46842919e-2 176.156853
2470.0 2.81148433e-2 -75.0562742 9.53203168e-1 89.8038589 9.53203168e-1 89.8038589 1.46553885e-2 174.882666
2480.0 2.83344996e-2 -76.2785335 9.53038280e-1 88.7149700 9.53038280e-1 88.7149700 1.46276339e-2 173.611312
2490.0 2.85508156e-2 -77.4766910 9.52873495e-1 87.6260886 9.52873495e-1 87.6260886 1.46016282e-2 172.337923
2500.0 2.87631815e-2 -78.6515557 9.52708839e-1 86.5372062 9.52708839e-1 86.5372062 1.45766209e-2 171.065174
2510.0 2.89712023e-2 -79.8031832 9.52544333e-1 85.4483327 9.52544333e-1 85.4483327 1.45509330e-2 169.786259
2520.0 2.91744180e-2 -80.9338479 9.52379943e-1 84.3594571 9.52379943e-1 84.3594571 1.45268808e-2 168.508957
2530.0 2.93725299e-2 -82.0433072 9.52215696e-1 83.2705885 9.52215696e-1 83.2705885 1.45036727e-2 167.228632
2540.0 2.95649995e-2 -83.1326729 9.52051574e-1 82.1817250 9.52051574e-1 82.1817250 1.44820823e-2 165.945230
2550.0 2.97516110e-2 -84.2034339 9.51887563e-1 81.0928558 9.51887563e-1 81.0928558 1.44612584e-2 164.656786
2560.0 2.99322643e-2 -85.2554348 9.51723677e-1 80.0039943 9.51723677e-1 80.0039943 1.44408754e-2 163.365623
2570.0 3.01061788e-2 -86.2898972 0.95155990 78.9151335 0.95155990 78.9151335 1.44220816e-2 162.070358
2580.0 3.02734297e-2 -87.3082310 9.51396259e-1 77.8262751 9.51396259e-1 77.8262751 1.44045273e-2 160.776571
2590.0 3.04335609e-2 -88.3102533 9.51232743e-1 76.7374241 9.51232743e-1 76.7374241 1.43878232e-2 159.477521
2600.0 3.05863141e-2 -89.2973199 9.51069330e-1 75.6485669 9.51069330e-1 75.6485669 1.43724921e-2 158.173113
2610.0 3.07317841e-2 -90.2699698 9.50906042e-1 74.5597137 9.50906042e-1 74.5597137 1.43591874e-2 156.866682
2620.0 3.08694962e-2 -91.2292534 9.50742877e-1 73.4708601 9.50742877e-1 73.4708601 1.43474582e-2 155.554193
2630.0 3.09994689e-2 -92.1755862 9.50579817e-1 72.3820104 9.50579817e-1 72.3820104 1.43363684e-2 154.238607
2640.0 3.11212812e-2 -93.1092657 9.50416888e-1 71.2931608 9.50416888e-1 71.2931608 1.43258601e-2 152.915965
2650.0 3.12348561e-2 -94.0316064 9.50254053e-1 70.2043126 9.50254053e-1 70.2043126 1.43168668e-2 151.590103
2660.0 3.13402475e-2 -94.9427340 9.50091349e-1 69.1154638 9.50091349e-1 69.1154638 1.43085841e-2 150.261358
2670.0 3.14371868e-2 -95.8437641 9.49928738e-1 68.0266166 9.49928738e-1 68.0266166 1.43025602e-2 148.918180
2680.0 3.15254748e-2 -96.7347482 9.49766252e-1 66.9377715 9.49766252e-1 66.9377715 1.42969085e-2 147.568003
2690.0 3.16051334e-2 -97.6170945 9.49603834e-1 65.8489292 9.49603834e-1 65.8489292 1.42923033e-2 146.210443
2700.0 3.16762685e-2 -98.4905865 9.49441610e-1 64.7600864 9.49441610e-1 64.7600864 1.42893606e-2 144.847683
2710.0 3.17385746e-2 -99.3564096 9.49279418e-1 63.6712421 9.49279418e-1 63.6712421 1.42878551e-2 143.474684
2720.0 3.17922404e-2 -100.214608 9.49117354e-1 62.5823975 9.49117354e-1 62.5823975 1.42882412e-2 142.097404
2730.0 3.18370558e-2 -101.066273 9.48955431e-1 61.4935526 9.48955431e-1 61.4935526 1.42894602e-2 140.713880
2740.0 3.18730412e-2 -101.911357 9.48793591e-1 60.4047078 9.48793591e-1 60.4047078 1.42928867e-2 139.315955
2750.0 3.19001924e-2 -102.751170 9.48631845e-1 59.3158624 9.48631845e-1 59.3158624 1.42970730e-2 137.910966
2760.0 3.19187451e-2 -103.584866 9.48470245e-1 58.2270198 9.48470245e-1 58.2270198 1.43018970e-2 136.498036
2770.0 3.19286068e-2 -104.414280 9.48308753e-1 57.1381780 9.48308753e-1 57.1381780 1.43065750e-2 135.077429
2780.0 3.19295732e-2 -105.239222 9.48147351e-1 56.0493383 9.48147351e-1 56.0493383 1.43125651e-2 133.644314
2790.0 3.19219783e-2 -106.060007 9.47986049e-1 54.9604964 9.47986049e-1 54.9604964 1.43191832e-2 132.196705
2800.0 3.19056928e-2 -106.877502 9.47824883e-1 53.8716541 9.47824883e-1 53.8716541 1.43266610e-2 130.737597
2810.0 3.18808565e-2 -107.692043 9.47663780e-1 52.7828126 9.47663780e-1 52.7828126 1.43350716e-2 129.266574
2820.0 3.18476321e-2 -108.503821 9.47502812e-1 51.6939755 9.47502812e-1 51.6939755 1.43432749e-2 127.783499
2830.0 3.18061354e-2 -109.313899 9.47341941e-1 50.6051343 9.47341941e-1 50.6051343 1.43532150e-2 126.289082
2840.0 3.17561911e-2 -110.122058 9.47181192e-1 49.5162943 9.47181192e-1 49.5162943 1.43633218e-2 124.783560
2850.0 3.16983288e-2 -110.929412 9.47020550e-1 48.4274545 9.47020550e-1 48.4274545 1.43747407e-2 123.268495
2860.0 3.16322447e-2 -111.735587 9.46860017e-1 47.3386126 9.46860017e-1 47.3386126 1.43873858e-2 121.743768
2870.0 3.15584372e-2 -112.541819 9.46699610e-1 46.2497724 9.46699610e-1 46.2497724 1.44002556e-2 120.206930
2880.0 3.14768635e-2 -113.347820 9.46539297e-1 45.1609323 9.46539297e-1 45.1609323 1.44137163e-2 118.660417
2890.0 3.13877128e-2 -114.154344 9.46379096e-1 44.0720936 9.46379096e-1 44.0720936 1.44275853e-2 117.101597
2900.0 3.12910121e-2 -114.961729 9.46219017e-1 42.9832556 9.46219017e-1 42.9832556 1.44416761e-2 115.533399
2910.0 3.11873036e-2 -115.770352 9.46059053e-1 41.8944172 9.46059053e-1 41.8944172 1.44568871e-2 113.955086
2920.0 3.10762357e-2 -116.580983 0.94589920 40.8055774 0.94589920 40.8055774 1.44727951e-2 112.364313
2930.0 3.09582836e-2 -117.393181 9.45739452e-1 39.7167392 9.45739452e-1 39.7167392 1.44894389e-2 110.760004
2940.0 3.08336035e-2 -118.207861 9.45579853e-1 38.6279017 9.45579853e-1 38.6279017 1.45060762e-2 109.143925
2950.0 3.07022929e-2 -119.025386 9.45420320e-1 37.5390640 9.45420320e-1 37.5390640 1.45232510e-2 107.517214
2960.0 3.05647078e-2 -119.846011 9.45260923e-1 36.4502304 9.45260923e-1 36.4502304 1.45406111e-2 105.877654
2970.0 3.04209803e-2 -120.670601 9.45101660e-1 35.3613949 9.45101660e-1 35.3613949 1.45584598e-2 104.226756
2980.0 3.02711258e-2 -121.498851 9.44942530e-1 34.2725589 9.44942530e-1 34.2725589 1.45770168e-2 102.565234
2990.0 3.01157938e-2 -122.331084 0.94478350 33.1837265 0.94478350 33.1837265 1.45952750e-2 100.891829
3000.0 2.99548093e-2 -123.168484 9.44624577e-1 32.0948971 9.44624577e-1 32.0948971 1.46139837e-2 99.2058191
3010.0 2.97884900e-2 -124.010650 9.44465817e-1 31.0060655 9.44465817e-1 31.0060655 1.46329557e-2 97.5100677
3020.0 2.96171271e-2 -124.858381 9.44307141e-1 29.9172390 9.44307141e-1 29.9172390 1.46521816e-2 95.8034784
3030.0 2.94409072e-2 -125.711814 9.44148636e-1 28.8284089 9.44148636e-1 28.8284089 1.46719456e-2 94.0837976
3040.0 2.92601551e-2 -126.571375 9.43990237e-1 27.7395855 9.43990237e-1 27.7395855 1.46919516e-2 92.3532912
3050.0 2.90749903e-2 -127.437272 9.43831940e-1 26.6507596 9.43831940e-1 26.6507596 1.47121270e-2 90.6111776
3060.0 2.88856507e-2 -128.309892 9.43673799e-1 25.5619407 9.43673799e-1 25.5619407 1.47326310e-2 88.8574614
3070.0 2.86925019e-2 -129.190099 9.43515768e-1 24.4731148 9.43515768e-1 24.4731148 1.47538636e-2 87.0941538
3080.0 2.84958415e-2 -130.077498 9.43357898e-1 23.3842955 9.43357898e-1 23.3842955 1.47751389e-2 85.3193533
3090.0 2.82956752e-2 -130.973234 9.43200130e-1 22.2954761 9.43200130e-1 22.2954761 1.47967811e-2 83.5339763
3100.0 2.80924957e-2 -131.876696 9.43042520e-1 21.2066654 9.43042520e-1 21.2066654 1.48183019e-2 81.7383655
3110.0 2.78865976e-2 -132.789248 9.42885044e-1 20.1178539 9.42885044e-1 20.1178539 1.48398166e-2 79.9321809
3120.0 2.76781708e-2 -133.710194 9.42727682e-1 19.0290456 9.42727682e-1 19.0290456 1.48616025e-2 78.1138321
3130.0 2.74674242e-2 -134.640432 9.42570448e-1 17.9402407 9.42570448e-1 17.9402407 1.48835071e-2 76.2854078
3140.0 2.72548299e-2 -135.580344 9.42413389e-1 16.8514402 9.42413389e-1 16.8514402 1.49056658e-2 74.4461741
3150.0 2.70405630e-2 -136.529962 9.42256445e-1 15.7626409 9.42256445e-1 15.7626409 1.49278605e-2 72.5964257
3160.0 2.68247734e-2 -137.489760 9.42099662e-1 14.6738492 9.42099662e-1 14.6738492 1.49502071e-2 70.7367600
3170.0 2.66078925e-2 -138.459495 0.94194300 13.5850580 0.94194300 13.5850580 1.49729896e-2 68.8662711
3180.0 2.63901222e-2 -139.440056 0.94178650 12.4962750 0.94178650 12.4962750 1.49958386e-2 66.9861361
3190.0 2.61718024e-2 -140.431837 9.41630147e-1 11.4074929 9.41630147e-1 11.4074929 1.50193446e-2 65.0961438
3200.0 2.59532356e-2 -141.434292 0.94147390 10.3187182 0.94147390 10.3187182 1.50429975e-2 63.1966197
3210.0 2.57346656e-2 -142.448405 9.41317829e-1 9.22994669 9.41317829e-1 9.22994669 1.50669904e-2 61.2877692
3220.0 2.55163439e-2 -143.474191 9.41161885e-1 8.14118046 9.41161885e-1 8.14118046 1.50911451e-2 59.3704865
3230.0 2.52986596e-2 -144.511752 9.41006129e-1 7.05242031 9.41006129e-1 7.05242031 1.51155319e-2 57.4443714
3240.0 2.50817806e-2 -145.561754 9.40850473e-1 5.96366534 9.40850473e-1 5.96366534 1.51402774e-2 55.5092140
3250.0 2.48659996e-2 -146.623270 9.40694999e-1 4.87491517 9.40694999e-1 4.87491517 1.51654911e-2 53.5664505
3260.0 2.46517107e-2 -147.697682 9.40539688e-1 3.78617354 9.40539688e-1 3.78617354 1.51910541e-2 51.6148872
3270.0 2.44392419e-2 -148.784241 0.94038450 2.69744037 0.94038450 2.69744037 1.52168310e-2 49.6550379
3280.0 2.42286670e-2 -149.883229 9.40229496e-1 1.60871170 9.40229496e-1 1.60871170 1.52431797e-2 47.6870742
3290.0 2.40205165e-2 -150.994839 9.40074614e-1 0.51999010 9.40074614e-1 0.51999010 1.52700609e-2 45.7113444
3300.0 2.38147671e-2 -152.118796 9.39919921e-1 -5.68722122e-1 9.39919921e-1 -5.68722122e-1 1.52973749e-2 43.7282298
3310.0 2.36121049e-2 -153.255891 9.39765335e-1 -1.65742468 9.39765335e-1 -1.65742468 1.53251864e-2 41.7374801
3320.0 2.34124189e-2 -154.405405 9.39610973e-1 -2.74611837 9.39610973e-1 -2.74611837 1.53535047e-2 39.7390376
3330.0 2.32163631e-2 -155.567674 9.39456688e-1 -3.83480027 9.39456688e-1 -3.83480027 1.53824041e-2 37.7339449
3340.0 2.30239068e-2 -156.741931 9.39302640e-1 -4.92347053 9.39302640e-1 -4.92347053 1.54118700e-2 35.7217240
3350.0 2.28353408e-2 -157.928856 9.39148696e-1 -6.01213463 9.39148696e-1 -6.01213463 1.54420353e-2 33.7029826
3360.0 2.26511092e-2 -159.127468 9.38994941e-1 -7.10078083 9.38994941e-1 -7.10078083 1.54727180e-2 31.6772763
3370.0 2.24712023e-2 -160.338794 9.38841352e-1 -8.18941861 9.38841352e-1 -8.18941861 1.55040468e-2 29.6464367
3380.0 2.22959650e-2 -161.561756 9.38687965e-1 -9.27804138 9.38687965e-1 -9.27804138 1.55362134e-2 27.6091927
3390.0 2.21257142e-2 -162.796463 9.38534686e-1 -10.3666472 9.38534686e-1 -10.3666472 1.55688725e-2 25.5664532
3400.0 2.19604506e-2 -164.042100 9.38381647e-1 -11.4552427 9.38381647e-1 -11.4552427 1.56024813e-2 23.5185018
3410.0 2.18005852e-2 -165.299161 9.38228778e-1 -12.5438234 9.38228778e-1 -12.5438234 1.56367631e-2 21.4655928
3420.0 2.16460386e-2 -166.566653 9.38076092e-1 -13.6323869 9.38076092e-1 -13.6323869 1.56718986e-2 19.4076687
3430.0 2.14971797e-2 -167.844031 9.37923599e-1 -14.7209342 9.37923599e-1 -14.7209342 1.57077738e-2 17.3452005
3440.0 2.13540047e-2 -169.131447 9.37771316e-1 -15.8094673 9.37771316e-1 -15.8094673 1.57444787e-2 15.2785654
3450.0 2.12167098e-2 -170.427767 9.37619227e-1 -16.8979852 9.37619227e-1 -16.8979852 1.57822145e-2 13.2078219
3460.0 2.10853087e-2 -171.733409 9.37467379e-1 -17.9864823 9.37467379e-1 -17.9864823 1.58207383e-2 11.1330304
3470.0 2.09601106e-2 -173.047033 0.93731570 -19.0749683 0.93731570 -19.0749683 1.58601884e-2 9.05530662
3480.0 2.08410030e-2 -174.367715 9.37164247e-1 -20.1634355 9.37164247e-1 -20.1634355 1.59006339e-2 6.97313270
3490.0 2.07280176e-2 -175.695503 9.37013062e-1 -21.2518895 9.37013062e-1 -21.2518895 1.59420125e-2 4.88880462
3500.0 2.06211505e-2 -177.028969 0.93686210 -22.3403294 0.93686210 -22.3403294 1.59843825e-2 2.80112902
3510.0 2.05207099e-2 -178.367801 9.36711385e-1 -23.4287520 9.36711385e-1 -23.4287520 1.60279057e-2 7.11204347e-1
3520.0 0.02042640 -179.710175 9.36560876e-1 -24.5171588 9.36560876e-1 -24.5171588 1.60724078e-2 -1.38090840
3530.0 2.03384564e-2 178.943514 0.93641060 -25.6055504 0.93641060 -25.6055504 1.61179714e-2 -3.47482605
3540.0 2.02566106e-2 177.595131 9.36260621e-1 -26.6939303 9.36260621e-1 -26.6939303 1.61645805e-2 -5.57048059
3550.0 2.01810489e-2 176.245240 9.36110873e-1 -27.7822983 9.36110873e-1 -27.7822983 1.62124315e-2 -7.66773463
3560.0 2.01117158e-2 174.894846 9.35961358e-1 -28.8706525 9.35961358e-1 -28.8706525 1.62610961e-2 -9.76644047
3570.0 2.00484429e-2 173.545662 9.35812114e-1 -29.9589939 9.35812114e-1 -29.9589939 1.63110425e-2 -11.8656537
3580.0 1.99911128e-2 172.197638 0.93566310 -31.0473232 0.93566310 -31.0473232 1.63621443e-2 -13.9655483
3590.0 1.99399585e-2 170.852227 9.35514313e-1 -32.1356398 9.35514313e-1 -32.1356398 1.64142639e-2 -16.0659756
3600.0 1.98946559e-2 169.510276 9.35365791e-1 -33.2239435 9.35365791e-1 -33.2239435 1.64675341e-2 -18.1667769
3610.0 1.98551841e-2 168.172583 9.35217586e-1 -34.3122347 9.35217586e-1 -34.3122347 1.65220772e-2 -20.2672933
3620.0 1.98214028e-2 166.840803 9.35069573e-1 -35.4005135 9.35069573e-1 -35.4005135 1.65777251e-2 -22.3674177
3630.0 1.97932947e-2 165.514939 9.34921776e-1 -36.4887759 9.34921776e-1 -36.4887759 1.66346137e-2 -24.4668579
3640.0 1.97705190e-2 164.196115 9.34774295e-1 -37.5770290 9.34774295e-1 -37.5770290 1.66928413e-2 -26.5655748
3650.0 1.97531471e-2 162.885151 9.34627036e-1 -38.6652675 9.34627036e-1 -38.6652675 1.67523037e-2 -28.6627152
3660.0 1.97409531e-2 161.583045 9.34480085e-1 -39.7534933 9.34480085e-1 -39.7534933 1.68129707e-2 -30.7582497
3670.0 1.97338199e-2 160.290268 9.34333365e-1 -40.8417062 9.34333365e-1 -40.8417062 1.68750105e-2 -32.8525640
3680.0 1.97314511e-2 159.008068 9.34186910e-1 -41.9299081 9.34186910e-1 -41.9299081 1.69380931e-2 -34.9447951
3690.0 1.97337845e-2 157.736571 9.34040648e-1 -43.0180937 9.34040648e-1 -43.0180937 1.70024949e-2 -37.0350010
3700.0 1.97404823e-2 156.476739 9.33894720e-1 -44.1062683 9.33894720e-1 -44.1062683 1.70682095e-2 -39.1229390
3710.0 1.97515682e-2 155.229161 9.33748985e-1 -45.1944304 9.33748985e-1 -45.1944304 1.71350778e-2 -41.2088528
3720.0 1.97666840e-2 153.994289 9.33603562e-1 -46.2825821 9.33603562e-1 -46.2825821 1.72032310e-2 -43.2920399
3730.0 1.97857368e-2 152.772568 0.93345840 -47.3707142 0.93345840 -47.3707142 1.72726710e-2 -45.3726552
3740.0 1.98083337e-2 151.564666 9.33313470e-1 -48.4588360 9.33313470e-1 -48.4588360 1.73434046e-2 -47.4503704
3750.0 1.98345424e-2 150.370737 9.33168795e-1 -49.5469416 9.33168795e-1 -49.5469416 1.74153513e-2 -49.5242204
3760.0 1.98639243e-2 149.191195 0.93302440 -50.6350373 0.93302440 -50.6350373 1.74884836e-2 -51.5952630
3770.0 1.98964305e-2 148.026225 9.32880297e-1 -51.7231176 9.32880297e-1 -51.7231176 1.75629438e-2 -53.6621483
3780.0 1.99316435e-2 146.876206 9.32736463e-1 -52.8111849 9.32736463e-1 -52.8111849 1.76385691e-2 -55.7253202
3790.0 1.99696989e-2 145.741399 9.32592837e-1 -53.8992348 9.32592837e-1 -53.8992348 1.77154423e-2 -57.7837854
3800.0 2.00099927e-2 144.621640 9.32449474e-1 -54.9872740 9.32449474e-1 -54.9872740 1.77934629e-2 -59.8378568
3810.0 2.00526557e-2 143.517514 9.32306444e-1 -56.0752959 9.32306444e-1 -56.0752959 1.78725577e-2 -61.8873749
3820.0 2.00971541e-2 142.428924 9.32163650e-1 -57.1633069 9.32163650e-1 -57.1633069 1.79529627e-2 -63.9315988
3830.0 2.01434890e-2 141.356057 9.32021131e-1 -58.2513036 9.32021131e-1 -58.2513036 1.80346534e-2 -65.9714855
