#  MHZ S MA R 50.0
2000.0 3.60164796e-2 37.4354078 0.96300070 141.160175 0.96300070 141.160175 6.97082136e-3 -28.0759755
2010.0 3.55900817e-2 36.1900758 9.62826431e-1 140.068971 9.62826431e-1 140.068971 6.96930682e-3 -30.0263428
2020.0 3.51645511e-2 34.9236174 9.62652419e-1 138.977793 9.62652419e-1 138.977793 6.96816716e-3 -31.9647432
2030.0 3.47406579e-2 33.6356122 9.62478660e-1 137.886646 9.62478660e-1 137.886646 6.96725236e-3 -33.8975240
2040.0 3.43189520e-2 32.3254028 9.62305155e-1 136.795524 9.62305155e-1 136.795524 6.96714015e-3 -35.8113764
2050.0 3.39000335e-2 30.9924723 9.62131899e-1 135.704436 9.62131899e-1 135.704436 6.96637564e-3 -37.7125783
2060.0 3.34848707e-2 29.6361228 9.61958894e-1 134.613377 9.61958894e-1 134.613377 6.96610162e-3 -39.6000719
2070.0 3.30738170e-2 28.2565294 9.61786131e-1 133.522340 9.61786131e-1 133.522340 6.96677122e-3 -41.4741425
2080.0 3.26676119e-2 26.8527668 0.96161360 132.431332 0.96161360 132.431332 6.96674951e-3 -43.3418414
2090.0 3.22671857e-2 25.4244741 9.61441333e-1 131.340360 9.61441333e-1 131.340360 6.96764162e-3 -45.1987447
2100.0 3.18730104e-2 23.9722161 9.61269291e-1 130.249408 9.61269291e-1 130.249408 6.96930653e-3 -47.0493245
2110.0 3.14857784e-2 22.4948796 9.61097481e-1 129.158486 9.61097481e-1 129.158486 6.97100661e-3 -48.8805196
2120.0 3.11059876e-2 20.9929172 0.96092590 128.067590 0.96092590 128.067590 6.97329871e-3 -50.7066046
2130.0 3.07347070e-2 19.4667890 9.60754560e-1 126.976727 9.60754560e-1 126.976727 6.97676454e-3 -52.5255658
2140.0 3.03721246e-2 17.9157481 9.60583445e-1 125.885891 9.60583445e-1 125.885891 6.98114996e-3 -54.3309978
2150.0 3.00191843e-2 16.3404882 9.60412549e-1 124.795083 9.60412549e-1 124.795083 6.98628613e-3 -56.1295183
2160.0 2.96761927e-2 14.7416160 9.60241878e-1 123.704297 9.60241878e-1 123.704297 6.99217863e-3 -57.9217989
2170.0 2.93439058e-2 13.1189402 9.60071422e-1 122.613542 9.60071422e-1 122.613542 6.99844076e-3 -59.7073744
2180.0 2.90226516e-2 11.4736136 9.59901177e-1 121.522815 9.59901177e-1 121.522815 7.00450078e-3 -61.4807866
2190.0 2.87132612e-2 9.80587703 9.59731158e-1 120.432120 9.59731158e-1 120.432120 7.01183777e-3 -63.2543127
2200.0 2.84158890e-2 8.11715966 9.59561339e-1 119.341438 9.59561339e-1 119.341438 7.01991327e-3 -65.0334118
2210.0 2.81313504e-2 6.40768040 9.59391726e-1 118.250794 9.59391726e-1 118.250794 7.02844764e-3 -66.8095087
2220.0 2.78597022e-2 4.67924450 9.59222334e-1 117.160170 9.59222334e-1 117.160170 7.03725778e-3 -68.5834546
2230.0 2.76014937e-2 2.93284528 9.59053136e-1 116.069573 9.59053136e-1 116.069573 7.04672020e-3 -70.3573784
2240.0 2.73567948e-2 1.16981867 9.58884129e-1 114.979001 9.58884129e-1 114.979001 7.05684746e-3 -72.1316331
2250.0 2.71263834e-2 -6.08437295e-1 9.58715331e-1 113.888458 9.58715331e-1 113.888458 7.06784569e-3 -73.9147165
2260.0 2.69100268e-2 -2.39960371 9.58546727e-1 112.797938 9.58546727e-1 112.797938 7.07963200e-3 -75.6890353
2270.0 2.67079955e-2 -4.20288793 9.58378315e-1 111.707448 9.58378315e-1 111.707448 7.09321971e-3 -77.4639972
2280.0 2.65205729e-2 -6.01563509 9.58210082e-1 110.616978 9.58210082e-1 110.616978 7.10791275e-3 -79.2431870
2290.0 2.63475975e-2 -7.83640596 9.58042047e-1 109.526537 9.58042047e-1 109.526537 7.12252954e-3 -81.0235629
2300.0 2.61891484e-2 -9.66290457 9.57874188e-1 108.436121 9.57874188e-1 108.436121 7.13800913e-3 -82.8062285
2310.0 2.60451108e-2 -11.4935056 9.57706525e-1 107.345723 9.57706525e-1 107.345723 7.15425239e-3 -84.5984210
2320.0 2.59154963e-2 -13.3262837 9.57539022e-1 106.255357 9.57539022e-1 106.255357 7.17131636e-3 -86.3866130
2330.0 2.57999314e-2 -15.1579096 9.57371710e-1 105.165017 9.57371710e-1 105.165017 7.18864484e-3 -88.1766343
2340.0 2.56982619e-2 -16.9876960 9.57204562e-1 104.074697 9.57204562e-1 104.074697 7.20612166e-3 -89.9753527
2350.0 2.56104077e-2 -18.8132519 9.57037591e-1 102.984405 9.57037591e-1 102.984405 7.22494410e-3 -91.7858146
2360.0 2.55357922e-2 -20.6322307 9.56870785e-1 101.894130 9.56870785e-1 101.894130 7.24376290e-3 -93.6067956
2370.0 2.54739775e-2 -22.4432241 9.56704149e-1 100.803883 9.56704149e-1 100.803883 7.26311993e-3 -95.4292562
2380.0 2.54249590e-2 -24.2435667 9.56537682e-1 99.7136600 9.56537682e-1 99.7136600 7.28337163e-3 -97.2610079
2390.0 2.53878170e-2 -26.0318998 9.56371365e-1 98.6234606 9.56371365e-1 98.6234606 7.30442025e-3 -99.0986822
2400.0 2.53622011e-2 -27.8066920 0.95620520 97.5332830 0.95620520 97.5332830 7.32647250e-3 -100.946326
2410.0 2.53477589e-2 -29.5663471 9.56039220e-1 96.4431271 9.56039220e-1 96.4431271 7.34927023e-3 -102.806654
2420.0 2.53438552e-2 -31.3088107 9.55873387e-1 95.3529943 9.55873387e-1 95.3529943 7.37236047e-3 -104.666659
2430.0 2.53494734e-2 -33.0331451 9.55707689e-1 94.2628872 9.55707689e-1 94.2628872 7.39516017e-3 -106.533780
2440.0 0.02536450 -34.7381265 9.55542154e-1 93.1728026 9.55542154e-1 93.1728026 7.41901131e-3 -108.407189
2450.0 0.02538820 -36.4223954 9.55376768e-1 92.0827394 9.55376768e-1 92.0827394 7.44381136e-3 -110.290665
2460.0 2.54198127e-2 -38.0852983 9.55211515e-1 90.9926995 9.55211515e-1 90.9926995 7.46906435e-3 -112.179669
2470.0 2.54587141e-2 -39.7261544 9.55046411e-1 89.9026875 9.55046411e-1 89.9026875 7.49443482e-3 -114.073630
2480.0 2.55043579e-2 -41.3437248 9.54881438e-1 88.8126904 9.54881438e-1 88.8126904 7.52042461e-3 -115.981344
2490.0 2.55558400e-2 -42.9380771 9.54716623e-1 87.7227171 9.54716623e-1 87.7227171 7.54660310e-3 -117.897882
2500.0 2.56126378e-2 -44.5084907 9.54551935e-1 86.6327624 9.54551935e-1 86.6327624 7.57349686e-3 -119.826370
2510.0 2.56742672e-2 -46.0546467 9.54387377e-1 85.5428369 9.54387377e-1 85.5428369 7.60066048e-3 -121.758517
2520.0 2.57397753e-2 -47.5761401 9.54222973e-1 84.4529273 9.54222973e-1 84.4529273 7.62816029e-3 -123.706192
2530.0 2.58086769e-2 -49.0735498 9.54058675e-1 83.3630391 9.54058675e-1 83.3630391 7.65555570e-3 -125.664082
2540.0 2.58803534e-2 -50.5460979 9.53894493e-1 82.2731773 9.53894493e-1 82.2731773 7.68309597e-3 -127.631625
2550.0 2.59541105e-2 -51.9942628 9.53730465e-1 81.1833292 9.53730465e-1 81.1833292 7.71047475e-3 -129.612495
2560.0 2.60293750e-2 -53.4181271 9.53566567e-1 80.0935043 9.53566567e-1 80.0935043 7.73866886e-3 -131.603188
2570.0 2.61056354e-2 -54.8182622 9.53402773e-1 79.0037014 9.53402773e-1 79.0037014 7.76694541e-3 -133.604989
2580.0 2.61823587e-2 -56.1946449 9.53239124e-1 77.9139187 9.53239124e-1 77.9139187 7.79618983e-3 -135.625209
2590.0 2.62589663e-2 -57.5477985 9.53075559e-1 76.8241574 9.53075559e-1 76.8241574 7.82576484e-3 -137.650385
2600.0 2.63349548e-2 -58.8779405 9.52912151e-1 75.7344126 9.52912151e-1 75.7344126 7.85632752e-3 -139.687935
2610.0 2.64098354e-2 -60.1856553 9.52748844e-1 74.6446901 9.52748844e-1 74.6446901 7.88721946e-3 -141.737483
2620.0 2.64830336e-2 -61.4715565 9.52585652e-1 73.5549873 9.52585652e-1 73.5549873 7.91887717e-3 -143.798340
2630.0 2.65541130e-2 -62.7360991 9.52422571e-1 72.4653022 9.52422571e-1 72.4653022 7.95074331e-3 -145.868532
2640.0 2.66227821e-2 -63.9797070 9.52259624e-1 71.3756409 9.52259624e-1 71.3756409 7.98293711e-3 -147.947845
2650.0 2.66886643e-2 -65.2033511 9.52096771e-1 70.2859963 9.52096771e-1 70.2859963 8.01556474e-3 -150.035679
2660.0 2.67511405e-2 -66.4072979 9.51934034e-1 69.1963718 9.51934034e-1 69.1963718 8.04890799e-3 -152.132295
2670.0 2.68098828e-2 -67.5922409 9.51771386e-1 68.1067641 9.51771386e-1 68.1067641 8.08176971e-3 -154.239237
2680.0 2.68647090e-2 -68.7586215 9.51608866e-1 67.0171810 9.51608866e-1 67.0171810 8.11491184e-3 -156.357679
2690.0 2.69151711e-2 -69.9076180 9.51446454e-1 65.9276164 9.51446454e-1 65.9276164 8.14793823e-3 -158.485273
2700.0 2.69609574e-2 -71.0395044 9.51284135e-1 64.8380660 9.51284135e-1 64.8380660 8.18134097e-3 -160.625989
2710.0 2.70018391e-2 -72.1551676 9.51121919e-1 63.7485378 9.51121919e-1 63.7485378 8.21470252e-3 -162.777005
2720.0 2.70374377e-2 -73.2554349 0.95095980 62.6590250 0.95095980 62.6590250 8.24850838e-3 -164.942881
2730.0 2.70677950e-2 -74.3404705 9.50797810e-1 61.5695327 9.50797810e-1 61.5695327 8.28286919e-3 -167.116078
2740.0 2.70924452e-2 -75.4112666 9.50635886e-1 60.4800625 9.50635886e-1 60.4800625 8.31742452e-3 -169.299861
2750.0 2.71112850e-2 -76.4688119 9.50474092e-1 59.3906036 9.50474092e-1 59.3906036 8.35283712e-3 -171.492281
2760.0 2.71240711e-2 -77.5131693 9.50312382e-1 58.3011624 9.50312382e-1 58.3011624 8.38842652e-3 -173.696862
2770.0 2.71307159e-2 -78.5452258 9.50150776e-1 57.2117452 9.50150776e-1 57.2117452 8.42478987e-3 -175.907617
2780.0 2.71310918e-2 -79.5657109 9.49989254e-1 56.1223421 9.49989254e-1 56.1223421 8.46104797e-3 -178.126280
2790.0 2.71250639e-2 -80.5753055 9.49827840e-1 55.0329610 9.49827840e-1 55.0329610 8.49745333e-3 179.648030
2800.0 2.71123795e-2 -81.5743047 9.49666535e-1 53.9435946 9.49666535e-1 53.9435946 8.53426625e-3 177.410853
2810.0 2.70930247e-2 -82.5636655 0.94950530 52.8542432 0.94950530 52.8542432 8.57089699e-3 175.164688
2820.0 2.70670336e-2 -83.5443030 9.49344187e-1 51.7649139 9.49344187e-1 51.7649139 8.60822464e-3 172.913679
2830.0 2.70341012e-2 -84.5160860 9.49183151e-1 50.6756029 9.49183151e-1 50.6756029 8.64568181e-3 170.646819
2840.0 2.69942958e-2 -85.4800957 9.49022190e-1 49.5863021 9.49022190e-1 49.5863021 8.68354956e-3 168.373771
2850.0 2.69477031e-2 -86.4370650 9.48861330e-1 48.4970251 9.48861330e-1 48.4970251 8.72184693e-3 166.089898
2860.0 2.68941712e-2 -87.3874629 9.48700597e-1 47.4077659 9.48700597e-1 47.4077659 8.76093314e-3 163.797123
2870.0 2.68337040e-2 -88.3316438 9.48539918e-1 46.3185180 9.48539918e-1 46.3185180 8.79995658e-3 161.499652
2880.0 2.67663537e-2 -89.2707913 9.48379355e-1 45.2292892 9.48379355e-1 45.2292892 8.83970246e-3 159.197102
2890.0 2.66922274e-2 -90.2047805 9.48218879e-1 44.1400794 9.48218879e-1 44.1400794 8.87901827e-3 156.886520
2900.0 2.66112676e-2 -91.1347227 9.48058456e-1 43.0508862 9.48058456e-1 43.0508862 8.91929151e-3 154.572132
2910.0 2.65233235e-2 -92.0612234 9.47898174e-1 41.9617107 9.47898174e-1 41.9617107 8.96025215e-3 152.245958
2920.0 2.64286791e-2 -92.9845327 9.47737977e-1 40.8725479 9.47737977e-1 40.8725479 9.00189419e-3 149.916535
2930.0 2.63273894e-2 -93.9052293 9.47577868e-1 39.7834006 9.47577868e-1 39.7834006 9.04412646e-3 147.581071
2940.0 2.62194197e-2 -94.8243702 9.47417866e-1 38.6942754 9.47417866e-1 38.6942754 9.08718893e-3 145.241861
2950.0 2.61049072e-2 -95.7421719 9.47257921e-1 37.6051626 9.47257921e-1 37.6051626 9.13091872e-3 142.894612
2960.0 2.59838919e-2 -96.6592597 9.47098098e-1 36.5160653 9.47098098e-1 36.5160653 9.17587835e-3 140.543486
2970.0 2.58566450e-2 -97.5762119 9.46938345e-1 35.4269867 9.46938345e-1 35.4269867 9.22158677e-3 138.189882
2980.0 2.57231723e-2 -98.4937670 0.94677870 34.3379228 0.94677870 34.3379228 9.26834880e-3 135.834606
2990.0 2.55834508e-2 -99.4123530 9.46619178e-1 33.2488780 9.46619178e-1 33.2488780 9.31582460e-3 133.477752
3000.0 2.54379439e-2 -100.332368 9.46459716e-1 32.1598465 9.46459716e-1 32.1598465 9.36353133e-3 131.121232
3010.0 2.52866199e-2 -101.254885 9.46300368e-1 31.0708329 9.46300368e-1 31.0708329 9.41253788e-3 128.761254
3020.0 2.51296068e-2 -102.179854 0.94614110 29.9818332 0.94614110 29.9818332 9.46255874e-3 126.396826
3030.0 2.49670822e-2 -103.107998 9.45981950e-1 28.8928484 9.45981950e-1 28.8928484 9.51239831e-3 124.028939
3040.0 2.47991588e-2 -104.040377 9.45822868e-1 27.8038829 9.45822868e-1 27.8038829 9.56355940e-3 121.658448
3050.0 2.46261877e-2 -104.977301 0.94566390 26.7149301 0.94566390 26.7149301 9.61517934e-3 119.287572
3060.0 2.44481674e-2 -105.918960 9.45505035e-1 25.6259948 9.45505035e-1 25.6259948 9.66819936e-3 116.911411
3070.0 2.42652452e-2 -106.866587 9.45346255e-1 24.5370745 9.45346255e-1 24.5370745 9.72281465e-3 114.532874
3080.0 2.40776903e-2 -107.820421 9.45187598e-1 23.4481648 9.45187598e-1 23.4481648 9.77840875e-3 112.154286
3090.0 2.38858157e-2 -108.780979 0.94502900 22.3592754 0.94502900 22.3592754 9.83524560e-3 109.770527
3100.0 2.36896559e-2 -109.749263 9.44870544e-1 21.2703996 9.44870544e-1 21.2703996 9.89305964e-3 107.391331
3110.0 2.34895943e-2 -110.725813 9.44712172e-1 20.1815416 9.44712172e-1 20.1815416 9.95174861e-3 105.015164
3120.0 2.32857610e-2 -111.711085 9.44553933e-1 19.0926953 9.44553933e-1 19.0926953 1.00113892e-2 102.639359
3130.0 2.30784926e-2 -112.705838 9.44395761e-1 18.0038665 9.44395761e-1 18.0038665 1.00718861e-2 100.264660
3140.0 2.28678782e-2 -113.710350 9.44237692e-1 16.9150518 9.44237692e-1 16.9150518 1.01335394e-2 97.8895735
3150.0 2.26542829e-2 -114.725773 9.44079760e-1 15.8262522 9.44079760e-1 15.8262522 1.01960498e-2 95.5147125
3160.0 2.24379024e-2 -115.752429 9.43921894e-1 14.7374662 9.43921894e-1 14.7374662 1.02593579e-2 93.1416638
3170.0 2.22190155e-2 -116.790970 9.43764171e-1 13.6486966 9.43764171e-1 13.6486966 1.03235263e-2 90.7684074
3180.0 2.19978575e-2 -117.841897 9.43606537e-1 12.5599413 9.43606537e-1 12.5599413 1.03889880e-2 88.3965390
3190.0 2.17746798e-2 -118.906195 9.43449021e-1 11.4712023 9.43449021e-1 11.4712023 1.04558491e-2 86.0235395
3200.0 2.15497518e-2 -119.984388 9.43291624e-1 10.3824702 9.43291624e-1 10.3824702 1.05240670e-2 83.6508405
3210.0 2.13233129e-2 -121.077250 9.43134310e-1 9.29375717 9.43134310e-1 9.29375717 1.05934907e-2 81.2809324
3220.0 2.10957749e-2 -122.185077 9.42977155e-1 8.20506099 9.42977155e-1 8.20506099 1.06641410e-2 78.9144843
3230.0 2.08673687e-2 -123.308889 9.42820079e-1 7.11637549 9.42820079e-1 7.11637549 1.07362367e-2 76.5494984
3240.0 2.06383629e-2 -124.449108 9.42663152e-1 6.02770322 9.42663152e-1 6.02770322 1.08091206e-2 74.1877323
3250.0 2.04091337e-2 -125.606362 9.42506314e-1 4.93904520 9.42506314e-1 4.93904520 1.08833153e-2 71.8271334
3260.0 2.01799898e-2 -126.781497 9.42349588e-1 3.85040234 9.42349588e-1 3.85040234 1.09586208e-2 69.4719764
3270.0 1.99511507e-2 -127.975147 9.42193017e-1 2.76177214 9.42193017e-1 2.76177214 1.10347394e-2 67.1193178
3280.0 1.97230532e-2 -129.187573 9.42036536e-1 1.67315396 9.42036536e-1 1.67315396 1.11117816e-2 64.7682578
3290.0 1.94960606e-2 -130.419450 9.41880146e-1 5.84550979e-1 9.41880146e-1 5.84550979e-1 1.11898625e-2 62.4197874
3300.0 1.92703293e-2 -131.671064 9.41723920e-1 -5.04038552e-1 9.41723920e-1 -5.04038552e-1 1.12691440e-2 60.0749666
3310.0 1.90463168e-2 -132.943672 9.41567787e-1 -1.59261497 9.41567787e-1 -1.59261497 1.13493593e-2 57.7339590
3320.0 1.88244286e-2 -134.237026 9.41411784e-1 -2.68117659 9.41411784e-1 -2.68117659 1.14302209e-2 55.3969585
3330.0 1.86049165e-2 -135.552288 9.41255847e-1 -3.76972235 9.41255847e-1 -3.76972235 1.15120748e-2 53.0631569
3340.0 1.83882648e-2 -136.889370 9.41100123e-1 -4.85825518 9.41100123e-1 -4.85825518 1.15948063e-2 50.7345099
3350.0 1.81746513e-2 -138.248771 9.40944489e-1 -5.94677671 9.40944489e-1 -5.94677671 1.16784974e-2 48.4090968
3360.0 1.79645560e-2 -139.631413 9.40788940e-1 -7.03527867 9.40788940e-1 -7.03527867 1.17624988e-2 46.0887924
3370.0 1.77582367e-2 -141.036826 9.40633577e-1 -8.12377055 9.40633577e-1 -8.12377055 1.18472656e-2 43.7734851
3380.0 1.75561634e-2 -142.465110 9.40478295e-1 -9.21224435 9.40478295e-1 -9.21224435 1.19330152e-2 41.4633653
3390.0 1.73586910e-2 -143.917518 9.40323175e-1 -10.3006994 9.40323175e-1 -10.3006994 1.20192796e-2 39.1577102
3400.0 1.71659511e-2 -145.393144 9.40168164e-1 -11.3891503 9.40168164e-1 -11.3891503 1.21062869e-2 36.8570665
3410.0 1.69784271e-2 -146.891893 9.40013271e-1 -12.4775777 9.40013271e-1 -12.4775777 1.21940312e-2 34.5613108
3420.0 1.67965395e-2 -148.414201 9.39858540e-1 -13.5659925 9.39858540e-1 -13.5659925 1.22824220e-2 32.2718580
3430.0 1.66203739e-2 -149.959402 9.39703948e-1 -14.6543909 9.39703948e-1 -14.6543909 1.23714711e-2 29.9881259
3440.0 1.64504385e-2 -151.527430 9.39549463e-1 -15.7427751 9.39549463e-1 -15.7427751 1.24610930e-2 27.7091615
3450.0 1.62870079e-2 -153.117536 9.39395151e-1 -16.8311450 9.39395151e-1 -16.8311450 1.25515699e-2 25.4374897
3460.0 1.61303963e-2 -154.729400 9.39240971e-1 -17.9195002 9.39240971e-1 -17.9195002 1.26424639e-2 23.1727242
3470.0 1.59806352e-2 -156.362188 9.39086918e-1 -19.0078368 9.39086918e-1 -19.0078368 1.27338764e-2 20.9147312
3480.0 1.58382674e-2 -158.014879 9.38932989e-1 -20.0961617 9.38932989e-1 -20.0961617 1.28257767e-2 18.6623376
3490.0 1.57035175e-2 -159.686929 9.38779279e-1 -21.1844692 9.38779279e-1 -21.1844692 1.29182087e-2 16.4167565
3500.0 1.55764948e-2 -161.376919 0.93862570 -22.2727606 0.93862570 -22.2727606 1.30110992e-2 14.1786166
3510.0 1.54575186e-2 -163.083678 9.38472286e-1 -23.3610386 9.38472286e-1 -23.3610386 1.31043050e-2 11.9463737
3520.0 1.53468032e-2 -164.806306 9.38318958e-1 -24.4493010 9.38318958e-1 -24.4493010 1.31978950e-2 9.72012742
3530.0 1.52444211e-2 -166.542239 9.38165846e-1 -25.5375437 9.38165846e-1 -25.5375437 1.32919446e-2 7.50129602
3540.0 1.51505966e-2 -168.290479 9.38012895e-1 -26.6257772 9.38012895e-1 -26.6257772 1.33865602e-2 5.28926928
3550.0 1.50654745e-2 -170.049375 9.37860091e-1 -27.7139917 9.37860091e-1 -27.7139917 1.34815310e-2 3.08512395
3560.0 1.49889146e-2 -171.816677 9.37707438e-1 -28.8021933 9.37707438e-1 -28.8021933 1.35769224e-2 8.89060087e-1
3570.0 1.49212388e-2 -173.590760 9.37554952e-1 -29.8903827 9.37554952e-1 -29.8903827 1.36725099e-2 -1.30033620
3580.0 1.48623207e-2 -175.369749 9.37402684e-1 -30.9785547 9.37402684e-1 -30.9785547 1.37684627e-2 -3.48166618
3590.0 1.48124207e-2 -177.151507 9.37250555e-1 -32.0667088 9.37250555e-1 -32.0667088 1.38648767e-2 -5.65550644
3600.0 1.47712390e-2 -178.934304 9.37098573e-1 -33.1548522 9.37098573e-1 -33.1548522 1.39613912e-2 -7.82256238
3610.0 1.47387594e-2 179.284432 9.36946860e-1 -34.2429785 9.36946860e-1 -34.2429785 1.40579926e-2 -9.98198627
3620.0 1.47150772e-2 177.506458 9.36795245e-1 -35.3310896 9.36795245e-1 -35.3310896 1.41548465e-2 -12.1335276
3630.0 1.46999677e-2 175.733595 9.36643834e-1 -36.4191840 9.36643834e-1 -36.4191840 1.42519606e-2 -14.2780285
3640.0 1.46932158e-2 173.968528 9.36492582e-1 -37.5072679 9.36492582e-1 -37.5072679 1.43491480e-2 -16.4149460
3650.0 1.46950200e-2 172.212468 9.36341584e-1 -38.5953331 9.36341584e-1 -38.5953331 1.44466481e-2 -18.5446222
3660.0 1.47047770e-2 170.467997 9.36190694e-1 -39.6833862 9.36190694e-1 -39.6833862 1.45442389e-2 -20.6656080
3670.0 1.47225187e-2 168.736232 0.93604000 -40.7714243 0.93604000 -40.7714243 1.46419375e-2 -22.7795501
3680.0 0.01474800 167.019183 9.35889519e-1 -41.8594470 9.35889519e-1 -41.8594470 1.47397586e-2 -24.8864146
3690.0 1.47809817e-2 165.318481 9.35739236e-1 -42.9474532 9.35739236e-1 -42.9474532 1.48376283e-2 -26.9850999
3700.0 1.48209608e-2 163.635942 9.35589241e-1 -44.0354516 9.35589241e-1 -44.0354516 1.49354627e-2 -29.0758735
3710.0 1.48681278e-2 161.972090 9.35439282e-1 -45.1234285 9.35439282e-1 -45.1234285 1.50333290e-2 -31.1591613
3720.0 1.49217779e-2 160.328823 9.35289623e-1 -46.2113967 9.35289623e-1 -46.2113967 1.51310944e-2 -33.2345948
3730.0 1.49818106e-2 158.707103 9.35140180e-1 -47.2993481 9.35140180e-1 -47.2993481 1.52288729e-2 -35.3020685
3740.0 1.50478235e-2 157.107621 9.34990898e-1 -48.3872870 9.34990898e-1 -48.3872870 1.53266772e-2 -37.3618820
3750.0 1.51196455e-2 155.531629 9.34841871e-1 -49.4752077 9.34841871e-1 -49.4752077 1.54242584e-2 -39.4140459
3760.0 1.51967676e-2 153.979279 9.34693032e-1 -50.5631161 9.34693032e-1 -50.5631161 1.55220609e-2 -41.4592699
3770.0 1.52790262e-2 152.451542 9.34544430e-1 -51.6510110 9.34544430e-1 -51.6510110 1.56196233e-2 -43.4961764
3780.0 1.53659649e-2 150.949258 9.34396020e-1 -52.7388950 9.34396020e-1 -52.7388950 1.57171538e-2 -45.5250172
3790.0 1.54574489e-2 149.472152 9.34247863e-1 -53.8267618 9.34247863e-1 -53.8267618 1.58146467e-2 -47.5455779
3800.0 1.55529123e-2 148.020719 9.34099892e-1 -54.9146182 9.34099892e-1 -54.9146182 1.59118993e-2 -49.5588778
3810.0 1.56522212e-2 146.594964 9.33952167e-1 -56.0024589 9.33952167e-1 -56.0024589 1.60091747e-2 -51.5646512
3820.0 1.57549021e-2 145.195117 9.33804633e-1 -57.0902845 9.33804633e-1 -57.0902845 1.61061557e-2 -53.5620658
3830.0 1.58607855e-2 143.820787 9.33657362e-1 -58.1781029 9.33657362e-1 -58.1781029 1.62034172e-2 -55.5521479
