!Keysight Technologies,N5245A,MY49151104,A.10.60.03
!Date: Tuesday, August 13, 2019 10:40:25
!Correction: S11(Full 2 Port(1,2)) 
!S21(Full 2 Port(1,2)) 
!S12(Full 2 Port(1,2)) 
!S22(Full 2 Port(1,2)) 
!S2P File: Measurements: S11, S21, S12, S22:
# Hz S  dB   R 50
10000000 -26.694107 35.346577 -0.2528846 -2.3467731 -0.094056197 -2.442821 -30.441746 30.027103
110000000 -35.984863 28.045168 -0.051786467 -21.005177 -0.05237326 -20.960064 -37.086891 49.296993
210000000 -33.324162 33.861984 -0.07799904 -39.3414 -0.13277873 -39.461124 -31.908581 10.894311
310000000 -32.151585 5.1763129 -0.15311804 -57.877487 -0.15303056 -57.725582 -31.936695 -8.1645527
410000000 -30.830776 -18.66486 -0.20886426 -76.125717 -0.18698317 -76.178879 -31.663061 -36.043064
510000000 -32.525845 -30.345749 -0.23377489 -94.437225 -0.2275762 -94.353477 -30.497828 -46.955769
610000000 -33.680477 -36.289055 -0.26131323 -112.74316 -0.28087217 -112.77533 -29.55842 -67.064659
710000000 -34.334042 -49.676975 -0.29501408 -130.92023 -0.30285153 -131.11255 -31.111965 -89.786583
810000000 -36.266666 -65.01989 -0.34407374 -149.37102 -0.35579878 -149.347 -32.40728 -116.18577
910000000 -38.603691 -44.883331 -0.36303174 -167.45319 -0.35852852 -167.53856 -33.80687 -134.52661
1010000000 -38.831768 -36.60355 -0.40153888 174.20879 -0.40437734 174.28345 -36.357296 -164.21764
1110000000 -36.119797 -17.044159 -0.44024146 156.09726 -0.4394328 156.04251 -36.938736 144.61829
1210000000 -35.951019 -2.6556671 -0.45545429 137.91568 -0.46272266 137.84193 -37.12944 86.012993
1310000000 -33.829678 -19.397848 -0.47248337 119.665 -0.46905848 119.60264 -37.310677 55.800892
1410000000 -31.825438 -29.970905 -0.52751762 101.53896 -0.50095075 101.4435 -34.611202 29.304941
1510000000 -33.183861 -41.707558 -0.49921739 83.070663 -0.53808928 83.315697 -34.049118 1.1618023
1610000000 -30.975317 -53.950493 -0.54725873 65.161072 -0.57520759 65.183029 -32.450825 -20.983139
1710000000 -30.633131 -71.153885 -0.59474599 46.948746 -0.56813675 47.00375 -32.355312 -45.226547
1810000000 -30.033876 -77.54377 -0.59269536 28.833374 -0.606543 28.66305 -31.465302 -67.82029
1910000000 -33.420361 -101.5078 -0.60141808 10.737328 -0.64072329 10.656243 -32.16267 -96.138397
2010000000 -36.047283 -88.74958 -0.6078527 -7.5271044 -0.64071488 -7.4260688 -35.189331 -119.86928
2110000000 -36.304951 -96.585083 -0.65075636 -25.543287 -0.6822899 -25.595978 -36.361397 -150.30011
2210000000 -44.39999 -76.080956 -0.65077335 -43.83939 -0.69441813 -43.702423 -39.540737 166.10219
2310000000 -37.628269 -41.385944 -0.70841897 -61.803802 -0.6973722 -61.801376 -36.312138 96.924294
2410000000 -35.316502 -48.395435 -0.75623572 -79.98938 -0.74134088 -80.044342 -34.150642 48.721191
2510000000 -31.218204 -41.268036 -0.75810343 -98.04998 -0.74833202 -98.036034 -32.472076 16.025585
2610000000 -28.519415 -56.662388 -0.78358155 -116.2834 -0.79536986 -116.23093 -29.617607 2.2097752
2710000000 -27.532824 -73.009605 -0.77792257 -134.58228 -0.79813141 -134.48293 -28.441565 -25.984114
2810000000 -26.963749 -88.715637 -0.79695016 -152.71147 -0.81990963 -152.5761 -27.152235 -44.545681
2910000000 -26.208607 -102.91256 -0.83059096 -170.68863 -0.81402451 -170.63316 -26.173811 -70.420883
3010000000 -26.492268 -117.4528 -0.86038381 171.17552 -0.86376995 171.394 -26.189623 -90.927711
3110000000 -26.897999 -134.71858 -0.88424879 152.92535 -0.87967223 153.1082 -26.719927 -108.91418
3210000000 -28.297718 -147.27097 -0.9085024 135.07925 -0.88875175 134.99878 -28.836103 -127.97429
3310000000 -30.618427 -168.23166 -0.91499227 117.04147 -0.92070901 116.78033 -30.060627 -149.39499
3410000000 -33.640854 -169.34244 -0.91475952 98.641602 -0.90772611 98.728279 -34.46648 -176.39183
3510000000 -37.272663 -173.8465 -0.93245649 80.554283 -0.92775267 80.579109 -38.110622 132.78838
3610000000 -39.649479 -123.33304 -0.95499891 62.539158 -0.95301884 62.421257 -40.985043 44.738281
3710000000 -33.024769 -97.238991 -0.96311468 44.200367 -0.98460668 44.265064 -34.020107 -9.3890266
3810000000 -30.456209 -102.76797 -0.99351519 26.1245 -0.98859531 26.163872 -30.207197 -32.341927
3910000000 -27.774115 -114.82907 -1.0060167 7.9961505 -1.017712 7.8995638 -28.527025 -54.137417
4010000000 -26.240688 -129.35979 -1.0269704 -10.328786 -1.0344454 -10.105482 -26.749372 -75.60434
4110000000 -25.621126 -140.65849 -1.0217608 -28.182316 -1.0261637 -28.299088 -25.62595 -95.776833
4210000000 -25.79352 -158.81197 -1.0617814 -46.269508 -1.0580425 -46.43845 -26.200106 -115.32773
4310000000 -26.036364 -176.01167 -1.0759687 -64.506569 -1.082621 -64.513596 -27.158962 -137.08124
4410000000 -27.650227 168.31754 -1.0944415 -82.704628 -1.0812395 -82.586441 -27.953163 -157.67258
4510000000 -30.685431 155.20869 -1.1155139 -100.68335 -1.0806928 -100.81776 -31.30895 -176.9334
4610000000 -34.367401 144.2869 -1.0962431 -118.923 -1.098477 -118.9713 -36.541672 145.60468
4710000000 -40.389389 166.66324 -1.1320044 -137.13188 -1.1201161 -137.03035 -43.77663 68.640617
4810000000 -38.358047 -126.28992 -1.1267149 -155.386 -1.1337165 -155.24185 -36.552876 -16.881804
4910000000 -31.564569 -125.11906 -1.1530631 -173.4088 -1.1426308 -173.34399 -30.944347 -48.383968
5010000000 -28.749344 -134.27412 -1.1623663 168.3425 -1.1487323 168.27058 -28.108353 -70.800407
5110000000 -26.151642 -149.35963 -1.1959562 150.2314 -1.1693192 150.3364 -26.155712 -86.489433
5210000000 -25.333 -165.17377 -1.2048949 132.24246 -1.202485 132.1019 -24.997589 -107.49039
5310000000 -24.793621 178.08696 -1.1994067 114.11391 -1.2177777 113.99017 -24.757315 -125.49705
5410000000 -25.588205 163.84467 -1.2334431 95.876976 -1.2139711 95.955276 -25.412718 -147.3914
5510000000 -26.300276 144.57361 -1.2227973 77.826363 -1.2368215 77.780052 -26.597576 -160.56786
5610000000 -27.64477 132.41066 -1.2319374 59.580982 -1.2224244 59.518208 -28.338993 178.33307
5710000000 -31.376583 118.97106 -1.252281 41.470055 -1.2390311 41.44659 -33.018902 162.47853
5810000000 -35.679737 110.40627 -1.2422383 23.29838 -1.2614634 23.332167 -41.767246 121.48595
5910000000 -40.452271 167.18376 -1.2541751 5.2938871 -1.2462537 5.0750189 -40.361061 -35.704884
6010000000 -33.28474 -165.74506 -1.2726089 -12.963479 -1.2958696 -12.927621 -31.475586 -71.676262
6110000000 -29.509529 -170.10489 -1.2999498 -31.283613 -1.301366 -31.231352 -28.315594 -83.003159
6210000000 -26.974108 -177.53052 -1.2858634 -49.45697 -1.3013048 -49.563526 -26.274683 -105.35622
6310000000 -25.179163 166.51091 -1.3351281 -67.406868 -1.3142037 -67.629745 -25.391426 -118.69617
6410000000 -24.629452 150.73232 -1.3410281 -85.714966 -1.3396102 -85.87043 -24.426996 -140.49353
6510000000 -25.106913 137.16682 -1.3374375 -103.87727 -1.3260947 -104.07345 -24.802679 -155.81584
6610000000 -25.675079 120.70668 -1.3703084 -122.04516 -1.3466343 -122.17535 -25.698719 -176.6088
6710000000 -26.957809 104.47853 -1.3811139 -140.25584 -1.3570706 -140.27466 -27.943398 168.62622
6810000000 -29.724245 89.712883 -1.3598655 -158.54907 -1.3708975 -158.46707 -30.454277 142.82516
6910000000 -33.531612 87.615173 -1.3635775 -176.58052 -1.3785845 -176.73434 -36.938141 140.66656
7010000000 -40.461811 95.149323 -1.3784239 165.15396 -1.3842645 164.90613 -45.849106 -87.901657
7110000000 -35.951286 164.25313 -1.377646 146.87227 -1.4032315 146.86208 -32.929028 -83.582726
7210000000 -31.1332 166.28485 -1.4038092 128.52701 -1.418805 128.51564 -28.071026 -101.71568
7310000000 -27.187763 156.75031 -1.4201046 110.3693 -1.4378483 110.39135 -26.046911 -121.23612
7410000000 -25.357738 143.88849 -1.4334313 92.134811 -1.4364996 92.097649 -24.12385 -141.57433
7510000000 -24.519684 130.7493 -1.4659601 73.867622 -1.4502381 73.771576 -23.844751 -159.22998
7610000000 -24.077192 116.59301 -1.4677531 55.765587 -1.4933727 55.686264 -23.48859 -178.72484
7710000000 -24.445505 101.29399 -1.476831 37.498753 -1.4721941 37.463749 -24.050631 159.61134
7810000000 -24.468176 88.371056 -1.4954326 19.15847 -1.4937693 19.323471 -25.381868 140.21088
7910000000 -25.449022 79.988426 -1.4929007 0.92104751 -1.5099845 1.1222247 -27.252609 115.41286
8010000000 -26.670361 72.823303 -1.5056384 -17.135942 -1.4807986 -17.19145 -29.920912 81.374908
8110000000 -27.519295 69.175995 -1.5111898 -35.505474 -1.5133902 -35.475254 -31.18907 36.034164
8210000000 -28.618179 68.137657 -1.5247803 -53.670536 -1.5121363 -53.829929 -31.142387 -16.61091
8310000000 -27.733124 64.59343 -1.5194696 -71.908974 -1.5398608 -72.044579 -28.552448 -52.78159
8410000000 -27.34239 63.941227 -1.5603364 -90.168236 -1.5468194 -90.223671 -26.685287 -82.086266
8510000000 -26.072239 56.229172 -1.5761598 -108.48147 -1.5784589 -108.47646 -25.110085 -104.15115
8610000000 -26.38332 41.967609 -1.5804795 -126.84243 -1.5599929 -126.66891 -24.75724 -121.47795
8710000000 -25.909761 30.689226 -1.5627114 -145.0889 -1.5820549 -145.00436 -24.495474 -141.38887
8810000000 -27.045712 16.273039 -1.5716121 -163.38452 -1.6029782 -163.3598 -24.817827 -156.65338
8910000000 -27.885216 -2.7410848 -1.6193885 178.49004 -1.600806 178.37659 -26.032232 -167.73148
9010000000 -30.30928 -13.559407 -1.5770696 160.04877 -1.6103781 160.11983 -28.635263 -179.50581
9110000000 -33.140213 -19.892267 -1.6094409 141.58327 -1.6008413 141.73885 -32.88324 175.64766
9210000000 -39.379864 -12.179638 -1.6350836 123.30397 -1.6169367 123.52385 -36.088989 -170.703
9310000000 -37.408554 36.888557 -1.6291101 105.12644 -1.6626736 104.99419 -36.595509 -100.34569
9410000000 -33.337929 39.535187 -1.6642939 86.640884 -1.655471 86.608101 -30.12225 -93.01873
9510000000 -28.292776 26.792902 -1.6680613 68.346451 -1.6864805 68.325676 -26.729391 -107.31044
9610000000 -26.769007 7.3139372 -1.7066675 49.993496 -1.6841267 49.898346 -24.08766 -115.40049
9710000000 -24.820969 -11.653424 -1.7021803 31.79229 -1.6858226 31.719355 -23.231565 -124.33318
9810000000 -23.444321 -29.705744 -1.7379217 13.402546 -1.693992 13.16759 -21.984646 -134.8846
9910000000 -22.746164 -54.383007 -1.7204318 -5.2357402 -1.7468113 -4.906611 -20.965199 -145.23384
