!Agilent Technologies,E8358A,US40260214,A.04.86
!Agilent E8358A: A.04.86
!Date: Wednesday, July 24, 2019 08:31:58
!Correction: S11(Full 2 Port SOLT,1,2) S21(Full 2 Port SOLT,1,2) S12(Full 2 Port SOLT,1,2) S22(Full 2 Port SOLT,1,2) 
!S2P File: Measurements: S11, S21, S12, S22:
# Hz S  dB   R 50
1000000000 -2.882087e+001 4.875703e+001 -6.652573e-001 -1.514709e-001 -6.244202e-001 -3.710061e-001 -2.863161e+001 1.050939e+002
1025000000 -2.856521e+001 1.200048e+001 -7.145213e-001 -5.415065e+001 -6.363810e-001 -5.418479e+001 -3.133650e+001 4.498119e+001
1050000000 -3.997865e+001 6.866900e-001 -7.350971e-001 -1.081916e+002 -6.523823e-001 -1.080243e+002 -4.604889e+001 -1.123052e+002
1075000000 -3.107779e+001 6.186253e+001 -7.075125e-001 -1.620473e+002 -6.461968e-001 -1.619364e+002 -2.994029e+001 1.295733e+002
1100000000 -2.740546e+001 2.094068e+001 -6.792815e-001 1.438584e+002 -6.500667e-001 1.440954e+002 -2.863338e+001 7.082243e+001
1125000000 -3.233591e+001 -2.375286e+001 -6.947355e-001 8.981096e+001 -6.638643e-001 9.017538e+001 -3.733883e+001 7.790679e+000
1150000000 -3.722659e+001 6.263510e+001 -7.037069e-001 3.585834e+001 -6.906309e-001 3.618327e+001 -3.563876e+001 1.466904e+002
1175000000 -2.782492e+001 3.721890e+001 -6.937112e-001 -1.794080e+001 -7.195623e-001 -1.761631e+001 -2.849851e+001 8.852593e+001
1200000000 -2.907323e+001 -8.381850e+000 -6.613706e-001 -7.180056e+001 -6.961516e-001 -7.180956e+001 -3.072547e+001 2.614850e+001
1225000000 -3.847500e+001 -1.293235e+001 -6.602598e-001 -1.257785e+002 -7.184677e-001 -1.257523e+002 -4.540612e+001 -1.612316e+002
1250000000 -3.025165e+001 4.553094e+001 -6.929099e-001 -1.797549e+002 -7.461894e-001 -1.798395e+002 -2.986621e+001 1.099405e+002
1275000000 -2.745864e+001 -9.152712e-001 -7.120712e-001 1.266040e+002 -7.737690e-001 1.263481e+002 -2.908129e+001 5.449797e+001
1300000000 -3.179647e+001 -3.489000e+001 -7.006314e-001 7.285610e+001 -7.510251e-001 7.229496e+001 -3.593489e+001 -5.230953e+000
1325000000 -3.608413e+001 4.749779e+001 -6.984123e-001 1.876077e+001 -7.366638e-001 1.817410e+001 -3.441862e+001 1.317625e+002
1350000000 -2.791335e+001 9.656809e+000 -7.298703e-001 -3.535932e+001 -7.596268e-001 -3.578071e+001 -2.930457e+001 7.208732e+001
1375000000 -2.929152e+001 -2.839761e+001 -7.719037e-001 -8.935680e+001 -7.519245e-001 -8.961178e+001 -3.300817e+001 2.397767e+001
1400000000 -4.463615e+001 -1.856397e+001 -7.713919e-001 -1.431657e+002 -7.467647e-001 -1.434372e+002 -4.418406e+001 1.241711e+002
1425000000 -2.927443e+001 2.771153e+001 -7.725472e-001 1.628517e+002 -7.247651e-001 1.625284e+002 -2.981412e+001 9.642923e+001
1450000000 -2.716618e+001 -1.882586e+001 -7.711307e-001 1.088003e+002 -7.123650e-001 1.086048e+002 -2.901259e+001 3.865414e+001
1475000000 -3.391913e+001 -6.577902e+001 -8.045173e-001 5.476701e+001 -7.449989e-001 5.463831e+001 -3.950949e+001 2.184398e+001
1500000000 -3.507232e+001 4.210686e+001 -6.957594e-001 8.113695e-001 -6.920167e-001 7.985767e-001 -3.386146e+001 9.920961e+001
1525000000 -2.805282e+001 -3.160913e+000 -7.072413e-001 -5.308499e+001 -7.020780e-001 -5.330735e+001 -2.936152e+001 5.559383e+001
1550000000 -2.994848e+001 -6.122332e+001 -8.724415e-001 -1.069538e+002 -9.720549e-001 -1.061583e+002 -3.053273e+001 8.090526e+000
1575000000 -4.376536e+001 4.498187e+001 -7.948610e-001 -1.614852e+002 -1.029462e+000 -1.610610e+002 -3.593427e+001 1.107938e+002
1600000000 -2.978946e+001 7.507664e+000 -8.630438e-001 1.441582e+002 -1.117073e+000 1.454536e+002 -3.202134e+001 6.278753e+001
1625000000 -2.761039e+001 -3.942287e+001 -9.389865e-001 9.105211e+001 -1.107373e+000 9.176674e+001 -2.978220e+001 4.355123e+001
1650000000 -3.528667e+001 -9.408398e+001 -8.435570e-001 3.797067e+001 -1.009557e+000 3.718404e+001 -4.180725e+001 1.675599e+001
1675000000 -3.323549e+001 3.124707e+001 -8.100171e-001 -1.609772e+001 -1.029298e+000 -1.737943e+001 -3.055371e+001 8.131141e+001
1700000000 -2.747847e+001 -2.008759e+001 -9.039012e-001 -7.070815e+001 -1.124688e+000 -7.173875e+001 -2.993021e+001 3.589626e+001
1725000000 -3.017144e+001 -6.158149e+001 -1.032789e+000 -1.241603e+002 -1.089145e+000 -1.253825e+002 -3.157041e+001 1.705097e+001
1750000000 -4.868554e+001 -3.977905e-001 -1.084669e+000 -1.774143e+002 -9.848735e-001 -1.791964e+002 -4.005941e+001 1.014160e+002
1775000000 -2.862113e+001 -1.107788e+001 -1.010261e+000 1.286246e+002 -9.156508e-001 1.262962e+002 -2.823787e+001 5.119818e+001
1800000000 -2.932376e+001 -6.520222e+001 -1.025025e+000 7.387538e+001 -9.494966e-001 7.212650e+001 -3.193156e+001 2.084062e+001
1825000000 -4.482179e+001 -9.594795e+001 -1.165596e+000 1.925966e+001 -9.941217e-001 1.876804e+001 -3.904686e+001 3.532346e+001
1850000000 -3.006075e+001 -7.194042e-001 -1.227687e+000 -3.425880e+001 -9.093693e-001 -3.440448e+001 -3.167733e+001 8.064524e+001
1875000000 -2.757886e+001 -4.576333e+001 -1.145393e+000 -8.812780e+001 -8.437851e-001 -8.843450e+001 -2.808095e+001 3.392166e+001
1900000000 -3.113621e+001 -1.088892e+002 -9.796158e-001 -1.424083e+002 -9.689435e-001 -1.414662e+002 -3.384483e+001 1.498713e+000
1925000000 -3.683477e+001 3.927300e+001 -8.882586e-001 1.630803e+002 -1.013464e+000 1.639650e+002 -3.234845e+001 7.042760e+001
1950000000 -2.798224e+001 -3.088640e+001 -9.613670e-001 1.084774e+002 -1.167856e+000 1.103630e+002 -2.953901e+001 4.591362e+001
1975000000 -2.745689e+001 -8.417841e+001 -1.020318e+000 5.535253e+001 -1.148168e+000 5.673564e+001 -2.926503e+001 2.298711e+001
2000000000 -3.862125e+001 -1.403336e+002 -9.400977e-001 2.076235e+000 -1.095793e+000 2.258186e+000 -3.740583e+001 2.352129e+001
2025000000 -3.149658e+001 -1.909208e+000 -8.543242e-001 -5.191776e+001 -1.145421e+000 -5.246058e+001 -3.017762e+001 4.990126e+001
2050000000 -2.742150e+001 -7.100017e+001 -9.327502e-001 -1.063520e+002 -1.203730e+000 -1.067037e+002 -3.036895e+001 2.889326e+001
2075000000 -3.575550e+001 -1.149915e+002 -1.046470e+000 -1.597346e+002 -1.210495e+000 -1.604451e+002 -3.213047e+001 2.006264e+001
2100000000 -3.988223e+001 6.908329e+000 -1.079210e+000 1.471600e+002 -1.072134e+000 1.454584e+002 -3.360694e+001 6.542379e+001
2125000000 -2.691803e+001 -5.258729e+001 -1.019497e+000 9.338297e+001 -1.040729e+000 9.103835e+001 -2.763838e+001 3.664850e+001
2150000000 -2.982113e+001 -1.214467e+002 -1.017726e+000 3.883889e+001 -1.048463e+000 3.665198e+001 -3.140544e+001 1.924236e+001
2175000000 -5.232124e+001 -1.258538e+002 -1.192358e+000 -1.556238e+001 -1.075661e+000 -1.658626e+001 -3.452579e+001 2.776091e+001
2200000000 -2.938054e+001 -3.912244e+001 -1.262621e+000 -6.906630e+001 -9.956816e-001 -6.992049e+001 -3.121284e+001 5.476828e+001
2225000000 -2.785481e+001 -1.020424e+002 -1.166471e+000 -1.229546e+002 -8.936658e-001 -1.240174e+002 -2.863225e+001 2.417264e+001
2250000000 -3.538168e+001 -1.790852e+002 -1.151299e+000 -1.775305e+002 -9.078185e-001 -1.781173e+002 -3.244931e+001 3.095408e+001
2275000000 -3.204422e+001 -1.154029e+001 -1.187224e+000 1.275878e+002 -1.020167e+000 1.281914e+002 -3.098551e+001 3.967271e+001
2300000000 -2.762000e+001 -8.716962e+001 -1.275821e+000 7.379707e+001 -1.036021e+000 7.528362e+001 -2.820574e+001 4.387680e+001
2325000000 -2.819231e+001 -1.415279e+002 -1.209992e+000 2.048293e+001 -9.955800e-001 2.170138e+001 -2.880823e+001 1.499626e+001
2350000000 -4.198256e+001 1.001472e+002 -1.062566e+000 -3.400055e+001 -1.041478e+000 -3.318029e+001 -3.570896e+001 3.530901e+001
2375000000 -2.848044e+001 -6.158763e+001 -1.026170e+000 -8.849435e+001 -1.157400e+000 -8.747239e+001 -2.949467e+001 3.738302e+001
2400000000 -2.647288e+001 -1.240603e+002 -1.115574e+000 -1.424028e+002 -1.247036e+000 -1.406876e+002 -2.758142e+001 3.085683e+001
2425000000 -3.505634e+001 1.564399e+002 -1.091504e+000 1.647625e+002 -1.211547e+000 1.657603e+002 -3.093564e+001 3.155895e+000
2450000000 -3.407968e+001 -4.476955e+001 -9.690589e-001 1.112052e+002 -1.135648e+000 1.108949e+002 -2.992594e+001 5.310018e+001
2475000000 -2.583614e+001 -1.076833e+002 -9.521179e-001 5.666158e+001 -1.233368e+000 5.617941e+001 -2.711276e+001 2.921838e+001
2500000000 -2.926788e+001 -1.730644e+002 -1.039418e+000 2.782511e+000 -1.332431e+000 2.477694e+000 -2.774005e+001 2.377657e+001
2525000000 -4.280148e+001 -6.785799e+001 -1.130983e+000 -5.050549e+001 -1.268646e+000 -5.114188e+001 -3.396408e+001 4.562836e-001
2550000000 -2.921982e+001 -8.595855e+001 -1.089453e+000 -1.036575e+002 -1.143854e+000 -1.055566e+002 -2.774890e+001 4.339423e+001
2575000000 -2.716392e+001 -1.561334e+002 -1.041563e+000 -1.579754e+002 -1.122792e+000 -1.602048e+002 -2.926583e+001 1.731296e+001
2600000000 -3.924438e+001 1.274899e+002 -1.143329e+000 1.477309e+002 -1.157491e+000 1.460672e+002 -3.077466e+001 5.815417e+000
2625000000 -3.014017e+001 -6.755802e+001 -1.311527e+000 9.384414e+001 -1.132386e+000 9.284988e+001 -3.245714e+001 4.841862e+001
2650000000 -2.566757e+001 -1.363884e+002 -1.333438e+000 4.031042e+001 -1.044769e+000 3.901995e+001 -2.583047e+001 3.436081e+001
2675000000 -3.057338e+001 1.632116e+002 -1.233692e+000 -1.377481e+001 -9.614516e-001 -1.525420e+001 -3.090959e+001 1.887205e+000
2700000000 -3.536489e+001 -2.919849e+001 -1.216789e+000 -6.887718e+001 -1.042402e+000 -6.916028e+001 -3.115073e+001 3.234719e+001
2725000000 -2.514819e+001 -1.196320e+002 -1.314771e+000 -1.233385e+002 -1.120371e+000 -1.224715e+002 -2.727771e+001 4.854074e+001
2750000000 -2.671587e+001 -1.797272e+002 -1.366661e+000 -1.768417e+002 -1.072486e+000 -1.756407e+002 -2.587286e+001 6.225805e+000
2775000000 -3.657744e+001 1.004424e+002 -1.237103e+000 1.294249e+002 -1.038260e+000 1.302290e+002 -3.161123e+001 1.158463e+000
2800000000 -2.910881e+001 -1.034591e+002 -1.128832e+000 7.495774e+001 -1.128819e+000 7.570660e+001 -2.904578e+001 4.442751e+001
2825000000 -2.556848e+001 -1.565983e+002 -1.169366e+000 2.059554e+001 -1.265902e+000 2.223529e+001 -2.590726e+001 2.472954e+001
2850000000 -3.048736e+001 1.363864e+002 -1.214550e+000 -3.305004e+001 -1.264164e+000 -3.120565e+001 -2.739842e+001 1.192828e-001
2875000000 -3.172635e+001 -1.133873e+002 -1.151630e+000 -8.632660e+001 -1.218110e+000 -8.555174e+001 -3.243790e+001 5.474324e+001
2900000000 -2.620204e+001 -1.411153e+002 -1.030622e+000 -1.400994e+002 -1.248112e+000 -1.400765e+002 -2.577112e+001 3.618215e+001
2925000000 -2.568166e+001 1.578704e+002 -1.057243e+000 1.655532e+002 -1.372402e+000 1.657888e+002 -2.542905e+001 1.514429e+000
2950000000 -4.755226e+001 4.935455e+001 -1.161309e+000 1.119327e+002 -1.389243e+000 1.118823e+002 -3.146680e+001 -8.753126e+000
2975000000 -2.791163e+001 -1.345973e+002 -1.194000e+000 5.880544e+001 -1.301416e+000 5.792960e+001 -2.834337e+001 4.880403e+001
3000000000 -2.486469e+001 1.694229e+002 -9.879029e-001 4.108633e+000 -1.000835e+000 4.024314e+000 -2.501831e+001 1.955183e+001
3025000000 -3.299450e+001 1.084557e+002 -9.707037e-001 -4.973243e+001 -9.497150e-001 -5.003036e+001 -2.923580e+001 -8.848715e+000
3050000000 -3.387336e+001 -1.031081e+002 -1.540853e+000 -1.038682e+002 -1.168802e+000 -1.036356e+002 -2.938556e+001 4.994030e+001
3075000000 -2.417198e+001 -1.671045e+002 -1.517452e+000 -1.594950e+002 -1.374028e+000 -1.575368e+002 -2.652907e+001 2.565865e+001
3100000000 -2.764416e+001 1.292315e+002 -1.697851e+000 1.464996e+002 -1.421580e+000 1.502984e+002 -2.494929e+001 -5.310587e+000
3125000000 -5.040551e+001 -1.582098e+002 -1.621495e+000 9.377106e+001 -1.287637e+000 9.644887e+001 -3.606417e+001 5.177349e+000
3150000000 -2.636741e+001 -1.705598e+002 -1.371490e+000 3.989207e+001 -1.333391e+000 4.117083e+001 -2.607819e+001 2.741568e+001
3175000000 -2.581464e+001 1.480096e+002 -1.307168e+000 -1.536541e+001 -1.609285e+000 -1.298594e+001 -2.514490e+001 1.611246e+001
3200000000 -3.563304e+001 1.233344e+002 -1.355942e+000 -6.965781e+001 -1.722947e+000 -6.594379e+001 -2.953394e+001 -1.639182e+001
3225000000 -2.853118e+001 -1.447803e+002 -1.452925e+000 -1.217869e+002 -1.613512e+000 -1.199087e+002 -2.998685e+001 6.664871e+001
3250000000 -2.546648e+001 1.558752e+002 -1.250083e+000 -1.746772e+002 -1.523516e+000 -1.756434e+002 -2.457689e+001 1.342019e+001
3275000000 -2.914321e+001 1.104044e+002 -1.054502e+000 1.309417e+002 -1.702188e+000 1.291163e+002 -2.853548e+001 7.908922e+000
3300000000 -3.277632e+001 -1.096428e+002 -1.231827e+000 7.654763e+001 -1.794760e+000 7.537055e+001 -3.373815e+001 3.433475e+001
3325000000 -2.479985e+001 -1.763667e+002 -1.482081e+000 2.394220e+001 -1.657665e+000 2.231761e+001 -2.407965e+001 3.939995e+001
3350000000 -2.427042e+001 1.260602e+002 -1.463273e+000 -2.833864e+001 -1.407444e+000 -3.233710e+001 -2.467795e+001 -7.301688e+000
3375000000 -4.674194e+001 -1.190609e+002 -1.343810e+000 -8.235012e+001 -1.379142e+000 -8.771550e+001 -3.235735e+001 4.234043e+001
3400000000 -2.714626e+001 -1.636379e+002 -1.470870e+000 -1.378586e+002 -1.468867e+000 -1.409415e+002 -2.772065e+001 4.885787e+001
3425000000 -2.351441e+001 1.439028e+002 -1.724599e+000 1.676062e+002 -1.415781e+000 1.664527e+002 -2.410196e+001 1.749349e+001
3450000000 -3.293984e+001 8.256568e+001 -1.825480e+000 1.148658e+002 -1.198152e+000 1.131826e+002 -2.849646e+001 -2.918730e+001
3475000000 -3.068924e+001 1.789154e+002 -1.719694e+000 6.072177e+001 -1.076234e+000 5.870789e+001 -2.888759e+001 6.043664e+001
3500000000 -2.431110e+001 1.593658e+002 -1.603799e+000 5.240164e+000 -1.318043e+000 4.751337e+000 -2.410422e+001 2.349424e+001
3525000000 -2.739171e+001 1.134151e+002 -1.749443e+000 -5.003340e+001 -1.441776e+000 -4.765108e+001 -2.503525e+001 -4.916863e+000
3550000000 -3.671804e+001 -1.759278e+002 -1.808287e+000 -1.040039e+002 -1.386171e+000 -1.002511e+002 -4.085150e+001 3.287519e-001
3575000000 -2.335798e+001 1.678083e+002 -1.674211e+000 -1.569000e+002 -1.327220e+000 -1.548589e+002 -2.371470e+001 4.372383e+001
3600000000 -2.579453e+001 1.181630e+002 -1.428585e+000 1.486401e+002 -1.494500e+000 1.498771e+002 -2.536333e+001 1.301650e+000
3625000000 -3.401451e+001 9.018465e+001 -1.343358e+000 9.343251e+001 -1.774228e+000 9.648485e+001 -3.069355e+001 -1.243644e+001
3650000000 -2.578076e+001 -1.689227e+002 -1.499954e+000 4.008183e+001 -1.815843e+000 4.318845e+001 -2.767497e+001 4.738971e+001
3675000000 -2.216235e+001 1.283933e+002 -1.491074e+000 -1.212409e+001 -1.658973e+000 -1.115149e+001 -2.243735e+001 1.676010e+001
3700000000 -2.870086e+001 8.917519e+001 -1.244854e+000 -6.516084e+001 -1.633461e+000 -6.673685e+001 -2.749778e+001 -1.910697e+001
3725000000 -3.258926e+001 -1.562180e+002 -1.135798e+000 -1.197731e+002 -1.857559e+000 -1.218903e+002 -2.995741e+001 4.630211e+001
3750000000 -2.338333e+001 1.485430e+002 -1.399238e+000 -1.738735e+002 -1.842348e+000 -1.752055e+002 -2.395936e+001 3.566870e+001
3775000000 -2.430907e+001 1.056841e+002 -1.557757e+000 1.334797e+002 -1.638576e+000 1.311929e+002 -2.377817e+001 -8.594416e+000
3800000000 -5.459429e+001 8.264851e+001 -1.489594e+000 8.105780e+001 -1.393834e+000 7.624727e+001 -3.826207e+001 4.190239e+001
3825000000 -2.515248e+001 1.489416e+002 -1.430741e+000 2.648539e+001 -1.442199e+000 2.123364e+001 -2.522736e+001 4.889833e+001
3850000000 -2.417402e+001 1.236198e+002 -1.598661e+000 -2.853679e+001 -1.563667e+000 -3.153870e+001 -2.257105e+001 1.832873e+000
3875000000 -2.906604e+001 8.334973e+001 -1.873776e+000 -8.243661e+001 -1.410881e+000 -8.400304e+001 -2.890114e+001 -2.146946e+001
3900000000 -2.772235e+001 1.690082e+002 -1.899785e+000 -1.356927e+002 -1.209784e+000 -1.378466e+002 -2.876034e+001 7.302434e+001
3925000000 -2.344884e+001 1.308755e+002 -1.759748e+000 1.700512e+002 -1.220731e+000 1.675861e+002 -2.324873e+001 1.678088e+001
3950000000 -2.865540e+001 7.522147e+001 -1.678648e+000 1.142617e+002 -1.456374e+000 1.141885e+002 -2.795783e+001 -6.579906e+000
3975000000 -3.123250e+001 1.662472e+002 -1.823794e+000 5.892091e+001 -1.481254e+000 6.212899e+001 -3.702336e+001 3.426963e+001
4000000000 -2.333043e+001 1.446483e+002 -1.852284e+000 5.661035e+000 -1.415531e+000 9.058712e+000 -2.419438e+001 4.415589e+001
4025000000 -2.299907e+001 8.686723e+001 -1.669104e+000 -4.758017e+001 -1.447867e+000 -4.587831e+001 -2.308924e+001 -5.115022e+000
4050000000 -3.641735e+001 1.338187e+002 -1.400107e+000 -1.024024e+002 -1.624440e+000 -1.007373e+002 -3.570699e+001 9.980106e+000
4075000000 -2.630008e+001 1.567617e+002 -1.374827e+000 -1.573194e+002 -1.877384e+000 -1.537540e+002 -2.724250e+001 3.893297e+001
4100000000 -2.252595e+001 1.095462e+002 -1.549959e+000 1.495585e+002 -1.784793e+000 1.528897e+002 -2.273967e+001 1.615134e+001
4125000000 -2.961928e+001 7.691481e+001 -1.450162e+000 9.701058e+001 -1.662507e+000 9.784042e+001 -3.123616e+001 -4.898592e+001
4150000000 -3.148289e+001 1.606203e+002 -1.255581e+000 4.349657e+001 -1.762576e+000 4.209610e+001 -2.793290e+001 5.329911e+001
4175000000 -2.189793e+001 1.217785e+002 -1.304088e+000 -1.112759e+001 -1.948391e+000 -1.227574e+001 -2.376954e+001 1.886912e+001
4200000000 -2.586518e+001 9.707428e+001 -1.464614e+000 -6.499294e+001 -1.873273e+000 -6.527676e+001 -2.571326e+001 -1.164742e+001
4225000000 -3.556229e+001 1.176894e+002 -1.605962e+000 -1.171443e+002 -1.581926e+000 -1.193453e+002 -3.775792e+001 8.414073e+001
4250000000 -2.249550e+001 1.351322e+002 -1.548790e+000 -1.703037e+002 -1.470436e+000 -1.747504e+002 -2.197891e+001 4.058085e+001
4275000000 -2.481120e+001 9.131145e+001 -1.502749e+000 1.352089e+002 -1.540344e+000 1.311496e+002 -2.432325e+001 3.670186e+000
4300000000 -3.572572e+001 8.615852e+001 -1.721676e+000 8.056274e+001 -1.620325e+000 7.857278e+001 -3.198925e+001 -3.269266e+001
4325000000 -2.400784e+001 1.399844e+002 -1.961031e+000 2.655111e+001 -1.407176e+000 2.555859e+001 -2.607701e+001 6.602369e+001
4350000000 -2.303270e+001 1.078294e+002 -1.894117e+000 -2.659888e+001 -1.263975e+000 -2.868702e+001 -2.285787e+001 1.667215e+001
4375000000 -2.719727e+001 5.601631e+001 -1.739612e+000 -8.123425e+001 -1.361457e+000 -8.300630e+001 -2.960706e+001 -3.143120e+001
4400000000 -2.596067e+001 1.550430e+002 -1.814668e+000 -1.369566e+002 -1.517083e+000 -1.360176e+002 -3.118805e+001 6.330910e+001
4425000000 -2.346784e+001 1.172559e+002 -1.957724e+000 1.688673e+002 -1.538286e+000 1.717294e+002 -2.291921e+001 3.565633e+001
4450000000 -2.330407e+001 8.043460e+001 -1.927230e+000 1.155444e+002 -1.393919e+000 1.177777e+002 -2.486303e+001 -1.477359e+001
4475000000 -3.502783e+001 1.514926e+002 -1.675575e+000 6.177505e+001 -1.502765e+000 6.276495e+001 -3.821572e+001 6.928722e+001
4500000000 -2.348644e+001 1.276835e+002 -1.207457e+000 8.093710e+000 -1.215502e+000 7.560920e+000 -2.350354e+001 5.083972e+001
4525000000 -2.182618e+001 8.919244e+001 -1.227807e+000 -4.565526e+001 -1.236898e+000 -4.615424e+001 -2.270607e+001 1.073695e-001
4550000000 -3.461605e+001 8.003983e+001 -1.210210e+000 -9.962424e+001 -1.181070e+000 -1.000440e+002 -3.542484e+001 -4.305637e+001
4575000000 -2.568649e+001 1.328887e+002 -1.212084e+000 -1.535588e+002 -1.225609e+000 -1.542695e+002 -2.615670e+001 7.223897e+001
4600000000 -2.144699e+001 9.667381e+001 -2.311268e+000 1.573094e+002 -1.630414e+000 1.497876e+002 -2.106598e+001 2.937089e+001
4625000000 -2.767019e+001 7.431198e+001 -2.178925e+000 9.512198e+001 -2.386399e+000 1.028545e+002 -2.584568e+001 -1.003681e+001
4650000000 -2.913364e+001 1.352295e+002 -2.134983e+000 4.702153e+001 -2.016926e+000 4.137930e+001 -2.825628e+001 4.567934e+001
4675000000 -2.400896e+001 1.164999e+002 -1.530745e+000 -1.012355e+001 -2.470388e+000 -1.008077e+001 -2.322398e+001 2.755197e+001
4700000000 -2.540586e+001 6.335182e+001 -2.736182e+000 -5.939307e+001 -1.396157e+000 -6.378353e+001 -2.248549e+001 -1.115463e+001
4725000000 -2.793573e+001 9.676669e+001 -1.829523e+000 -1.191740e+002 -2.644490e+000 -1.156501e+002 -3.110511e+001 -7.376853e-001
4750000000 -2.209527e+001 1.415358e+002 -2.439262e+000 -1.720189e+002 -1.917928e+000 -1.718623e+002 -2.432065e+001 3.852034e+001
4775000000 -2.438591e+001 7.763955e+001 -1.559685e+000 1.385272e+002 -2.397440e+000 1.312684e+002 -2.213513e+001 -5.628677e+000
4800000000 -2.700827e+001 7.692439e+001 -2.781761e+000 7.976765e+001 -1.491908e+000 8.390226e+001 -3.018165e+001 -3.168301e+001
