!Created with skrf (http://scikit-rf.org).
# MHz S RI R 50.0 
!freq ReS11 ImS11 ReS21 ImS21 ReS12 ImS12 ReS22 ImS22
2000.0 0.02870888320530495 0.021822403759271827 -0.014769445038257743 0.011891843452603487 -0.014769445038257743 0.011891843452603487 0.00010238462936480424 9.872801205305554e-05
2010.0 0.028830997568814923 0.020939790511410806 -0.014618438452279878 0.012236362956586365 -0.014618438452279878 0.012236362956586365 0.00010236551708107314 9.86328183743373e-05
2020.0 0.02893658114018243 0.020052186988620848 -0.014459619232085115 0.012579392206944456 -0.014459619232085115 0.012579392206944456 0.00010234322036360321 9.853779826194607e-05
2030.0 0.029025762168142396 0.019160319944567638 -0.014292991595236 0.01292075636343234 -0.014292991595236 0.01292075636343234 0.00010231753153473909 9.844282944511097e-05
2040.0 0.029098588431107297 0.018264650900063406 -0.014118561207429442 0.013260283020859303 -0.014118561207429442 0.013260283020859303 0.00010228901255494273 9.834842161921232e-05
2050.0 0.029155111792435174 0.01736572425087217 -0.013936340866487505 0.013597795659406858 -0.013936340866487505 0.013597795659406858 0.0001022570508719139 9.82547616794132e-05
2060.0 0.029195771287098903 0.016464155141863116 -0.013681820472936371 0.013867720755431228 -0.013681820472936371 0.013867720755431228 0.00010220127632006505 9.817894154595517e-05
2070.0 0.02922024601954223 0.015560658568368737 -0.01342207697145453 0.014132876024060902 -0.01342207697145453 0.014132876024060902 0.00010214368927867476 9.810514817849436e-05
2080.0 0.029228888537945474 0.014655561260247483 -0.013157201494960895 0.014393158732462956 -0.013157201494960895 0.014393158732462956 0.00010208364166426685 9.803360069528202e-05
2090.0 0.02922208044808235 0.013749518899387699 -0.012887287834588708 0.014648468594837583 -0.012887287834588708 0.014648468594837583 0.00010202185562785453 9.796406885645115e-05
2100.0 0.02919961035761376 0.01284341077087635 -0.01261242486455323 0.014898711179115728 -0.01261242486455323 0.014898711179115728 0.00010195820043381122 9.789645927483673e-05
2110.0 0.029161895313917517 0.011937323948439774 -0.012384994299355872 0.015207989695445087 -0.012384994299355872 0.015207989695445087 0.00010190911545825041 9.781304101990268e-05
2120.0 0.029108839404803695 0.011032024341396354 -0.012150326746755622 0.015513954200650146 -0.012150326746755622 0.015513954200650146 0.00010185713697302122 9.773048784503789e-05
2130.0 0.02904094575531675 0.01012843765460705 -0.011908469231170898 0.01581643936754494 -0.011908469231170898 0.01581643936754494 0.00010180250923084873 9.76487520422669e-05
2140.0 0.028958155665301525 0.00922651227391155 -0.011659468550123207 0.016115282714620163 -0.011659468550123207 0.016115282714620163 0.00010174544792380807 9.756817612905929e-05
2150.0 0.0288608927613465 0.008327128404265695 -0.01140337714205203 0.016410321033024217 -0.01140337714205203 0.016410321033024217 0.00010168566344555518 9.748867328036413e-05
2160.0 0.02874905645835056 0.007430863916022676 -0.011094382813820223 0.016632630787659444 -0.011094382813820223 0.016632630787659444 0.00010160980766130936 9.74315751918803e-05
2170.0 0.0286231275162511 0.006537967479420232 -0.010781064283502388 0.016849114585333967 -0.010781064283502388 0.016849114585333967 0.0001015324188819105 9.737680285608292e-05
2180.0 0.028483040782829448 0.005649190592622127 -0.010463530628131473 0.01705968897104008 -0.010463530628131473 0.01705968897104008 0.00010145370760320705 9.732474162584512e-05
2190.0 0.028329380906364564 0.004764872327532313 -0.010141894818465547 0.01726427160980779 -0.010141894818465547 0.01726427160980779 0.00010137348807623045 9.727453709522896e-05
2200.0 0.028162004000444347 0.0038857395792812866 -0.009816264019571036 0.01746278556910087 -0.009816264019571036 0.01746278556910087 0.00010129142147687451 9.722631349311308e-05
2210.0 0.02798156795323003 0.003011963979432752 -0.009539694429649286 0.017753660361581547 -0.009539694429649286 0.017753660361581547 0.00010122143035264585 9.714887987739413e-05
2220.0 0.027787919821115992 0.0021443188789223057 -0.009255575805600935 0.01804025661533847 -0.009255575805600935 0.01804025661533847 0.00010114814072061226 9.707277525762692e-05
2230.0 0.027581506843852608 0.001283174390097098 -0.008963974434527669 0.018322390162273577 -0.008963974434527669 0.018322390162273577 0.0001010715087504416 9.699791844707914e-05
2240.0 0.027362330955352183 0.00042896531031107134 -0.008664958292492381 0.018599879706114406 -0.008664958292492381 0.018599879706114406 0.0001009915103933701 9.692441531885103e-05
2250.0 0.027131151306787494 -0.0004178888114831701 -0.0083586016867867 0.018872544475554063 -0.0083586016867867 0.018872544475554063 0.00010090769989313623 9.685215988886982e-05
2260.0 0.026887781210072594 -0.0012566217027124443 -0.007986372279585329 0.019000770214611568 -0.007986372279585329 0.019000770214611568 0.00010080909623611935 9.682831829274546e-05
2270.0 0.026632578775845166 -0.002087232370512545 -0.007612309107583234 0.019121682299750607 -0.007612309107583234 0.019121682299750607 0.00010071002803612144 9.68067593855698e-05
2280.0 0.026366004117125887 -0.0029089200810974757 -0.007236551855059281 0.019235258739271264 -0.007236551855059281 0.019235258739271264 0.00010061025508373697 9.678776839670242e-05
2290.0 0.02608809939985304 -0.0037214693853889398 -0.00685924700287613 0.019341478432980605 -0.00685924700287613 0.019341478432980605 0.00010050991176191423 9.677194000380193e-05
2300.0 0.025799240600228802 -0.00452433307352385 -0.006480536530817269 0.019440323959502404 -0.006480536530817269 0.019440323959502404 0.00010040909133352174 9.675885901121242e-05
2310.0 0.025499623981043898 -0.005317285234527221 -0.006098286658537948 0.01952449766842191 -0.006098286658537948 0.01952449766842191 0.00010030721134462354 9.675097677055945e-05
2320.0 0.02518963448797669 -0.006100020284466192 -0.005715199453556811 0.01960118803637187 -0.005715199453556811 0.01960118803637187 0.00010020548760163296 9.674596585504229e-05
2330.0 0.024869495117235907 -0.0068715667412090385 -0.005331418866523578 0.019670395230650152 -0.005331418866523578 0.019670395230650152 0.00010010364932948337 9.674404643228073e-05
2340.0 0.02453942174164408 -0.007632179573020218 -0.004947088201518822 0.019732120899808397 -0.004947088201518822 0.019732120899808397 0.00010000139776099455 9.674527740517744e-05
2350.0 0.024199926055946196 -0.008381413857190963 -0.0045623554872172315 0.01978636905671308 -0.0045623554872172315 0.01978636905671308 9.98986416264349e-05 9.67491655926891e-05
2360.0 0.023851113864905613 -0.009118712996660236 -0.004184225456149628 0.019865735096095995 -0.004184225456149628 0.019865735096095995 9.979486705269566e-05 9.674570434879735e-05
2370.0 0.02349314382026421 -0.009843944680442945 -0.0038047378350331692 0.019937878820231358 -0.0038047378350331692 0.019937878820231358 9.969066376166738e-05 9.674533083140358e-05
2380.0 0.023126830505970485 -0.010556626792029932 -0.003424029081588322 0.02000277772403394 -0.003424029081588322 0.02000277772403394 9.958565191137436e-05 9.674796994829325e-05
2390.0 0.02275198517234094 -0.011256459410778652 -0.003042237215505435 0.020060411257914225 -0.003042237215505435 0.020060411257914225 9.94801016608376e-05 9.675370550371633e-05
2400.0 0.022369016110448656 -0.01194326897044927 -0.0026595001721071996 0.020110761997816803 -0.0026595001721071996 0.020110761997816803 9.937384569787605e-05 9.676254115829983e-05
2410.0 0.021978382553437877 -0.012616855122155211 -0.0022824339472676536 0.020211171246530105 -0.0022824339472676536 0.020211171246530105 9.926265370707881e-05 9.675631507109189e-05
2420.0 0.02158045043720868 -0.013276699627821896 -0.0019025142287210498 0.020304476067999823 -0.0019025142287210498 0.020304476067999823 9.915034596976632e-05 9.675362813767562e-05
2430.0 0.021175079572923756 -0.013922478619994884 -0.0015198765191539012 0.02039060402322579 -0.0015198765191539012 0.02039060402322579 9.903668075156995e-05 9.67549264967484e-05
2440.0 0.02076300423553161 -0.014554202020005423 -0.0011346560355412635 0.0204694862816093 -0.0011346560355412635 0.0204694862816093 9.892164470659132e-05 9.675971202626872e-05
2450.0 0.020344510741151914 -0.015171486910262565 -0.0007469903128539212 0.020541055605808878 -0.0007469903128539212 0.020541055605808878 9.880512076460436e-05 9.676821308816165e-05
2460.0 0.019919737688729157 -0.015774152213818973 -0.0003554702141660748 0.02051582547410965 -0.0003554702141660748 0.02051582547410965 9.869891001451814e-05 9.680854849491728e-05
2470.0 0.019488977087699522 -0.01636204800257137 3.4809393325647095e-05 0.02048316078615261 3.4809393325647095e-05 0.02048316078615261 9.859378866002293e-05 9.685249791095409e-05
2480.0 0.01905277831811117 -0.016934859668110206 0.00042371255662072697 0.020443099291702592 0.00042371255662072697 0.020443099291702592 9.848930735178874e-05 9.690006757058674e-05
2490.0 0.01861108522527431 -0.01749245355480675 0.0008110964967599564 0.02039568231356827 0.0008110964967599564 0.02039568231356827 9.838595214523687e-05 9.695132907920302e-05
2500.0 0.018164391377519035 -0.018034645145890336 0.001196824497215459 0.020340952500550333 0.001196824497215459 0.020340952500550333 9.828357860648871e-05 9.700616238658478e-05
2510.0 0.017713122078937237 -0.018561394937216914 0.0016017142147065286 0.020547830271792255 0.0016017142147065286 0.020547830271792255 9.81343418027812e-05 9.698613830152401e-05
2520.0 0.017257432423327602 -0.019072276767406006 0.0020148873687749593 0.020746503110260835 0.0020148873687749593 0.020746503110260835 9.798010301784745e-05 9.697200814808735e-05
2530.0 0.01679750732708406 -0.0195674664769972 0.002436172938121708 0.020936730503059463 0.002436172938121708 0.020936730503059463 9.782139813316372e-05 9.69641472911415e-05
2540.0 0.016333909459004873 -0.02004661127511766 0.0028653939996720243 0.021118276843601052 0.0028653939996720243 0.021118276843601052 9.765836086907587e-05 9.696279575155223e-05
2550.0 0.015866753293710102 -0.020509650239683524 0.003302374231312533 0.021290909961893607 0.003302374231312533 0.021290909961893607 9.749108292504925e-05 9.696859319110126e-05
2560.0 0.015396381963352097 -0.02095647174149437 0.003723174930421654 0.02131842263781139 0.003723174930421654 0.02131842263781139 9.73535091219205e-05 9.701952618394765e-05
2570.0 0.014923008515200271 -0.0213871252286242 0.0041461967348604255 0.021337567288006412 0.0041461967348604255 0.021337567288006412 9.721559039722297e-05 9.707659805967205e-05
2580.0 0.01444705752121684 -0.02180146314591362 0.004571273132981316 0.02134827060976519 0.004571273132981316 0.02134827060976519 9.707687729643692e-05 9.713999144904354e-05
2590.0 0.013968735541345157 -0.022199426290983267 0.004998234027543086 0.02135046059993574 0.004998234027543086 0.02135046059993574 9.693851702695715e-05 9.720942111394863e-05
2600.0 0.013488414660303549 -0.022580921149105312 0.005426910312773812 0.021344071119070628 0.005426910312773812 0.021344071119070628 9.680012704073044e-05 9.72851578523442e-05
2610.0 0.013006336959298743 -0.02294594073784469 0.0058407774693740215 0.021269502184905396 0.0058407774693740215 0.021269502184905396 9.668085511009341e-05 9.738222716568097e-05
2620.0 0.012522691005160198 -0.023294388760986662 0.006253757905825766 0.021186892539171415 0.006253757905825766 0.021186892539171415 9.656352393005073e-05 9.748473266536977e-05
2630.0 0.012037800280579367 -0.023626234304844635 0.006665695803694614 0.021096248902683842 0.006665695803694614 0.021096248902683842 9.644870301818838e-05 9.759275132467878e-05
2640.0 0.011552064844718548 -0.02394155910701683 0.007076432510938008 0.020997582587834945 0.007076432510938008 0.020997582587834945 9.633659947214302e-05 9.770621947422925e-05
2650.0 0.011065607752235767 -0.024240470394206508 0.007485813789436837 0.020890905022248846 0.007485813789436837 0.020890905022248846 9.622743770794244e-05 9.7825046835921e-05
2660.0 0.010578742422939144 -0.02452269600544475 0.007845684842889703 0.020649904259105088 0.007845684842889703 0.020649904259105088 9.616834538979052e-05 9.797401301234475e-05
2670.0 0.010091728320668156 -0.024788300064883587 0.008199117499967849 0.0204028415511898 0.008199117499967849 0.0204028415511898 9.611510463306038e-05 9.812525444523219e-05
2680.0 0.009604977543811264 -0.025037426647630662 0.00854601035601235 0.020149876127514385 0.00854601035601235 0.020149876127514385 9.606742661121494e-05 9.827844562637061e-05
2690.0 0.009118469857145008 -0.025270088803308766 0.008886270117383847 0.019891165520430437 0.008886270117383847 0.019891165520430437 9.602567614461517e-05 9.843329688683898e-05
2700.0 0.008632624829015792 -0.025486257375213487 0.009219806448181746 0.01962686898865785 0.009219806448181746 0.01962686898865785 9.598959795208915e-05 9.858976355906765e-05
2710.0 0.008147610721513324 -0.025686072613938314 0.009597665499005393 0.019460837902045804 0.009597665499005393 0.019460837902045804 9.591616135494104e-05 9.87340490894937e-05
2720.0 0.007663563643424241 -0.02586950638573234 0.009972534983647384 0.019287528544551475 0.009972534983647384 0.019287528544551475 9.584736215379891e-05 9.888287030549261e-05
2730.0 0.007181032204356408 -0.026036832551561882 0.010344273288696238 0.019106996327550665 0.010344273288696238 0.019106996327550665 9.578354230242123e-05 9.903555185638675e-05
2740.0 0.006700034013557526 -0.0261879451406251 0.01071273996865031 0.018919296926670836 0.01071273996865031 0.018919296926670836 9.57250501077087e-05 9.919223339314919e-05
2750.0 0.006220677230610474 -0.026323064744962914 0.01107780106444375 0.01872448889561614 0.01107780106444375 0.01872448889561614 9.56718032391392e-05 9.935255472322948e-05
2760.0 0.005743447853581982 -0.026442162157917806 0.011489540011786974 0.018603956327503692 0.011489540011786974 0.018603956327503692 9.558583334531533e-05 9.951243089607118e-05
2770.0 0.005268479614761595 -0.026545448160140487 0.01190065227521056 0.018474477104146694 0.01190065227521056 0.018474477104146694 9.550477457533033e-05 9.967838297135225e-05
2780.0 0.00479595500075853 -0.02663306517440841 0.012310948209957026 0.018336030015853075 0.012310948209957026 0.018336030015853075 9.542943954723849e-05 9.985048155555966e-05
2790.0 0.004326066205407771 -0.026705133643691183 0.01272023206064971 0.01818860248528066 0.01272023206064971 0.01818860248528066 9.536006769575582e-05 0.00010002850754540876
2800.0 0.003859159259322689 -0.02676162092073492 0.01312831182583099 0.01803218236624606 0.01312831182583099 0.01803218236624606 9.529689773077828e-05 0.00010021267776679739
2810.0 0.003395301880321661 -0.026802773263972318 0.013475359513379002 0.01778804544705691 0.013475359513379002 0.01778804544705691 9.528249110166912e-05 0.0001003990721092023
2820.0 0.0029345705509664184 -0.026828864673753058 0.01381785939095342 0.01753723136878636 0.01381785939095342 0.01753723136878636 9.527511856434452e-05 0.00010058737318040555
2830.0 0.0024774836211440936 -0.026839768115778873 0.014155683500351512 0.017279823259822757 0.014155683500351512 0.017279823259822757 9.527538512104969e-05 0.0001007781924079736
2840.0 0.0020240271563232944 -0.02683578846625662 0.014488707281125385 0.017015906360028626 0.014488707281125385 0.017015906360028626 9.528321782475635e-05 0.00010097047010655201
2850.0 0.0015743349403463166 -0.026817216214316424 0.014816801739671655 0.016745574276162738 0.014816801739671655 0.016745574276162738 9.529884034387353e-05 0.00010116430225113788
2860.0 0.0011286376725267696 -0.026784087972680906 0.01514760421047949 0.01647735795541596 0.01514760421047949 0.01647735795541596 9.531739698954761e-05 0.00010136067994267357
2870.0 0.0006872247684907532 -0.026736591034264297 0.015473550162781975 0.016202608241300306 0.015473550162781975 0.016202608241300306 9.534424170361593e-05 0.00010155782925320822
2880.0 0.0002499894953191488 -0.026674966397208327 0.01579450945983049 0.015921416310472832 0.01579450945983049 0.015921416310472832 9.537908578895004e-05 0.00010175559080927232
2890.0 -0.00018257311170274124 -0.02659948711004225 0.01611035441082697 0.015633872268014163 0.01611035441082697 0.015633872268014163 9.542274111782264e-05 0.00010195364184007442
2900.0 -0.0006105551664355559 -0.02651026498604395 0.01642095946322214 0.015340068014053338 0.01642095946322214 0.015340068014053338 9.547445426395007e-05 0.00010215158754193496
2910.0 -0.0010338090309948476 -0.026407304391564138 0.01676038928667339 0.015070841981061855 0.01676038928667339 0.015070841981061855 9.55165009627736e-05 0.00010235928896752278
2920.0 -0.0014520391147641856 -0.026291045722530975 0.017095479214993697 0.014794227755255495 0.017095479214993697 0.014794227755255495 9.5567494196109e-05 0.00010256772695122489
2930.0 -0.0018651080114165156 -0.026161693173352485 0.017426069854239 0.014510294727553039 0.017426069854239 0.014510294727553039 9.56277659555118e-05 0.00010277673245022807
2940.0 -0.002273093625512377 -0.0260193365828093 0.017752002281537085 0.01421911713882667 0.017752002281537085 0.01421911713882667 9.569725130388851e-05 0.00010298582989195619
2950.0 -0.002675702763610641 -0.025864255645785324 0.01807312150438939 0.013920766559275299 0.01807312150438939 0.013920766559275299 9.57764025017103e-05 0.00010319490728152239
2960.0 -0.003072826486882905 -0.025696615791547292 0.018394685949949238 0.013619331482500661 0.018394685949949238 0.013619331482500661 9.586244964158178e-05 0.000103405463258161
2970.0 -0.0034643650852126955 -0.025516807405005115 0.018711275079896176 0.013310677595892181 0.018711275079896176 0.013310677595892181 9.595820695260689e-05 0.00010361506512883728
2980.0 -0.0038502647131813355 -0.025324940275292657 0.01902273185771771 0.012994885274154565 0.01902273185771771 0.012994885274154565 9.606358690223458e-05 0.00010382337139787191
2990.0 -0.0042303239076616934 -0.025121109173242593 0.01932889818855738 0.012672040716283601 0.01932889818855738 0.012672040716283601 9.617880701038507e-05 0.00010402982965830465
3000.0 -0.004604410712047535 -0.02490588967735079 0.01962961805601022 0.012342229093963462 0.01962961805601022 0.012342229093963462 9.630397016018624e-05 0.00010423366973159755
3010.0 -0.004972614724878261 -0.02467930895997207 0.019877515235249776 0.01197709083974858 0.019877515235249776 0.01197709083974858 9.645581761199369e-05 0.00010441418198159939
3020.0 -0.00533456074337185 -0.024441637979991385 0.020118610127752647 0.011606986540950059 0.020118610127752647 0.011606986540950059 9.661622066102996e-05 0.00010459017706918086
3030.0 -0.005690223606071675 -0.024193130629199044 0.020352804117645278 0.011232043944273747 0.020352804117645278 0.011232043944273747 9.678542601100536e-05 0.00010476061086846342
3040.0 -0.006039704221493473 -0.023933933315667014 0.02057999845880785 0.010852392938638699 0.02057999845880785 0.010852392938638699 9.696270962817367e-05 0.00010492577546635517
3050.0 -0.006382842497654936 -0.023664490156600354 0.020800101016028208 0.010468162564948294 0.020800101016028208 0.010468162564948294 9.714802347104612e-05 0.00010508474203257914
3060.0 -0.00671934940387303 -0.023384919104885674 0.021010594301527477 0.01007832422403026 0.021010594301527477 0.01007832422403026 9.734197430816248e-05 0.00010523666423929941
3070.0 -0.0070493986416969205 -0.02309536009272095 0.02121377079523476 0.009684267264885853 0.02121377079523476 0.009684267264885853 9.754341949223123e-05 0.00010538228130652422
3080.0 -0.007372788118960347 -0.022796178229896054 0.021409547781267656 0.009286127957411823 0.021409547781267656 0.009286127957411823 9.77521339601197e-05 0.00010552080630515894
3090.0 -0.007689451699801298 -0.022487745073055607 0.021597840520568228 0.008884048488677656 0.021597840520568228 0.008884048488677656 9.796835146161568e-05 0.00010565223140289742
3100.0 -0.00799942657945524 -0.022170097137369844 0.02177857293515119 0.008478167987699101 0.02177857293515119 0.008478167987699101 9.819095918231591e-05 0.00010577570541095535
