# GHZ S RI R 50
0.5 0.0001 0.0001 0.784693400352689 0 0.784693400352689 0 0.0001 0.0001
0.55 0.0001 0.0001 0.785778243559009 0 0.785778243559009 0 0.0001 0.0001
0.6 0.0001 0.0001 0.767980158916931 0 0.767980158916931 0 0.0001 0.0001
0.65 0.0001 0.0001 0.799742175986002 0 0.799742175986002 0 0.0001 0.0001
0.7 0.0001 0.0001 0.786140191148128 0 0.786140191148128 0 0.0001 0.0001
0.75 0.0001 0.0001 0.806770482132564 0 0.806770482132564 0 0.0001 0.0001
0.8 0.0001 0.0001 0.809841447325788 0 0.809841447325788 0 0.0001 0.0001
0.85 0.0001 0.0001 0.814235437493768 0 0.814235437493768 0 0.0001 0.0001
0.9 0.0001 0.0001 0.810961057853841 0 0.810961057853841 0 0.0001 0.0001
0.95 0.0001 0.0001 0.811521443434724 0 0.811521443434724 0 0.0001 0.0001
1 0.0001 0.0001 0.802416776308585 0 0.802416776308585 0 0.0001 0.0001
1.05 0.0001 0.0001 0.796251016926562 0 0.796251016926562 0 0.0001 0.0001
1.1 0.0001 0.0001 0.782708409590612 0 0.782708409590612 0 0.0001 0.0001
1.15 0.0001 0.0001 0.788950943724189 0 0.788950943724189 0 0.0001 0.0001
1.2 0.0001 0.0001 0.763747848795283 0 0.763747848795283 0 0.0001 0.0001
1.25 0.0001 0.0001 0.775353943359598 0 0.775353943359598 0 0.0001 0.0001
1.3 0.0001 0.0001 0.773125503840547 0 0.773125503840547 0 0.0001 0.0001
1.35 0.0001 0.0001 0.768510844087684 0 0.768510844087684 0 0.0001 0.0001
1.4 0.0001 0.0001 0.766302072273919 0 0.766302072273919 0 0.0001 0.0001
1.45 0.0001 0.0001 0.759626312954554 0 0.759626312954554 0 0.0001 0.0001
1.5 0.0001 0.0001 0.766743318194607 0 0.766743318194607 0 0.0001 0.0001
1.55 0.0001 0.0001 0.753182117174179 0 0.753182117174179 0 0.0001 0.0001
1.6 0.0001 0.0001 0.763396210886829 0 0.763396210886829 0 0.0001 0.0001
1.65 0.0001 0.0001 0.759801243515852 0 0.759801243515852 0 0.0001 0.0001
1.7 0.0001 0.0001 0.759801243515852 0 0.759801243515852 0 0.0001 0.0001
1.75 0.0001 0.0001 0.761026885913448 0 0.761026885913448 0 0.0001 0.0001
1.8 0.0001 0.0001 0.753268835461755 0 0.753268835461755 0 0.0001 0.0001
1.85 0.0001 0.0001 0.742078757846382 0 0.742078757846382 0 0.0001 0.0001
1.9 0.0001 0.0001 0.733837667333538 0 0.733837667333538 0 0.0001 0.0001
1.95 0.0001 0.0001 0.72803121419057 0 0.72803121419057 0 0.0001 0.0001
2 0.0001 0.0001 0.727277245655824 0 0.727277245655824 0 0.0001 0.0001
2.05 0.0001 0.0001 0.720526569327151 0 0.720526569327151 0 0.0001 0.0001
2.1 0.0001 0.0001 0.725688097528062 0 0.725688097528062 0 0.0001 0.0001
2.15 0.0001 0.0001 0.727779804536824 0 0.727779804536824 0 0.0001 0.0001
2.2 0.0001 0.0001 0.731307453862483 0 0.731307453862483 0 0.0001 0.0001
2.25 0.0001 0.0001 0.71920053203748 0 0.71920053203748 0 0.0001 0.0001
2.3 0.0001 0.0001 0.732993291651779 0 0.732993291651779 0 0.0001 0.0001
2.35 0.0001 0.0001 0.722021283924498 0 0.722021283924498 0 0.0001 0.0001
2.4 0.0001 0.0001 0.71878664606888 0 0.71878664606888 0 0.0001 0.0001
2.45 0.0001 0.0001 0.717959588544675 0 0.717959588544675 0 0.0001 0.0001
2.5 0.0001 0.0001 0.705586072973323 0 0.705586072973323 0 0.0001 0.0001
2.55 0.0001 0.0001 0.70412538223409 0 0.70412538223409 0 0.0001 0.0001
2.6 0.0001 0.0001 0.686040887358862 0 0.686040887358862 0 0.0001 0.0001
2.65 0.0001 0.0001 0.691273645636478 0 0.691273645636478 0 0.0001 0.0001
2.7 0.0001 0.0001 0.684069141889366 0 0.684069141889366 0 0.0001 0.0001
2.75 0.0001 0.0001 0.670810728799227 0 0.670810728799227 0 0.0001 0.0001
2.8 0.0001 0.0001 0.688573016882465 0 0.688573016882465 0 0.0001 0.0001
2.85 0.0001 0.0001 0.676316526509624 0 0.676316526509624 0 0.0001 0.0001
2.9 0.0001 0.0001 0.665349753013536 0 0.665349753013536 0 0.0001 0.0001
2.95 0.0001 0.0001 0.6818675140286 0 0.6818675140286 0 0.0001 0.0001
3 0.0001 0.0001 0.672899181443379 0 0.672899181443379 0 0.0001 0.0001
3.05 0.0001 0.0001 0.677329514008607 0 0.677329514008607 0 0.0001 0.0001
3.1 0.0001 0.0001 0.658188060577843 0 0.658188060577843 0 0.0001 0.0001
3.15 0.0001 0.0001 0.671351556272203 0 0.671351556272203 0 0.0001 0.0001
3.2 0.0001 0.0001 0.664737225367075 0 0.664737225367075 0 0.0001 0.0001
3.25 0.0001 0.0001 0.641061949620743 0 0.641061949620743 0 0.0001 0.0001
3.3 0.0001 0.0001 0.683518069382134 0 0.683518069382134 0 0.0001 0.0001
3.35 0.0001 0.0001 0.630957344480193 0 0.630957344480193 0 0.0001 0.0001
3.4 0.0001 0.0001 0.652093693352889 0 0.652093693352889 0 0.0001 0.0001
3.45 0.0001 0.0001 0.646115262437151 0 0.646115262437151 0 0.0001 0.0001
3.5 0.0001 0.0001 0.63363622803708 0 0.63363622803708 0 0.0001 0.0001
3.55 0.0001 0.0001 0.643857857355733 0 0.643857857355733 0 0.0001 0.0001
3.6 0.0001 0.0001 0.632892574085938 0 0.632892574085938 0 0.0001 0.0001
3.65 0.0001 0.0001 0.659842067415637 0 0.659842067415637 0 0.0001 0.0001
3.7 0.0001 0.0001 0.623943119618354 0 0.623943119618354 0 0.0001 0.0001
3.75 0.0001 0.0001 0.647172418453612 0 0.647172418453612 0 0.0001 0.0001
3.8 0.0001 0.0001 0.641283402815486 0 0.641283402815486 0 0.0001 0.0001
3.85 0.0001 0.0001 0.614964434834203 0 0.614964434834203 0 0.0001 0.0001
3.9 0.0001 0.0001 0.634892212337701 0 0.634892212337701 0 0.0001 0.0001
3.95 0.0001 0.0001 0.606806186711122 0 0.606806186711122 0 0.0001 0.0001
4 0.0001 0.0001 0.610871691654395 0 0.610871691654395 0 0.0001 0.0001
4.05 0.0001 0.0001 0.595525003041283 0 0.595525003041283 0 0.0001 0.0001
4.1 0.0001 0.0001 0.607225498383526 0 0.607225498383526 0 0.0001 0.0001
4.15 0.0001 0.0001 0.586070686748433 0 0.586070686748433 0 0.0001 0.0001
4.2 0.0001 0.0001 0.589929345104144 0 0.589929345104144 0 0.0001 0.0001
4.25 0.0001 0.0001 0.594429015197695 0 0.594429015197695 0 0.0001 0.0001
4.3 0.0001 0.0001 0.580630706966867 0 0.580630706966867 0 0.0001 0.0001
4.35 0.0001 0.0001 0.592106733564661 0 0.592106733564661 0 0.0001 0.0001
4.4 0.0001 0.0001 0.606596639468753 0 0.606596639468753 0 0.0001 0.0001
4.45 0.0001 0.0001 0.601381411398162 0 0.601381411398162 0 0.0001 0.0001
4.5 0.0001 0.0001 0.614186123406302 0 0.614186123406302 0 0.0001 0.0001
4.55 0.0001 0.0001 0.612138929912486 0 0.612138929912486 0 0.0001 0.0001
4.6 0.0001 0.0001 0.606666480508024 0 0.606666480508024 0 0.0001 0.0001
4.65 0.0001 0.0001 0.595319351508913 0 0.595319351508913 0 0.0001 0.0001
4.7 0.0001 0.0001 0.600551145933433 0 0.600551145933433 0 0.0001 0.0001
4.75 0.0001 0.0001 0.586138164514029 0 0.586138164514029 0 0.0001 0.0001
4.8 0.0001 0.0001 0.577630344717559 0 0.577630344717559 0 0.0001 0.0001
4.85 0.0001 0.0001 0.581299567725388 0 0.581299567725388 0 0.0001 0.0001
4.9 0.0001 0.0001 0.578961920183152 0 0.578961920183152 0 0.0001 0.0001
4.95 0.0001 0.0001 0.571610239641614 0 0.571610239641614 0 0.0001 0.0001
5 0.0001 0.0001 0.564806908241676 0 0.564806908241676 0 0.0001 0.0001
5.05 0.0001 0.0001 0.55488118635809 0 0.55488118635809 0 0.0001 0.0001
5.1 0.0001 0.0001 0.552141003203814 0 0.552141003203814 0 0.0001 0.0001
5.15 0.0001 0.0001 0.542188123209317 0 0.542188123209317 0 0.0001 0.0001
5.2 0.0001 0.0001 0.569049439619551 0 0.569049439619551 0 0.0001 0.0001
5.25 0.0001 0.0001 0.543437995916324 0 0.543437995916324 0 0.0001 0.0001
5.3 0.0001 0.0001 0.566826309475951 0 0.566826309475951 0 0.0001 0.0001
5.35 0.0001 0.0001 0.555200693597865 0 0.555200693597865 0 0.0001 0.0001
5.4 0.0001 0.0001 0.561500309523974 0 0.561500309523974 0 0.0001 0.0001
5.45 0.0001 0.0001 0.547078944059479 0 0.547078944059479 0 0.0001 0.0001
5.5 0.0001 0.0001 0.533580561846033 0 0.533580561846033 0 0.0001 0.0001
5.55 0.0001 0.0001 0.537774245963442 0 0.537774245963442 0 0.0001 0.0001
5.6 0.0001 0.0001 0.508217949946317 0 0.508217949946317 0 0.0001 0.0001
5.65 0.0001 0.0001 0.523118404779689 0 0.523118404779689 0 0.0001 0.0001
5.7 0.0001 0.0001 0.516000354506949 0 0.516000354506949 0 0.0001 0.0001
5.75 0.0001 0.0001 0.523540158327714 0 0.523540158327714 0 0.0001 0.0001
5.8 0.0001 0.0001 0.513570417848355 0 0.513570417848355 0 0.0001 0.0001
