!Created with skrf (http://scikit-rf.org).
# MHz S RI R 50.0 
!freq ReS11 ImS11 ReS21 ImS21 ReS12 ImS12 ReS22 ImS22
2000.0 0.03241790454841313 -0.005645893154701717 -0.5677910350394032 0.5824713817800619 -0.5677910350394032 0.5824713817800619 -0.012229893686527053 -0.002486613240170142
2010.0 0.03215385441788771 -0.006673387753442875 -0.5542109118067594 0.5912775893071746 -0.5542109118067594 0.5912775893071746 -0.012240446851318722 -0.002170149069510114
2020.0 0.031870800385357737 -0.007697236790260793 -0.5405055911016716 0.5997767026172353 -0.5405055911016716 0.5997767026172353 -0.01224166991064448 -0.0018539456312865194
2030.0 0.0315688685651906 -0.00871648434831776 -0.5266819471427457 0.607967165752981 -0.5266819471427457 0.607967165752981 -0.012233502350466698 -0.0015385925265873923
2040.0 0.031248410495204198 -0.009730323831360823 -0.5127466592934398 0.6158477211054947 -0.5127466592934398 0.6158477211054947 -0.012215304410343289 -0.00122443943489559
2050.0 0.030909676579165723 -0.010738433719166003 -0.4987066718630875 0.6234170859309303 -0.4987066718630875 0.6234170859309303 -0.012187909211638825 -0.0009117498563369951
2060.0 0.030553084491779486 -0.011739756002643537 -0.4855468446568336 0.6319473326651671 -0.4855468446568336 0.6319473326651671 -0.012200747273051675 -0.0006038022222069659
2070.0 0.03017873706919328 -0.012733636683181785 -0.4722452170805511 0.640201917034547 -0.4722452170805511 0.640201917034547 -0.012204050292275509 -0.0002957096985367689
2080.0 0.029787278317022034 -0.013719751268851974 -0.4588076557133785 0.6481784773989916 -0.4588076557133785 0.6481784773989916 -0.012198491226891804 1.2128880748742211e-05
2090.0 0.029378944407957568 -0.01469692736175089 -0.4452399002822175 0.655874904441784 -0.4452399002822175 0.655874904441784 -0.012184019032344765 0.00031961301953084976
2100.0 0.028953870419937924 -0.01566504295485293 -0.4315476338123721 0.6632892504280348 -0.4315476338123721 0.6632892504280348 -0.012160441013398712 0.0006259145079607369
2110.0 0.028512871848375865 -0.016623033257688036 -0.41709280964545564 0.6693858746374584 -0.41709280964545564 0.6693858746374584 -0.012089912328111378 0.0009284676008351341
2120.0 0.028056027080586066 -0.017570618921291397 -0.4025661717778227 0.6751722180501581 -0.4025661717778227 0.6751722180501581 -0.012011150436515084 0.001227727208949687
2130.0 0.02758347975362279 -0.018506956661218727 -0.38797438610763674 0.6806478032395278 -0.38797438610763674 0.6806478032395278 -0.011923888361203666 0.0015229661306306024
2140.0 0.0270963243536735 -0.01943164866298114 -0.37332385259199274 0.6858123968878485 -0.37332385259199274 0.6858123968878485 -0.011827997652981495 0.0018141492006556112
2150.0 0.026594341522993514 -0.020344106264135225 -0.35862126642783154 0.6906657533433622 -0.35862126642783154 0.6906657533433622 -0.01172420862073719 0.002100873783223677
2160.0 0.026078193076870475 -0.021243563343120657 -0.3460734263195628 0.6996562672205918 -0.3460734263195628 0.6996562672205918 -0.011762921187777126 0.002412449685458638
2170.0 0.025548164769895517 -0.022129490846022504 -0.33331081540691243 0.7084185176940262 -0.33331081540691243 0.7084185176940262 -0.011793321048664289 0.0027267972533167348
2180.0 0.025004723302438043 -0.023001618076264798 -0.32033758653280187 0.7169475415211104 -0.32033758653280187 0.7169475415211104 -0.011814495482272 0.0030435858749686675
2190.0 0.024448572668994206 -0.02385899776391944 -0.30715811511443014 0.7252383957723836 -0.30715811511443014 0.7252383957723836 -0.011827148898172213 0.0033625800374083173
2200.0 0.023879707496535247 -0.02470152181917859 -0.29377659195956063 0.7332863627422096 -0.29377659195956063 0.7332863627422096 -0.011830946439042386 0.0036833359024965578
2210.0 0.023298772718272128 -0.02552859149911871 -0.2801508605289667 0.7409625369774866 -0.2801508605289667 0.7409625369774866 -0.011822021961824917 0.004004291002060254
2220.0 0.02270614007671957 -0.026339570365198767 -0.2663371452649031 0.7483846620846619 -0.2663371452649031 0.7483846620846619 -0.011804153262990447 0.004326203643280544
2230.0 0.02210222321534293 -0.027134141235159198 -0.2523402072766199 0.7555483227731145 -0.2523402072766199 0.7555483227731145 -0.01177768222577397 0.004649126389764023
2240.0 0.021487634118217573 -0.02791202140247051 -0.2381650643728364 0.762449131983659 -0.2381650643728364 0.762449131983659 -0.011742379463069625 0.004972432603400127
2250.0 0.020862818272438296 -0.028672269249537693 -0.22381663060841853 0.7690828879964968 -0.22381663060841853 0.7690828879964968 -0.01169858011317545 0.00529626470985345
2260.0 0.020227915186173933 -0.02941507550972632 -0.20799865033306153 0.7706248433917207 -0.20799865033306153 0.7706248433917207 -0.011500306493468908 0.005551618366225883
2270.0 0.019583880496339075 -0.030139451339565526 -0.19220720690406617 0.7718441425224886 -0.19220720690406617 0.7718441425224886 -0.011296561542873142 0.005799525545727982
2280.0 0.018930691600326524 -0.030845604998089252 -0.1764487674941535 0.772742429885742 -0.1764487674941535 0.772742429885742 -0.011087924296224632 0.006040186506178985
2290.0 0.018269263822850348 -0.0315328841240053 -0.16072976537488481 0.773321502678469 -0.16072976537488481 0.773321502678469 -0.010874353404605889 0.006273374585011637
2300.0 0.017599505382763073 -0.0322008477983089 -0.1450565848129442 0.7735832589555808 -0.1450565848129442 0.7735832589555808 -0.010656379822105006 0.006499095954840183
2310.0 0.01692251229327649 -0.03284938803162524 -0.12991807770710628 0.7764129356817554 -0.12991807770710628 0.7764129356817554 -0.010512855300957526 0.006766669741393444
2320.0 0.016238313608086755 -0.03347806035161548 -0.11472498458601932 0.7789462602248557 -0.11472498458601932 0.7789462602248557 -0.010362996440818924 0.007030579222223749
2330.0 0.015547631105848144 -0.03408641753781274 -0.09948316405183585 0.7811821907258683 -0.09948316405183585 0.7811821907258683 -0.01020688416316913 0.007290438295699823
2340.0 0.014850765492008403 -0.03467448862547604 -0.0841982164948294 0.7831198158010507 -0.0841982164948294 0.7831198158010507 -0.010044512409129428 0.0075462445099353
2350.0 0.01414849615058242 -0.03524186581924969 -0.06887627481477399 0.7847583058823897 -0.06887627481477399 0.7847583058823897 -0.00987632432190763 0.007798054209927145
2360.0 0.013440959392225964 -0.03578825857906614 -0.05351259556001436 0.7859434693988387 -0.05351259556001436 0.7859434693988387 -0.009698398862135022 0.008042396261966045
2370.0 0.012728810478021121 -0.036313469739720744 -0.03812954503227146 0.7868279221872155 -0.03812954503227146 0.7868279221872155 -0.0095151578906379 0.008282402085695318
2380.0 0.012012382250599382 -0.03681736828482288 -0.022732983572703792 0.7874113657529409 -0.022732983572703792 0.7874113657529409 -0.009326466481996615 0.008517746077299026
2390.0 0.011292354417878835 -0.03729969835541773 -0.007328798037942862 0.7876936400488439 -0.007328798037942862 0.7876936400488439 -0.00913276139848119 0.00874851496572132
2400.0 0.010568983612690366 -0.03776026853716038 0.008077078633484412 0.787674649542675 0.008077078633484412 0.787674649542675 -0.008933961832132476 0.008974634813911206
2410.0 0.009842971071909755 -0.038199175258924196 0.023426865968846217 0.7856143985610939 0.023426865968846217 0.7856143985610939 -0.008691335576926923 0.00915588701720739
2420.0 0.009114670904699832 -0.03861599345723745 0.03869856072860052 0.7832563843014588 0.03869856072860052 0.7832563843014588 -0.00844593161358143 0.009330518385924042
2430.0 0.008384578864055772 -0.0390107711131233 0.05388646744825965 0.7806029195668115 0.05388646744825965 0.7806029195668115 -0.008197769444746357 0.009498713748580044
2440.0 0.007653388675095151 -0.03938342449885321 0.06898481890587392 0.777656367678359 0.06898481890587392 0.777656367678359 -0.007947221825977431 0.009660518872794064
2450.0 0.006921224616406076 -0.03973385700856 0.08398798000929998 0.7744192749573149 0.08398798000929998 0.7744192749573149 -0.007694511634993667 0.009815981087322819
2460.0 0.00618868481634972 -0.040062010190457235 0.09893927113642209 0.7712745775533857 0.09893927113642209 0.7712745775533857 -0.007446972559058347 0.009974864573429446
2470.0 0.005456327082353319 -0.04036809671168808 0.11379916178602938 0.7678424537558342 0.11379916178602938 0.7678424537558342 -0.007197040955950843 0.010127792962257742
2480.0 0.004724310091588673 -0.040651746338379 0.1285622188298229 0.7641252398331351 0.1285622188298229 0.7641252398331351 -0.00694484160055167 0.010274942474180449
2490.0 0.003993434946612419 -0.040913208092452316 0.1432229939866862 0.7601254624653876 0.1432229939866862 0.7601254624653876 -0.006690423662525553 0.01041632444395275
2500.0 0.0032639208569740937 -0.041152507114546516 0.1577760898059931 0.7558456767645356 0.1577760898059931 0.7558456767645356 -0.006434080496208444 0.01055192521428091
2510.0 0.002536282505998962 -0.04136955159603715 0.1725668409051204 0.7528186292837908 0.1725668409051204 0.7528186292837908 -0.006201461738049608 0.010724953148517112
2520.0 0.0018107453411696508 -0.04156460581101527 0.18729892948200522 0.7495022317318099 0.18729892948200522 0.7495022317318099 -0.005965023350241501 0.010893585148184335
2530.0 0.0010877025163028738 -0.04173769008693334 0.20196664468316855 0.7458976737564272 0.20196664468316855 0.7458976737564272 -0.005724903385864872 0.01105809777977521
2540.0 0.0003675729726157779 -0.041888705958079996 0.21656435576372204 0.7420062043786801 0.21656435576372204 0.7420062043786801 -0.005481063082160704 0.011217952556264555
2550.0 -0.00034919777405628704 -0.042017959897247444 0.23108652373840755 0.7378291644718163 0.23108652373840755 0.7378291644718163 -0.005233676631870419 0.011373636670006619
2560.0 -0.001062020409406386 -0.04212563963306921 0.24547893249705094 0.7332231431059505 0.24547893249705094 0.7332231431059505 -0.004980581442316045 0.011520290132646613
2570.0 -0.0017711789403162272 -0.042211507527266205 0.25977899572039426 0.7283366369758942 0.25977899572039426 0.7283366369758942 -0.004724176287479225 0.011662667123734413
2580.0 -0.002475796667661479 -0.04227589932826447 0.2739812782285588 0.7231715064828892 0.2739812782285588 0.7231715064828892 -0.0044646489842824115 0.011800252841245008
2590.0 -0.0031756262030260794 -0.042318990818756654 0.28808020407287094 0.7177297650057465 0.28808020407287094 0.7177297650057465 -0.004202000285820568 0.011933507664127003
2600.0 -0.003870379483121079 -0.042340842577428414 0.3020706206669901 0.7120134051312544 0.3020706206669901 0.7120134051312544 -0.0039360214131853085 0.012062261349503048
2610.0 -0.004559821645486094 -0.04234160328368166 0.31518244265070877 0.7043162193356448 0.31518244265070877 0.7043162193356448 -0.0036490608888429935 0.012128390537511725
2620.0 -0.005243432164832515 -0.042321516522797836 0.3281087916391528 0.6963799877681685 0.3281087916391528 0.6963799877681685 -0.0033618140498046078 0.012188810992696137
2630.0 -0.00592089595756869 -0.04228071191671592 0.3408454411543059 0.6882090340258347 0.3408454411543059 0.6882090340258347 -0.003074259792035642 0.012243970122640323
2640.0 -0.0065921600340302046 -0.04221939821043671 0.3533880362820329 0.6798077743041205 0.3533880362820329 0.6798077743041205 -0.0027864427040321126 0.012294026458356502
2650.0 -0.007256571802819009 -0.042137667788565196 0.36573257220775396 0.6711806558982216 0.36573257220775396 0.6711806558982216 -0.002498828069514333 0.012338585463189482
2660.0 -0.007913979942477377 -0.0420359140457272 0.3789554612896695 0.6642259924863942 0.3789554612896695 0.6642259924863942 -0.0022243141151031365 0.012447617930654591
2670.0 -0.008564104971217212 -0.041914304645657346 0.3920455796642751 0.6570110371521608 0.3920455796642751 0.6570110371521608 -0.0019474594499004777 0.012553444624971951
2680.0 -0.009206541314162993 -0.04177304352047693 0.40499776214195515 0.6495383215072552 0.40499776214195515 0.6495383215072552 -0.001668207225103169 0.012655412284913495
2690.0 -0.009841245701738085 -0.04161234420845218 0.41780693680094905 0.6418105315770724 0.41780693680094905 0.6418105315770724 -0.0013856755769193385 0.012752701014935591
2700.0 -0.01046778428088735 -0.041432526506147684 0.43046812965869286 0.6338303626321488 0.43046812965869286 0.6338303626321488 -0.0011014831108815946 0.012844630830137791
2710.0 -0.011085802516774906 -0.0412339196673758 0.4437476348298108 0.6266899555926043 0.4437476348298108 0.6266899555926043 -0.0008184929714817684 0.012976318332923377
2720.0 -0.011695154479708054 -0.04101668332132361 0.45691119404340286 0.6192721124470206 0.45691119404340286 0.6192721124470206 -0.0005312596217620794 0.013102130442635735
2730.0 -0.012295546409367305 -0.040781124284252616 0.4699531087980857 0.611578618558032 0.4699531087980857 0.611578618558032 -0.00024025679919376612 0.013224011991191826
2740.0 -0.012886757871466809 -0.040527638311153975 0.4828675631376017 0.6036114340374693 0.4828675631376017 0.6036114340374693 5.524202914494354e-05 0.013341200702832583
2750.0 -0.013468450604084801 -0.04025630942621844 0.49564879309877063 0.5953726925918709 0.49564879309877063 0.5953726925918709 0.00035591967349557957 0.013453868695824737
2760.0 -0.014040581185724344 -0.03996767601411282 0.5045444945121311 0.5825385364986317 0.5045444945121311 0.5825385364986317 0.0006515375150538445 0.013364880035106524
2770.0 -0.014603016638445161 -0.03966164217613398 0.5131293914279386 0.5695867518657596 0.5131293914279386 0.5695867518657596 0.0009422677571420104 0.013272035390437125
2780.0 -0.015155204323824618 -0.039338978582648426 0.5214023844400393 0.5565243701732051 0.5214023844400393 0.5565243701732051 0.001224999574070784 0.013175885851198178
2790.0 -0.015697336570924026 -0.03899989223371287 0.5293624928201002 0.5433586957923487 0.5293624928201002 0.5433586957923487 0.0014987251939836297 0.013074454323579031
2800.0 -0.01622895531083664 -0.03864473234954675 0.5370089246643587 0.5300968603170773 0.5370089246643587 0.5300968603170773 0.001765539712103313 0.012965188535155858
2810.0 -0.016749987398499873 -0.03827364034014193 0.5458282917884666 0.5181580161365094 0.5458282917884666 0.5181580161365094 0.002032913163546293 0.012915550034624789
2820.0 -0.017260211439662144 -0.03788735501134668 0.5543867786688093 0.5060783462012984 0.5543867786688093 0.5060783462012984 0.0022984006660240557 0.01286383010198753
2830.0 -0.017759238409474853 -0.03748586647006018 0.5626823555157362 0.49386352730750477 0.5626823555157362 0.49386352730750477 0.0025645941710483893 0.012798755145151362
2840.0 -0.018247363137535947 -0.03706968496711967 0.5707130597283088 0.4815190739692611 0.5707130597283088 0.4815190739692611 0.002829723506614604 0.012724689430008764
2850.0 -0.018724154787705644 -0.03663932021858239 0.5784769281384955 0.4690508130026061 0.5784769281384955 0.4690508130026061 0.0030938756408743938 0.012643274737948471
2860.0 -0.01918936509090488 -0.03619494187525014 0.5916388952862629 0.4608785598482699 0.5916388952862629 0.4608785598482699 0.003422093446175191 0.012797224922121424
2870.0 -0.019642981227287592 -0.035736873693263796 0.6046989669224827 0.4523695377460287 0.6046989669224827 0.4523695377460287 0.0037588170158722443 0.012947520820069995
2880.0 -0.020085043935513355 -0.0352657908171526 0.6176489318238078 0.4435247286621755 0.6176489318238078 0.4435247286621755 0.004105845010967585 0.013089318484573186
2890.0 -0.020515228640940984 -0.034781661309897315 0.6304806705292944 0.43434522478362614 0.6304806705292944 0.43434522478362614 0.0044608468932728134 0.013222324719510724
2900.0 -0.02093345891964788 -0.034285210715446386 0.6431859791641054 0.4248323230705672 0.6431859791641054 0.4248323230705672 0.004826374258165313 0.013348295814940864
2910.0 -0.021339601052931374 -0.03377676328253698 0.6486849886483337 0.41051231180855896 0.6486849886483337 0.41051231180855896 0.005092876530015556 0.013178327771963863
2920.0 -0.021733713895941573 -0.03325650661463119 0.6538716551676025 0.39614125586804455 0.6538716551676025 0.39614125586804455 0.005354564713876058 0.013000654226859884
2930.0 -0.02211564922559076 -0.03272504653398867 0.6587461809680386 0.3817258420982443 0.6587461809680386 0.3817258420982443 0.005610915989712506 0.012813634411726732
2940.0 -0.022485311580303813 -0.0321827320289775 0.6633087735001825 0.36727277900096633 0.6633087735001825 0.36727277900096633 0.005862900709737582 0.012620699053198101
2950.0 -0.022842670962674592 -0.03162976869592848 0.6675599357683174 0.3527886557950175 0.6675599357683174 0.3527886557950175 0.006108731333574176 0.012420918994427354
2960.0 -0.02318771050523551 -0.03106692817183678 0.676896157264834 0.3409984672376867 0.676896157264834 0.3409984672376867 0.006450885006178327 0.012410296930687346
2970.0 -0.023520220043838785 -0.030494210263443407 0.6860244329322639 0.32897799862691407 0.6860244329322639 0.32897799862691407 0.006795786252099791 0.01238798926180038
2980.0 -0.023840273510351916 -0.029912194394934855 0.6949392880712026 0.3167308986846622 0.6949392880712026 0.3167308986846622 0.007145095378130583 0.012356486822859806
2990.0 -0.024147712560812464 -0.029321389563590438 0.7036353241339831 0.3042610150016546 0.7036353241339831 0.3042610150016546 0.007497057930385005 0.012312724328001855
3000.0 -0.024442799833360004 -0.02872198411888192 0.7121072892300355 0.2915722335658544 0.7121072892300355 0.2915722335658544 0.007850558350900476 0.012256609656456427
3010.0 -0.024725227622139686 -0.028114486036609966 0.71751248802033 0.2775709591840594 0.71751248802033 0.2775709591840594 0.008144492542300638 0.012096038364589293
3020.0 -0.02499504561042565 -0.027499308654720923 0.722642354216606 0.26347045939990243 0.722642354216606 0.26347045939990243 0.008433980057801136 0.01192689081302165
3030.0 -0.02525224081042267 -0.02687672486633439 0.7274951806401827 0.24927607830309717 0.7274951806401827 0.24927607830309717 0.00872052599770168 0.011746614019782341
3040.0 -0.025496882469813742 -0.026247287872769413 0.7320691840317257 0.23499341488420217 0.7320691840317257 0.23499341488420217 0.00900471921561113 0.011558005800448273
3050.0 -0.025728876049540085 -0.025611391229776462 0.7363628526015933 0.22062772688434915 0.7363628526015933 0.22062772688434915 0.009284825565468518 0.0113616208476854
3060.0 -0.025948374849849413 -0.024969389420181533 0.7376825592144964 0.20543504608250934 0.7376825592144964 0.20543504608250934 0.009492324770708658 0.011076717115442856
3070.0 -0.026155267720390396 -0.02432171803225725 0.7386917679304259 0.1902759164430377 0.7386917679304259 0.1902759164430377 0.009693584673328018 0.010786602670084904
3080.0 -0.02634968349857782 -0.02366865814039192 0.7393922238284867 0.17515665501893443 0.7393922238284867 0.17515665501893443 0.009887214210012495 0.010491987166963805
3090.0 -0.026531567906142455 -0.023010682880680228 0.7397859303310218 0.16008359581779028 0.7397859303310218 0.16008359581779028 0.010073572839575766 0.010192719676913785
3100.0 -0.026700919320880062 -0.02234820305830848 0.7398749324432549 0.14506284199861183 0.7398749324432549 0.14506284199861183 0.010249603636335477 0.009889945129650373
3110.0 -0.02685787336755405 -0.021681578973577857 0.7424109012360959 0.13058402345308834 0.7424109012360959 0.13058402345308834 0.01049235203723799 0.009653416624477997
3120.0 -0.027002612590988524 -0.021011161729792626 0.7446636373326991 0.11606213231790986 0.7446636373326991 0.11606213231790986 0.010730790688056751 0.009409088287571714
3130.0 -0.02713484984324765 -0.020337311536450544 0.7466324771801444 0.10150273384980824 0.7466324771801444 0.10150273384980824 0.010964216690953913 0.009156221881495018
3140.0 -0.02725506972217276 -0.019660575368599283 0.748316783938136 0.08691124179851964 0.748316783938136 0.08691124179851964 0.011191161246220183 0.008894472424517252
3150.0 -0.02736300726364017 -0.018981118851915398 0.7497160854968261 0.0722932891039452 0.7497160854968261 0.0722932891039452 0.011412276391493384 0.008623900032525634
