!Created with skrf (http://scikit-rf.org).
# MHz S RI R 50.0 
!freq ReS11 ImS11 ReS21 ImS21 ReS12 ImS12 ReS22 ImS22
2000.0 0.022026581665304065 0.020077746739888967 -0.571857406872879 0.5797625203860607 -0.571857406872879 0.5797625203860607 0.0033026234981796965 -0.019367594649467516
2010.0 0.02213421144908973 0.019202083681691618 -0.5589883767066888 0.5893617755515025 -0.5589883767066888 0.5893617755515025 0.0028744697821314366 -0.01940449646764433
2020.0 0.02222510541330112 0.01832270603781248 -0.5459642181852159 0.59868024874409 -0.5459642181852159 0.59868024874409 0.002445866688618448 -0.019429508701138964
2030.0 0.02229959371834975 0.017440466780959462 -0.5327909469000799 0.6077155921043925 -0.5327909469000799 0.6077155921043925 0.002017562046105516 -0.019442678229943992
2040.0 0.022357654571346072 0.016555817582146654 -0.5194746603884477 0.6164655348861299 -0.5194746603884477 0.6164655348861299 0.0015896155644896774 -0.01944404714804366
2050.0 0.022399254620928493 0.0156695820769196 -0.5060214579361664 0.6249279890067057 -0.5060214579361664 0.6249279890067057 0.001162440880056397 -0.019433824035518552
2060.0 0.022425042337360517 0.014782331301543305 -0.4924010502198646 0.6330540649967373 -0.4924010502198646 0.6330540649967373 0.0007362488044659394 -0.01940911208218448
2070.0 0.022434549562491996 0.013894804255318584 -0.4786577499364536 0.6408875068029534 -0.4786577499364536 0.6408875068029534 0.00031160512535811073 -0.01937289568326503
2080.0 0.022428311358427638 0.01300749275128349 -0.46479796879245067 0.6484264927781489 -0.46479796879245067 0.6484264927781489 -0.00011125413422451371 -0.019325472656717437
2090.0 0.022406574750159634 0.012121081019047823 -0.45082787635256494 0.6556695453530139 -0.45082787635256494 0.6556695453530139 -0.0005319045311121356 -0.01926677849776251
2100.0 0.022369277950185895 0.011236154282306197 -0.4367537059530693 0.6626152655626586 -0.4367537059530693 0.6626152655626586 -0.0009499060181020621 -0.019197010776574416
2110.0 0.022316613194572125 0.010353320293548025 -0.4233917279128307 0.670545336039702 -0.4233917279128307 0.670545336039702 -0.001370699725681314 -0.019190021369565675
2120.0 0.022248942102797483 0.009473222756782019 -0.40988748045043566 0.6782063389763097 -0.40988748045043566 0.6782063389763097 -0.0017917772202114047 -0.01917206657170678
2130.0 0.022166375043812324 0.008596393774500423 -0.3962462366450392 0.6855958558627638 -0.3962462366450392 0.6855958558627638 -0.0022126075604944856 -0.019143259285275896
2140.0 0.02206920462921016 0.007723440328158619 -0.382473557387516 0.6927113921594672 -0.382473557387516 0.6927113921594672 -0.0026330923923192826 -0.01910339114719427
2150.0 0.02195744965833809 0.006855146162557445 -0.3685748238401622 0.6995507025860248 -0.3685748238401622 0.6995507025860248 -0.003052801288505644 -0.01905257466381937
2160.0 0.02183158662469957 0.005991868523822867 -0.3548529562638185 0.7067036719075341 -0.3548529562638185 0.7067036719075341 -0.0034775726784568774 -0.019022875164648848
2170.0 0.021691770523196593 0.005134058582994286 -0.34099282062639447 0.7135872997071869 -0.34099282062639447 0.7135872997071869 -0.0039024673038205817 -0.018982146327674535
2180.0 0.021538188015922777 0.0042826399596956255 -0.32699975311430124 0.7201988918042957 -0.32699975311430124 0.7201988918042957 -0.004327239816273999 -0.018930253595995872
2190.0 0.0213711039010935 0.003437862206377998 -0.31287896916280944 0.7265359456361401 -0.31287896916280944 0.7265359456361401 -0.004751671712866929 -0.01886730873392473
2200.0 0.021190807164394587 0.0026002593981675213 -0.29863594796810133 0.7325959688140711 -0.29863594796810133 0.7325959688140711 -0.005175396758630089 -0.018793147181361533
2210.0 0.020997546467522745 0.0017705173672843979 -0.2852302738076339 0.7408547526570158 -0.2852302738076339 0.7408547526570158 -0.0056365111057927455 -0.01883449418248798
2220.0 0.020791557660743545 0.0009490516524098831 -0.2716155641427912 0.7488674284300112 -0.2716155641427912 0.7488674284300112 -0.006102177755470277 -0.018863687880135413
2230.0 0.020573231507900993 0.0001363514604694974 -0.257796468222068 0.7566289412396336 -0.257796468222068 0.7566289412396336 -0.0065721996904198636 -0.01888054662102296
2240.0 0.02034272175393 -0.0006671002797031468 -0.24377761767062506 0.7641343560872418 -0.24377761767062506 0.7641343560872418 -0.007046086712940851 -0.018884878183864636
2250.0 0.02010036511103633 -0.0014608669634319869 -0.22956378967319246 0.7713788284705729 -0.22956378967319246 0.7713788284705729 -0.007523653209811761 -0.01887668132117168
2260.0 0.01984634924146011 -0.002244237278985963 -0.21359935763525037 0.7727122073929487 -0.21359935763525037 0.7727122073929487 -0.00788757474668014 -0.018581493061224297
2270.0 0.01958110851243208 -0.003017006180770831 -0.19767176892081298 0.7737183535638146 -0.19767176892081298 0.7737183535638146 -0.008242040593874353 -0.018278041399479535
2280.0 0.019305038623997184 -0.0037787459597193977 -0.1817877379114602 0.7743992387195308 -0.1817877379114602 0.7743992387195308 -0.008587218501461259 -0.017966525030372157
2290.0 0.019018099774667837 -0.004528993184216735 -0.16595385245809594 0.7747569482478729 -0.16595385245809594 0.7747569482478729 -0.008922759003295784 -0.01764737373711637
2300.0 0.018720813211145486 -0.005267155707684377 -0.1501765624569195 0.7747937556785878 -0.1501765624569195 0.7747937556785878 -0.00924856805377138 -0.017320977822403428
2310.0 0.018413510143942494 -0.005993072628021529 -0.13525008436511624 0.7790494572245137 -0.13525008436511624 0.7790494572245137 -0.009677897665340216 -0.017188046019574216
2320.0 0.01809656350616143 -0.006706175355950049 -0.12021508605519002 0.7830165593483532 -0.12021508605519002 0.7830165593483532 -0.01010602402308497 -0.017043010525421665
2330.0 0.017770259180943996 -0.007406321556407291 -0.10507718296032295 0.7866924749324942 -0.10507718296032295 0.7866924749324942 -0.010532312498662377 -0.01688578656938641
2340.0 0.017434933935306422 -0.008092735210198565 -0.08984191077401403 0.7900746644240384 -0.08984191077401403 0.7900746644240384 -0.01095684690104256 -0.016716214429709022
2350.0 0.017090904221046088 -0.008765516430299897 -0.07451514372186985 0.7931607477953856 -0.07451514372186985 0.7931607477953856 -0.01137885113485555 -0.01653426556236845
2360.0 0.016738465479334278 -0.009424064738746225 -0.05894560437158276 0.7938328996830507 -0.05894560437158276 0.7938328996830507 -0.011735050910955927 -0.01625267265998438
2370.0 0.0163779649130818 -0.010068115810365394 -0.04337890300650496 0.7941999233427329 -0.04337890300650496 0.7941999233427329 -0.012084022841354979 -0.01596162465903712
2380.0 0.016009874483046554 -0.010697314541931402 -0.0278211229937621 0.7942621922972608 -0.0278211229937621 0.7942621922972608 -0.012425716292196829 -0.015660901239828495
2390.0 0.01563443596805636 -0.011311417110641932 -0.012278195147543065 0.7940202086835786 -0.012278195147543065 0.7940202086835786 -0.012759589327825843 -0.015351081436890396
2400.0 0.015251887542359352 -0.01191018448218955 0.0032439245009900338 0.7934745922131711 0.0032439245009900338 0.7934745922131711 -0.013085523938447865 -0.015031998306047374
2410.0 0.014862876921434629 -0.01249336131408233 0.018712602751704294 0.7914952033515473 0.018712602751704294 0.7914952033515473 -0.013364637023146646 -0.01466175169844385
2420.0 0.014467747888869738 -0.013060442377534764 0.03410445773772297 0.7892156323132788 0.03410445773772297 0.7892156323132788 -0.01363352392290092 -0.014284915621405452
2430.0 0.014066461839402468 -0.01361156798746614 0.04941364957012509 0.7866381369987451 0.04941364957012509 0.7866381369987451 -0.013891891754756103 -0.013901515062265918
2440.0 0.013659840546803127 -0.014146482350485828 0.06463448610271656 0.7837650736761602 0.06463448610271656 0.7837650736761602 -0.014139633851467511 -0.013511738944693723
2450.0 0.013247978231158109 -0.014664644754321679 0.07976125262822681 0.7805989490582519 0.07976125262822681 0.7805989490582519 -0.014376218969923346 -0.013116103689588387
2460.0 0.012831451230031612 -0.015166310711562835 0.0949895787209887 0.7787921415209501 0.0949895787209887 0.7787921415209501 -0.014664420432595532 -0.012769261539538487
2470.0 0.012410487404283512 -0.01565104390443839 0.1101770097974346 0.776688456571189 0.1101770097974346 0.776688456571189 -0.014943390245106073 -0.01241400863257726
2480.0 0.011985477371121147 -0.016118809098142596 0.12531779487967204 0.7742888258116583 0.12531779487967204 0.7742888258116583 -0.01521296211651614 -0.012050355924857908
2490.0 0.011556960636214145 -0.0165695023755533 0.1404060870442367 0.7715943031202817 0.1404060870442367 0.7715943031202817 -0.01547312831123878 -0.011678974172663233
2500.0 0.011125020134581085 -0.01700291860457778 0.15543617816729707 0.7686059985969805 0.15543617816729707 0.7686059985969805 -0.015723205109625164 -0.01129966755081961
2510.0 0.01069036285661573 -0.017419160111469635 0.17018804789582484 0.7643627280004963 0.17018804789582484 0.7643627280004963 -0.015922715626248703 -0.010885345006323087
2520.0 0.01025306717970612 -0.017818198091550615 0.1848327813189761 0.7598374287189862 0.1848327813189761 0.7598374287189862 -0.01611044691687265 -0.010465699719052939
2530.0 0.009813619505326719 -0.01819975398767083 0.19936515889873263 0.7550326284179664 0.19936515889873263 0.7550326284179664 -0.01628662499067345 -0.010041337521359635
2540.0 0.00937239772248525 -0.018563966181204403 0.21377970499892407 0.7499510551407077 0.21377970499892407 0.7499510551407077 -0.01645076702832572 -0.009612491655677848
2550.0 0.008929661453054653 -0.01891090719921036 0.22807136941497028 0.7445954246948018 0.22807136941497028 0.7445954246948018 -0.016602763484924017 -0.009179497338819792
2560.0 0.008485765181535695 -0.019240541652226443 0.24270017644288386 0.7403887095257864 0.24270017644288386 0.7403887095257864 -0.016807202592002985 -0.008776540486375847
2570.0 0.008041022911897415 -0.019552850151518503 0.2572509197902115 0.7358945394905648 0.2572509197902115 0.7358945394905648 -0.017000480598951036 -0.008367177285188704
2580.0 0.007595755416928973 -0.019847830217162528 0.27171780505982734 0.7311144662300504 0.27171780505982734 0.7311144662300504 -0.01718213197222918 -0.007951550005945914
2590.0 0.00715028920853289 -0.020125518734291015 0.28609517165887394 0.7260500403682665 0.28609517165887394 0.7260500403682665 -0.01735216511125785 -0.007529934662452808
2600.0 0.006704875406670505 -0.020386266146653974 0.3003775653732305 0.7207028979302403 0.3003775653732305 0.7207028979302403 -0.01751023517414719 -0.00710266554816009
2610.0 0.0062595889684337 -0.02062987228294747 0.31413052640344663 0.7141000958345507 0.31413052640344663 0.7141000958345507 -0.01760743856389995 -0.006651773938147286
2620.0 0.005815064422274883 -0.020856384771016777 0.327739597757784 0.7072357700870623 0.327739597757784 0.7072357700870623 -0.017691689941619387 -0.006198417691861443
2630.0 0.005371241053202302 -0.021065982185081523 0.3411998800422279 0.7001130192415514 0.3411998800422279 0.7001130192415514 -0.017762573018801815 -0.0057429445157479095
2640.0 0.004928468869341975 -0.021258965171225244 0.35450646306427314 0.6927350426368842 0.35450646306427314 0.6927350426368842 -0.017820187119214435 -0.00528589484858292
2650.0 0.004486942485100706 -0.02143511223432032 0.3676545352472699 0.6851051754964742 0.3676545352472699 0.6851051754964742 -0.017864461245743275 -0.00482778302998633
2660.0 0.004047029381386146 -0.021594669802193472 0.38002680492951396 0.6761368080551269 0.38002680492951396 0.6761368080551269 -0.01783744753509056 -0.004354412210855267
2670.0 0.0036088516601617397 -0.02173783549170474 0.3921890004350791 0.6669480971028001 0.3921890004350791 0.6669480971028001 -0.017796673779548255 -0.0038839154136591256
2680.0 0.003172538093379722 -0.021864494396659117 0.40413729567461043 0.6575438252945889 0.40413729567461043 0.6575438252945889 -0.017742527828750045 -0.003416504037062883
2690.0 0.0027384622366262226 -0.021975044882584175 0.41586804905096414 0.6479287965269351 0.41586804905096414 0.6479287965269351 -0.0176748893585611 -0.0029526833120227863
2700.0 0.0023069123626127054 -0.02206954006186738 0.42737744982999226 0.6381079478719125 0.42737744982999226 0.6381079478719125 -0.017593982257623528 -0.0024928917590034245
2710.0 0.001877937430913271 -0.022147855907474555 0.44070138330408043 0.631006006041468 0.44070138330408043 0.631006006041468 -0.017663844924496103 -0.002057515698917792
2720.0 0.0014516111809250234 -0.0222104013314632 0.4539095003993895 0.6236265444591377 0.4539095003993895 0.6236265444591377 -0.017720255331975316 -0.0016187932769919102
2730.0 0.0010283990160034253 -0.02225730197323541 0.4669961243988372 0.6159712943978551 0.4669961243988372 0.6159712943978551 -0.017762942182371656 -0.0011772536911866577
2740.0 0.0006085991850839086 -0.02228869969976558 0.4799554336052838 0.6080422820472008 0.4799554336052838 0.6080422820472008 -0.017791871623717433 -0.0007332460735932232
2750.0 0.00019204259337273318 -0.022304476717207884 0.4927817803971065 0.5998415700062493 0.4927817803971065 0.5998415700062493 -0.01780668298966486 -0.0002873425141936558
2760.0 -0.0002208190538437659 -0.022305180924494704 0.5032743745828296 0.5888032951526213 0.5032743745828296 0.5888032951526213 -0.017652149242943654 0.0001594445332351573
2770.0 -0.0006300023283986514 -0.022290638798178858 0.5135240672338728 0.5775853184423018 0.5135240672338728 0.5775853184423018 -0.01748478847711767 0.000599482449004866
2780.0 -0.0010352109642663857 -0.02226148293440615 0.5235278571318576 0.5661929915870789 0.5235278571318576 0.5661929915870789 -0.017305243447880203 0.0010323183610157507
2790.0 -0.001436209047203629 -0.022217325437473175 0.533282893367816 0.5546315544092034 0.533282893367816 0.5546315544092034 -0.017113411884123093 0.0014574989815034003
2800.0 -0.0018328747079418154 -0.022158794828745512 0.5427864169656712 0.5429064136750841 0.5427864169656712 0.5429064136750841 -0.016909620244436048 0.0018745773981508126
2810.0 -0.0022251384578602373 -0.02208590546344614 0.5532475054232997 0.5321884948768285 0.5532475054232997 0.5321884948768285 -0.01676831303566063 0.002292754289163374
2820.0 -0.0026125388649542816 -0.02199892151273225 0.5634963874006894 0.5212696373562041 0.5634963874006894 0.5212696373562041 -0.016614127261080153 0.0027056686124655336
2830.0 -0.002995155774853431 -0.021898027626600876 0.5735293602290426 0.5101539119425879 0.5735293602290426 0.5101539119425879 -0.01644721426040469 0.003112778319924548
2840.0 -0.003372944219886865 -0.02178354354161098 0.5833426032076324 0.4988457081850763 0.5833426032076324 0.4988457081850763 -0.01626802575571154 0.0035137832744486556
2850.0 -0.003745385347989679 -0.021655360726984985 0.5929324097691994 0.4873493139948404 0.5929324097691994 0.4873493139948404 -0.016076724654286775 0.0039079939485111344
2860.0 -0.004112585328618615 -0.02151412032257671 0.60222866012472 0.4756166499034714 0.60222866012472 0.4756166499034714 -0.015869768585211174 0.004294402625961456
2870.0 -0.004474341916717081 -0.02135984513596799 0.6112923896919789 0.46370734737407904 0.6112923896919789 0.46370734737407904 -0.01565093202702408 0.0046729125842618026
2880.0 -0.004830460855131975 -0.02119265078056912 0.6201202144165345 0.45162609921790225 0.6201202144165345 0.45162609921790225 -0.015420819013717536 0.005043433250820758
2890.0 -0.005180844551773093 -0.02101311882178781 0.6287089731001818 0.4393774250193572 0.6287089731001818 0.4393774250193572 -0.01517972097429946 0.005405270124533594
2900.0 -0.005525337510295411 -0.02082109806490423 0.6370554044660112 0.4269661970406797 0.6370554044660112 0.4269661970406797 -0.014927774349227405 0.005758254199143073
2910.0 -0.005863974678166428 -0.020617141634343732 0.6451329481066163 0.41438197020594175 0.6451329481066163 0.41438197020594175 -0.014664102457933606 0.006101379688126891
2920.0 -0.006196412397929975 -0.020401453831596198 0.6529616199749477 0.4016457704224664 0.6529616199749477 0.4016457704224664 -0.01439041364257208 0.006434849364045217
2930.0 -0.006522618774365552 -0.020174078234271475 0.6605385384657095 0.38876245226910155 0.6605385384657095 0.38876245226910155 -0.014106989014297234 0.006758131396906974
2940.0 -0.006842532948101806 -0.019935479543604747 0.6678609814279522 0.3757370287319048 0.6678609814279522 0.3757370287319048 -0.013814260105409388 0.007071167493804758
2950.0 -0.007155964830474206 -0.019685849596299515 0.6749262703661798 0.3625744776761538 0.6749262703661798 0.3625744776761538 -0.013512308619604965 0.007373091150521028
2960.0 -0.007462927808116195 -0.01942553586077975 0.6825654254971601 0.3497069500050385 0.6825654254971601 0.3497069500050385 -0.013234341175345792 0.007682588913830888
2970.0 -0.007763125420079199 -0.019154688342766558 0.6899584715664808 0.3366797520538401 0.6899584715664808 0.3366797520538401 -0.012946504906804683 0.007981910188950107
2980.0 -0.008056640330693005 -0.018873665976413143 0.6971021043892329 0.32349757844847776 0.6971021043892329 0.32349757844847776 -0.012649512628149976 0.008270964438029587
2990.0 -0.008343287643601151 -0.018582611292618314 0.7039930840012107 0.3101652010672713 0.7039930840012107 0.3101652010672713 -0.012343273804191214 0.008549227581527237
3000.0 -0.008623201390075975 -0.01828210532802934 0.7106283004849269 0.2966875107921155 0.7106283004849269 0.2966875107921155 -0.012028705934688534 0.008816307768309179
3010.0 -0.008896118801774528 -0.017972080291783914 0.7159330304008915 0.28264625131154303 0.7159330304008915 0.28264625131154303 -0.011670615536945428 0.00904521004099231
3020.0 -0.009161960130928768 -0.017652917903605583 0.7209602890495977 0.26851167311267204 0.7209602890495977 0.26851167311267204 -0.011306984306487751 0.009261075478036911
3030.0 -0.009420766496721938 -0.017324994191334136 0.7257084609861346 0.2542892157028521 0.7257084609861346 0.2542892157028521 -0.01093828729070201 0.009463507384109547
3040.0 -0.009672330622563008 -0.016988508775304414 0.7301760627330118 0.23998440178782798 0.7301760627330118 0.23998440178782798 -0.010564768052711322 0.009652488304083677
3050.0 -0.009916689602395137 -0.016643786771516556 0.7343617180135815 0.22560272193508943 0.7343617180135815 0.22560272193508943 -0.010187217297507194 0.00982781398448074
3060.0 -0.010153753419477714 -0.016291201145396693 0.7370129567706806 0.21079192397640104 0.7370129567706806 0.21079192397640104 -0.009772270393431388 0.0099558800620867
3070.0 -0.010383617325995673 -0.01593095002800826 0.739366744963948 0.19596443456453755 0.739366744963948 0.19596443456453755 -0.009356666807734068 0.01006887800686274
3080.0 -0.010606200561675978 -0.015563217496022626 0.7414234737774578 0.1811261483635199 0.7414234737774578 0.1811261483635199 -0.008940858382670946 0.010167376287396036
3090.0 -0.01082119140972363 -0.015188423788962176 0.7431836191131065 0.16628309193674018 0.7431836191131065 0.16628309193674018 -0.00852553301579899 0.010250857473690592
3100.0 -0.01102867597569111 -0.014806863525868687 0.7446477936922592 0.15144107199974843 0.7446477936922592 0.15144107199974843 -0.008110828592308415 0.01032017977710113
3110.0 -0.011228765726699598 -0.014418792945516295 0.7463935244736538 0.13671158909748982 0.7463935244736538 0.13671158909748982 -0.007709852259477367 0.010391003450887481
3120.0 -0.011421602781087652 -0.014024356747174102 0.7478485444249962 0.12197231687832213 0.7478485444249962 0.12197231687832213 -0.0073098264108665155 0.01044792723478674
3130.0 -0.011606730720547504 -0.013624044616596493 0.7490131712822651 0.1072290031047111 0.7490131712822651 0.1072290031047111 -0.006911010276302432 0.010490813508245036
3140.0 -0.011784364945976353 -0.013218001836781672 0.7498877666881062 0.09248731939756685 0.7498877666881062 0.09248731939756685 -0.006514211393038087 0.010520118732031921
3150.0 -0.01195455006620135 -0.012806614432029463 0.7504729180782364 0.07775289373861224 0.7504729180782364 0.07775289373861224 -0.00611984970493541 0.010535630879787655
