!Created with skrf (http://scikit-rf.org).
# Hz S DB R 50.0 
!freq dBS11 angS11 dBS21 angS21 dBS12 angS12 dBS22 angS22
1000000000.0 -22.298128255952182 -108.97575348566885 -1.4093563545055685 -173.89287838880045 -1.4069484982880165 -173.25263697211165 -27.19363512787977 -94.35277660955467
1025000000.0 -19.816900231053832 138.14094970568237 -0.969544152983528 76.31840940011368 -0.9707858015799266 76.92817956190592 -22.85522926974435 128.33881633342108
1050000000.0 -30.43909851116262 -7.60747898238571 -0.8757226299185656 -34.24188516664571 -0.7769844193722781 -33.82441679742311 -33.68829635875923 -134.87279047186706
1075000000.0 -26.74302016857324 -94.43296406436625 -1.2619106952021055 -143.62321935750435 -1.1499778828873861 -143.72013021901077 -38.124417599427275 23.01051115762018
1100000000.0 -20.810767153048143 177.1350897170085 -1.6678613354653757 108.75344628817284 -1.5989009890482757 108.26652025928082 -25.002014796563756 172.7825201760213
1125000000.0 -37.6243751830173 80.42890925646633 -2.025977525256965 4.597485755012594 -1.9524376942775732 3.84811138893466 -37.00659980200696 9.495099584227562
1150000000.0 -38.53143932071812 148.32891730890893 -1.8101028137738693 -100.98741951927896 -1.8320552794842322 -101.36362072385657 -33.55768170013347 -123.85944755032136
1175000000.0 -19.76654486721025 -140.0316258362362 -1.1975370420064149 151.44819549730408 -1.274951441255934 150.8121772875515 -22.489667664977425 -150.57921910892944
1200000000.0 -17.98027101733884 117.28675308776307 -0.7866022606301133 42.38824590684254 -0.7831515780100191 41.91413106909059 -23.55728734499064 50.00700462979985
1225000000.0 -25.88063883477141 2.538309434260886 -0.9145827163509599 -69.66445532224725 -0.9958673772805572 -69.63212773371195 -27.616358458000043 121.00668563830168
1250000000.0 -22.408045701323584 -127.86288084302291 -1.4258266968605833 -179.6975444271756 -1.4679016971371688 -179.47110404603478 -28.880506247971454 -43.091524476568615
1275000000.0 -22.50100837060687 126.8246199247797 -2.0247143820562026 74.43025383354068 -2.059390625200929 74.89918089260442 -26.974267502103977 145.46215957157037
1300000000.0 -30.878419070853074 -117.89819874325536 -2.0781760043032618 -30.32010412876299 -2.089622189533207 -29.816426710239536 -31.119323864291736 -40.52561690475897
1325000000.0 -38.49005611629018 -154.37373548165263 -1.613804794768887 -134.48705241038311 -1.5296662250829889 -134.62331884979466 -33.65702325578511 -171.38847093015423
1350000000.0 -18.69029831175518 -174.96907752149636 -1.2184969611127918 117.49375186837335 -1.0742187891326487 117.36057351573984 -21.0012103533994 157.33471614556672
1375000000.0 -20.900449046618977 97.79788686646349 -0.9002527746665477 5.323913389058697 -0.8754422721387539 5.412595388396009 -34.808233460787804 -12.084455759710599
1400000000.0 -29.897837221961723 22.396083598246758 -1.1106226499291159 -105.53520091571889 -1.094589802380382 -106.01624070345413 -31.033306274380173 2.0138928927356186
1425000000.0 -19.953968862390145 -153.40985238285793 -1.7094175149749318 145.76752677423235 -1.7374422259533429 145.09718247658265 -22.0535260978232 -127.30861809108539
1450000000.0 -16.768938527295496 90.97479477660826 -2.174726113625193 40.762252229076566 -2.248850940903935 39.94416309732637 -21.917836695591856 78.876989019836
1475000000.0 -23.54177817249547 -37.607879470948085 -2.1311958535631934 -61.69943706019281 -2.15339228594172 -61.86422417801196 -24.983706257722886 158.7868688559158
1500000000.0 -27.286405723501623 -139.7150228915965 -1.3446801546101343 -168.62744891865515 -1.3290707815033742 -168.6600052853935 -38.20775795872019 -19.341243992619873
1525000000.0 -22.58594637288003 139.6759529646096 -0.797118182651121 81.35532433305475 -0.7598590471073291 81.26091057724696 -27.2936391867476 119.78632031209914
1550000000.0 -43.41888983524143 132.39793637902702 -1.2377026778369697 -28.362449357475263 -1.3421071312586075 -28.286998234612934 -33.71828291895798 -24.705244931937624
1575000000.0 -34.310133676163716 93.02814773026927 -1.5041959777956226 -142.52868390129413 -1.7943279729141945 -141.68047053507186 -30.538539056067805 -167.118270902705
1600000000.0 -17.66499145988861 -179.21496926570643 -2.5412533141447318 109.18060197500279 -2.387815412235205 112.72081052448978 -19.975409642605882 167.1128162949494
1625000000.0 -15.139532588699096 76.8206436266467 -3.4149550914865308 6.312859703030986 -2.9356580762603435 9.123928490830547 -29.85862255936052 3.3174888621126106
1650000000.0 -24.36956563911889 -37.97150068761684 -2.42891272014796 -97.94485931525931 -2.383796786815608 -98.81278928311383 -23.49189370705293 68.26161979085424
1675000000.0 -23.718643627869277 -175.03645747305944 -1.7547726707379652 159.84671710312625 -1.2824623453191766 156.2614288120193 -31.41420977585215 -45.52372283315054
1700000000.0 -22.078445978766403 74.33477809893093 -1.5698766189371391 47.66204879053879 -1.2899664842203786 46.02846425769379 -27.560381445201223 93.78304507837535
1725000000.0 -30.54981868636808 -77.26984893651132 -1.462373284501416 -67.21469701654647 -1.6116016064166416 -68.56669857222725 -33.26657807608506 -153.87385731835454
1750000000.0 -35.13589946637149 -161.06738687187087 -2.0233987209499067 -174.97084716180044 -2.043504005362143 -177.61893617977543 -32.67942806989809 169.81093916985085
1775000000.0 -19.84157868581878 152.28079912580603 -2.424028201641208 76.48429632729012 -3.03636517199691 74.35066626191869 -22.18588394389032 97.63880237669011
1800000000.0 -23.534066881254525 67.83270112652941 -2.4178884669510072 -25.66733600676134 -2.9484517443936262 -25.987618218531978 -38.73332782124799 145.87850938818525
1825000000.0 -35.668486928269026 -36.3988725893158 -2.4332700797139433 -128.20107179386056 -2.331025865564142 -126.10249927435235 -33.856345249190724 -50.960375695919105
1850000000.0 -18.936977631186714 167.12790603569616 -1.9410217468720639 118.86173539879749 -2.0335871063337247 123.59156724247026 -20.85424116113797 179.38311112203547
1875000000.0 -14.659962142101419 58.30898875392848 -1.1701116661965216 8.440046224584743 -0.9715731349270408 9.236375375561256 -27.04626096573401 11.92534435989541
1900000000.0 -23.563120811965494 -59.76749975988907 -1.60091331855314 -102.52088184231158 -1.5678015577222038 -100.7033802266406 -23.273282285881038 96.96099932001701
1925000000.0 -28.560692296340765 -178.52701509157515 -2.186561940444735 146.39064229718792 -2.137155672857674 147.83876387387093 -47.59240966355972 81.76887118775855
1950000000.0 -21.820200286502583 105.17026516496561 -3.627382821842844 43.02402819324259 -3.0346587716857174 45.621531195564486 -27.208545032873708 75.53834302527136
1975000000.0 -32.34304023933884 -0.5915414861400108 -3.4654040166829296 -59.48017679199422 -3.0549024640060845 -60.044547112135994 -35.515083398126116 141.20005251954555
2000000000.0 -37.636656448758174 110.04558849916806 -1.9715831928243714 -163.76393037436466 -1.7993175043763534 -166.52245860758072 -36.226533024870584 -175.58592071404743
2025000000.0 -18.25931570867715 145.98486470301862 -1.296225149517766 89.91519225909445 -1.181517651017379 86.42004444128024 -19.996350901222645 104.8411010827973
2050000000.0 -16.306333716531455 46.03385326346755 -1.3256741014125948 -26.841431153791945 -1.5719194820471958 -28.339120254163067 -28.15818826798477 172.40598488682917
2075000000.0 -27.706384140523173 -61.487722552277056 -1.7424896713994587 -139.3997895230771 -2.0609672657792286 -140.02659325356078 -23.778252492434703 17.322778859557488
2100000000.0 -23.534319885340036 139.88473943999261 -2.7252746306668434 113.76646048958418 -2.976170234596176 113.29040358484953 -27.977903998637746 -150.06873102895202
2125000000.0 -16.9437418826588 42.72025050039288 -2.901276608847339 8.399972741273178 -3.45819071786352 9.411538020072424 -27.082748646508342 24.679496569436427
2150000000.0 -25.045171085532356 -87.96083409099315 -2.4883742354656264 -90.97318976974377 -2.4802486262492303 -88.64978732353082 -23.052155240217257 109.39599913497892
2175000000.0 -38.06999763107199 128.31441523801232 -2.2325642853246066 162.30720867529277 -1.9947301594779945 164.96577002159566 -32.86330803367023 101.73806854896725
2200000000.0 -21.64321298922585 102.8984530425301 -1.6838246824838834 47.248223104677564 -1.3809305841899044 49.4054313473399 -27.83731109957698 68.13472292854924
2225000000.0 -25.016629383138135 0.11854941256859879 -1.3903231650963277 -63.09680527436328 -0.9263010906810955 -63.901691805546236 -30.908676948487827 92.05256488698264
2250000000.0 -34.9078069357872 -3.1896091591882207 -2.2394840903266813 -174.08115264363698 -1.9076009394360698 -176.65897708973415 -37.24812520775004 -127.48227698648805
2275000000.0 -16.689837628416008 132.4841806022271 -3.14440248506979 79.68461301912905 -2.999930349873589 77.18558584912314 -19.34239394082605 124.11451936469314
2300000000.0 -12.95915699814673 27.288437688510783 -3.5208069827148747 -16.7811925598986 -3.4921521961925106 -19.90617299141642 -25.482397772882152 -171.84850485223927
2325000000.0 -24.31341367536534 -87.70325903677376 -2.8112606993073848 -123.90483806298964 -3.11627002091067 -125.38413915470953 -19.577092382299384 48.48025622602336
2350000000.0 -28.387161337919075 81.53754175130683 -1.2520206987049363 125.29317433178917 -1.6343949368872672 124.23594672034794 -32.003431222514564 -19.742480147542746
2375000000.0 -18.629538353493917 27.87370911788173 -0.8325233266433852 13.91342751132452 -1.1153707707806573 13.633466235260498 -30.368942920354232 24.522898186087378
2400000000.0 -26.943418688324336 -79.55069920033621 -1.6945652284775614 -102.01101380981784 -1.920390448232264 -99.25920909939077 -24.054711651950665 117.10580649072406
2425000000.0 -31.75789065804597 -4.194960839529353 -2.6174357353869917 149.90747963958034 -2.512986423729984 152.2890671366548 -27.45358157570742 123.52748031663553
2450000000.0 -17.774859833295903 122.82579755712361 -3.7467226134548426 45.9208267559102 -3.5559512150909334 47.58458445555358 -21.363310009815688 50.49376055102567
2475000000.0 -16.2933543578346 15.53328362383668 -3.711613749011033 -55.95054696211948 -3.2799412499686387 -54.641911843750215 -19.062502260573485 103.701988738615
2500000000.0 -37.168578800603306 -35.557791717604246 -2.116282698490078 -157.58948914270547 -1.7411159569230943 -159.42976186949804 -23.825357346079443 18.268425573963416
2525000000.0 -20.496385255778584 86.75342874220077 -1.6714629802615977 93.43797716645898 -1.4428230361702887 91.7986656832787 -28.902448677082873 -178.15183889558608
2550000000.0 -14.081908308874574 1.7172970571054307 -1.5209747691237931 -22.263647987672208 -1.3075407394816938 -24.662670432532522 -29.53399813616393 -124.10482392676094
2575000000.0 -24.475223668307194 -114.54714350312479 -1.6365214406283022 -134.91074147743421 -1.8282882823501458 -138.88936027988308 -20.48000146673499 76.9286720955473
2600000000.0 -28.378337853243902 4.167427312884196 -2.9121363020901816 115.39370483617097 -3.416296784104737 113.9103780406595 -22.4736199204877 44.74008577909063
2625000000.0 -24.05307312612981 51.96120735614364 -3.349623522911129 14.103127896921045 -3.7230928388986557 13.896820091482391 -36.76217523366473 34.015586497141065
2650000000.0 -27.328172103925077 -34.38939400637225 -2.808182242624202 -83.80338587092321 -3.017393803064831 -82.29812590663593 -24.342111360578258 77.47360109813127
2675000000.0 -28.831732068478825 -6.861262945002288 -2.348574547623023 166.98631202096988 -2.28386307659191 169.94763942735216 -27.961358447747713 159.20269985373346
2700000000.0 -16.718251281190526 91.8991678452642 -1.207450636558951 51.50717407880355 -1.1945028872706336 52.90549931661688 -21.20517106168056 66.66774372708859
2725000000.0 -12.941783886995351 -12.81394025626762 -1.3883384149969542 -61.61101109142868 -1.2118787420282549 -60.03834249651256 -17.042386464402036 137.31243377619478
2750000000.0 -42.06910902803717 -80.48606955945776 -2.6903032660931334 -172.16917880618902 -2.1123375744941466 -171.24446858071806 -23.28719258830533 33.58782359017928
2775000000.0 -25.739372877890965 6.048829872917955 -3.4557848361149706 84.35896476461009 -3.007165085785914 81.61776334646282 -28.70736005475188 -5.960075452854852
2800000000.0 -16.766356118806442 -6.3322115615552645 -4.13351780105019 -13.317909225886662 -3.9712270965738106 -16.266339243731885 -34.911234325843424 -129.9229291746535
2825000000.0 -28.172228206913946 -120.14049333766754 -3.023277322534048 -119.34862352843781 -3.178089147886411 -121.57047420476866 -21.186359445807813 78.24372506499846
2850000000.0 -22.47874982326973 -30.44800907957927 -1.3650863958745088 130.65203311520057 -1.6820942681819606 129.65936327406862 -19.540734597957822 69.37592711628042
2875000000.0 -20.27924899414542 82.66758415241672 -1.0265354248686782 19.57318868486423 -1.1584635428882137 19.02278360568569 -34.94858760978599 1.4757614862528987
2900000000.0 -18.740157383837538 -26.785497356035275 -1.4726805520970208 -96.8561309594052 -1.8155568495849899 -97.02106850168585 -17.43432328513271 72.15219686467063
2925000000.0 -27.213472524884157 12.756287831292626 -2.5908771773468504 150.95316522136937 -2.935573884248382 153.32583551835162 -27.893253548176162 39.06064847017248
2950000000.0 -21.295766444258255 52.79775825778388 -4.327105994819372 48.29531762315912 -4.199149417302509 52.41038284459979 -27.51957009762924 60.726020945123494
2975000000.0 -13.515475507937165 -25.230810779545926 -3.751556791212395 -51.00990085778236 -3.5340255562944094 -48.99512859441618 -18.335357577708365 144.42167902583898
3000000000.0 -34.58792974127852 -146.01606034469137 -1.7988457102423205 -153.09758109785054 -1.7938651831054477 -152.82253757071024 -20.22228928511336 43.55214033006924
3025000000.0 -19.880819101556614 -27.233640812801614 -0.8312767352881614 95.0773166371629 -0.7621790473323391 95.13467437913422 -21.010490752258015 -12.991677124331604
3050000000.0 -20.087972755516578 -31.15815853562168 -1.3173094699234436 -20.039067431191384 -1.0406892680489621 -17.93199756351623 -46.44304005539738 72.73209024602347
3075000000.0 -27.45422920858731 -94.82718801300295 -2.6213235551271445 -135.54162226828237 -2.3602362633701883 -133.044097216287 -25.453740118789323 72.0741559133623
3100000000.0 -22.122492591243844 -27.326037875971416 -4.175426606848874 117.58776445795212 -3.183071234709928 119.36120441363529 -22.046304374723288 74.70818665127342
3125000000.0 -19.312449560130403 51.371923272986926 -4.908538917613246 26.18432039079659 -4.228551639427669 19.352214705667517 -31.852098882656854 -12.066060154689227
3150000000.0 -15.714204831452719 -42.67096790558788 -4.64974526907433 -77.94497136191713 -4.727468124364523 -85.10691600877551 -16.425487135060347 83.36685590512697
3175000000.0 -24.445160443908883 -3.99775256847526 -2.0845029018549672 170.56086834216939 -2.435580572807303 165.9909533489223 -21.166392392902978 49.516992772014746
3200000000.0 -21.126076489371734 0.4858656572644392 -0.9557153993569706 60.44095603643203 -1.8230947017688635 60.276778942062776 -34.556975974183736 -6.684544352633532
3225000000.0 -13.75422666894754 -43.98319043532177 -2.1213469456240253 -55.48816731197106 -2.550629261697125 -54.34747470050989 -19.81051158706485 164.02228319105765
3250000000.0 -35.219338915838556 -88.26543811012763 -2.491118748228932 -169.23344639540642 -2.825127548986204 -169.01844488499248 -20.66641768860231 68.50412795061227
3275000000.0 -17.709375268215734 -59.49453802648894 -4.129372917948567 81.64911419548169 -4.931380848648636 86.79657813807405 -17.353854156071474 21.213228894950888
3300000000.0 -25.442752116383282 21.74884133181838 -5.246995032941423 -21.037926435556166 -4.770891761338943 -13.547072990217497 -31.700901965064535 127.05083933152949
3325000000.0 -22.67573198360308 -47.98743335104021 -3.205043226667668 -115.86276172346336 -2.5180628659627247 -112.52456165407789 -19.797999585155484 52.11665354579514
3350000000.0 -20.52018138408707 -24.798810548566557 -2.892732425940887 141.89011380180895 -1.885432122074156 141.49300625436084 -23.94890392254737 60.485949863665
3375000000.0 -21.806888521175654 9.940798932364734 -2.509985010427963 24.06012899021106 -1.5676170290535254 17.94386846883678 -30.351737135145 24.586468083308734
3400000000.0 -13.941346844394772 -59.031073055408314 -1.9694872020648284 -93.08625172996028 -1.9291518606481937 -97.65050230800891 -15.058925054447649 100.57103346128767
3425000000.0 -24.66711657247954 5.371174193942664 -3.71212044607163 156.71201749127195 -3.607698374379746 153.06515068929056 -17.773745797780567 52.1527350726618
3450000000.0 -16.663752327847877 -54.0200329047776 -4.184976802893887 54.734451248181486 -4.463077667109559 48.649868025653504 -22.86855666675457 -49.78098063233994
3475000000.0 -19.17468689115286 -77.9189090323717 -3.6764350658582075 -38.48953726227404 -4.795185907734067 -39.486090426551236 -29.560876415954883 150.50291989123662
3500000000.0 -36.12969086642288 -4.28831737013702 -3.4773498211856833 -146.53360189890157 -4.2347524038557465 -144.97471231116754 -24.808820333855266 75.56258793461122
3525000000.0 -18.929302305000327 -70.34324691075346 -1.8334598817514036 94.38284308311191 -2.2834249435425664 98.00863206778745 -17.950281130142486 42.52904746135369
3550000000.0 -18.359636686355852 21.704332190079406 -1.53376464956929 -17.54314098589838 -1.5270300387120268 -10.913175982167006 -27.67651239040029 172.4528243617031
3575000000.0 -18.720565235817176 -73.54743594858066 -2.8789629735121505 -130.09698074107774 -2.2342892562494696 -127.18982184317485 -15.088764457485247 56.24169722469649
3600000000.0 -19.12509629230562 -15.438428237987399 -3.9014587595406125 120.08951122067178 -3.46280272353386 120.794683815173 -19.270111813029594 25.02727556327501
3625000000.0 -19.90328730983607 -19.478191778038724 -6.064816758235496 25.818001302830712 -5.1713697145073825 25.431783941578015 -32.090781659760175 -12.706455880145317
3650000000.0 -13.459554331543977 -68.61002789537649 -5.121475871440331 -75.53236535750766 -4.374588836522708 -80.8360529268651 -16.4944913035991 115.89947936202552
3675000000.0 -21.439456012669467 -5.610051925898575 -2.3740595941462552 177.7687193705843 -2.143738856202293 173.8501063698304 -16.739960468734093 65.06409240495582
3700000000.0 -15.158206140959313 -85.58985347071123 -1.5203952505777663 71.28915109629695 -1.5844919015681944 65.08464264198055 -18.992282951895167 -23.7434872527412
3725000000.0 -26.84362842196328 -48.130330542491095 -1.6043844440388069 -50.618358810544294 -2.4617075238355497 -57.34758191317998 -25.78220741468285 94.91926387532659
3750000000.0 -30.024124796565864 -40.169722107400084 -2.6505930641150846 -167.19412354958516 -3.4774282024326224 -167.15904156627442 -21.44135347594206 57.345755386952874
3775000000.0 -17.710025894682953 -68.93051671370321 -4.693465538388891 87.33143344671282 -5.294048803952821 88.93071038053512 -18.4219884489824 37.65555485746631
3800000000.0 -20.639116785054078 -4.007522015001857 -4.384587796113548 -13.975848842412505 -4.985245123904151 -10.05957399464878 -27.701958292446093 179.822566064588
3825000000.0 -17.286114014725168 -81.30050699025674 -3.2840414300311647 -107.43991891738916 -2.870189840010369 -102.16873160622943 -14.556188007635429 70.77609617899465
3850000000.0 -17.67880759664784 -25.899431204769904 -3.0517155054733336 144.00867013086327 -2.550383725312374 145.03509385836043 -15.588664382956118 31.045032307798447
3875000000.0 -17.140066121866504 -86.3510137388608 -2.310552120295581 21.705190262485665 -1.590042489967478 24.212631684183446 -30.226366566501348 -40.760376218363675
3900000000.0 -16.29382968172713 -104.25785480675157 -2.491122581648029 -87.82439953789628 -1.3598435454055977 -89.93648586279407 -19.734279000820962 130.58906595344038
3925000000.0 -22.826424084283193 -15.665204442692524 -3.7476767555734702 161.5430269672458 -3.1164098477858975 153.60829714011788 -19.969838219886057 84.37392802307977
3950000000.0 -15.65273297193519 -101.30255448682956 -4.635740999058549 58.90016893038757 -4.875526681526191 53.546580995600756 -19.321548397683884 -1.6983254601227855
