# GHZ S RI R 50
0.5 6.70527671252592E-07 5.04917109015221E-06 -0.00443005945471038 0.00356693188770651 -0.00443005945471038 0.00356693188770651 9.43128600036601E-07 2.86976397032306E-07
0.55 6.70527671252592E-07 5.04917109015221E-06 -0.00494321562328867 0.00398010762942911 -0.00494321562328867 0.00398010762942911 9.43128600036601E-07 2.86976397032306E-07
0.6 6.70527671252592E-07 5.04917109015221E-06 -0.00535993539232895 0.00431563609075642 -0.00535993539232895 0.00431563609075642 9.43128600036601E-07 2.86976397032306E-07
0.65 6.70527671252592E-07 5.04917109015221E-06 -0.00573006508348748 0.00461365181977255 -0.00573006508348748 0.00461365181977255 9.43128600036601E-07 2.86976397032306E-07
0.7 6.70527671252592E-07 5.04917109015221E-06 -0.00633373012962712 0.00509970220455459 -0.00633373012962712 0.00509970220455459 9.43128600036601E-07 2.86976397032306E-07
0.75 6.70527671252592E-07 5.04917109015221E-06 -0.00667359050836292 0.00537334612167894 -0.00667359050836292 0.00537334612167894 9.43128600036601E-07 2.86976397032306E-07
0.8 6.70527671252592E-07 5.04917109015221E-06 -0.00705195536545723 0.00567799252377682 -0.00705195536545723 0.00567799252377682 9.43128600036601E-07 2.86976397032306E-07
0.85 6.70527671252592E-07 5.04917109015221E-06 -0.00748961605613525 0.00603038189677163 -0.00748961605613525 0.00603038189677163 9.43128600036601E-07 2.86976397032306E-07
0.9 6.70527671252592E-07 5.04917109015221E-06 -0.00773944030465792 0.00623153181078245 -0.00773944030465792 0.00623153181078245 9.43128600036601E-07 2.86976397032306E-07
0.95 6.70527671252592E-07 5.04917109015221E-06 -0.00812567699855827 0.0065425163458118 -0.00812567699855827 0.0065425163458118 9.43128600036601E-07 2.86976397032306E-07
1 6.70527671252592E-07 5.04917109015221E-06 -0.00858735772629105 0.00691424582857046 -0.00858735772629105 0.00691424582857046 9.43128600036601E-07 2.86976397032306E-07
1.05 6.70527671252592E-07 5.04917109015221E-06 -0.00891681086346256 0.00717951019183595 -0.00891681086346256 0.00717951019183595 9.43128600036601E-07 2.86976397032306E-07
1.1 6.70527671252592E-07 5.04917109015221E-06 -0.00931557260002702 0.00750057946151283 -0.00931557260002702 0.00750057946151283 9.43128600036601E-07 2.86976397032306E-07
1.15 6.70527671252592E-07 5.04917109015221E-06 -0.00981091594289502 0.00789941292709088 -0.00981091594289502 0.00789941292709088 9.43128600036601E-07 2.86976397032306E-07
1.2 6.70527671252592E-07 5.04917109015221E-06 -0.0101125237552404 0.00814225719011588 -0.0101125237552404 0.00814225719011588 9.43128600036601E-07 2.86976397032306E-07
1.25 6.70527671252592E-07 5.04917109015221E-06 -0.0104956551966206 0.00845074148235019 -0.0104956551966206 0.00845074148235019 9.43128600036601E-07 2.86976397032306E-07
1.3 6.70527671252592E-07 5.04917109015221E-06 -0.0108208046028883 0.00871254062914311 -0.0108208046028883 0.00871254062914311 9.43128600036601E-07 2.86976397032306E-07
1.35 6.70527671252592E-07 5.04917109015221E-06 -0.0111111639237937 0.0089463279927707 -0.0111111639237937 0.0089463279927707 9.43128600036601E-07 2.86976397032306E-07
1.4 6.70527671252592E-07 5.04917109015221E-06 -0.0115361144175596 0.00928848355126967 -0.0115361144175596 0.00928848355126967 9.43128600036601E-07 2.86976397032306E-07
1.45 6.70527671252592E-07 5.04917109015221E-06 -0.0117438245623492 0.0094557246337934 -0.0117438245623492 0.0094557246337934 9.43128600036601E-07 2.86976397032306E-07
1.5 6.70527671252592E-07 5.04917109015221E-06 -0.0120811855580334 0.0097273561334327 -0.0120811855580334 0.0097273561334327 9.43128600036601E-07 2.86976397032306E-07
1.55 6.70527671252592E-07 5.04917109015221E-06 -0.0122760756148829 0.00988427492097501 -0.0122760756148829 0.00988427492097501 9.43128600036601E-07 2.86976397032306E-07
1.6 6.70527671252592E-07 5.04917109015221E-06 -0.0125273599091991 0.010086600413768 -0.0125273599091991 0.010086600413768 9.43128600036601E-07 2.86976397032306E-07
1.65 6.70527671252592E-07 5.04917109015221E-06 -0.0128857456560614 0.0103751603217447 -0.0128857456560614 0.0103751603217447 9.43128600036601E-07 2.86976397032306E-07
1.7 6.70527671252592E-07 5.04917109015221E-06 -0.013201082792892 0.0106290589658234 -0.013201082792892 0.0106290589658234 9.43128600036601E-07 2.86976397032306E-07
1.75 6.70527671252592E-07 5.04917109015221E-06 -0.0135928196536293 0.0109444720464917 -0.0135928196536293 0.0109444720464917 9.43128600036601E-07 2.86976397032306E-07
1.8 6.70527671252592E-07 5.04917109015221E-06 -0.0139720314592555 0.0112498003824906 -0.0139720314592555 0.0112498003824906 9.43128600036601E-07 2.86976397032306E-07
1.85 6.70527671252592E-07 5.04917109015221E-06 -0.0141925213044421 0.0114273312413316 -0.0141925213044421 0.0114273312413316 9.43128600036601E-07 2.86976397032306E-07
1.9 6.70527671252592E-07 5.04917109015221E-06 -0.0144247918441174 0.0116143475112062 -0.0144247918441174 0.0116143475112062 9.43128600036601E-07 2.86976397032306E-07
1.95 6.70527671252592E-07 5.04917109015221E-06 -0.0146372521671141 0.0117854132742545 -0.0146372521671141 0.0117854132742545 9.43128600036601E-07 2.86976397032306E-07
2 6.70527671252592E-07 5.04917109015221E-06 -0.0148613942267018 0.0119658847708322 -0.0148613942267018 0.0119658847708322 9.43128600036601E-07 2.86976397032306E-07
2.05 1.16043037717384E-06 4.65162839936238E-06 -0.0139570627693694 0.0136180175851359 -0.0139570627693694 0.0136180175851359 9.77236200472747E-07 1.24968794654085E-07
2.1 1.61739268355168E-06 4.20735270049514E-06 -0.0127381285429657 0.0150472004074015 -0.0127381285429657 0.0150472004074015 9.8497839854231E-07 -3.52452065824464E-08
2.15 2.03608669098407E-06 3.72523549692431E-06 -0.0114122793437107 0.0164231252898029 -0.0114122793437107 0.0164231252898029 9.69428898285449E-07 -1.90713106454875E-07
2.2 2.41189429525691E-06 3.21434610173105E-06 -0.00994558584466583 0.0176928304230009 -0.00994558584466583 0.0176928304230009 9.32696397079883E-07 -3.40089807610644E-07
2.25 2.74129099199092E-06 2.68367979172355E-06 -0.00833775286052226 0.0188254461927049 -0.00833775286052226 0.0188254461927049 8.74941494040537E-07 -4.83286908532749E-07
2.3 3.02134649149384E-06 2.1421706880364E-06 -0.00662727701811974 0.0198804753060783 -0.00662727701811974 0.0198804753060783 7.97568092875458E-07 -6.18796108606278E-07
2.35 3.2501126955478E-06 1.59832009229796E-06 -0.00470657188403516 0.0204117482321249 -0.00470657188403516 0.0204117482321249 6.99628190284499E-07 -7.4465880799312E-07
2.4 3.42647509035702E-06 1.06023268573445E-06 -0.00277243098707882 0.0209645902872082 -0.00277243098707882 0.0209645902872082 5.80195200576666E-07 -8.58438999051725E-07
2.45 3.55027379577952E-06 5.35509066030935E-07 -0.000766374998896642 0.0210735489877248 -0.000766374998896642 0.0210735489877248 4.40050293070153E-07 -9.56327501870657E-07
2.5 3.62204069759748E-06 3.10722774721884E-08 0.00124408675408553 0.0211445836636976 0.00124408675408553 0.0211445836636976 2.80343089990359E-07 -1.03371410247866E-06
2.55 3.6431511865138E-06 -4.46952423785029E-07 0.00332347447657781 0.0214271000369769 0.00332347447657781 0.0214271000369769 1.02381386570241E-07 -1.08560880113036E-06
2.6 3.61560788021965E-06 -8.93295327903632E-07 0.00542842033140778 0.0213501090256649 0.00542842033140778 0.0213501090256649 -9.08048102368402E-08 -1.10733559884438E-06
2.65 3.54212218853271E-06 -1.3034824294428E-06 0.00749342002896826 0.020912204097634 0.00749342002896826 0.020912204097634 -2.94071815857663E-07 -1.09476359509293E-06
2.7 3.42581827213681E-06 -1.67380812663394E-06 0.00944563351126186 0.0201076579030519 0.00944563351126186 0.0201076579030519 -5.00403513834261E-07 -1.04320809270746E-06
2.75 3.27021017544444E-06 -2.00153963124494E-06 0.011569479243348 0.0195556007741039 0.011569479243348 0.0195556007741039 -7.0251811344626E-07 -9.49666288411305E-07
2.8 3.0792434691687E-06 -2.28470613003562E-06 0.0136106127298281 0.0186946710263207 0.0136106127298281 0.0186946710263207 -8.91107890791221E-07 -8.1400290877085E-07
2.85 2.85702786260888E-06 -2.52209552546915E-06 0.0152560746649781 0.0172420515460006 0.0152560746649781 0.0172420515460006 -1.05627959432495E-06 -6.36934608904023E-07
2.9 2.60790566657175E-06 -2.71330412962482E-06 0.0170452187276506 0.0159232495926056 0.0170452187276506 0.0159232495926056 -1.18849649578765E-06 -4.22553310610205E-07
2.95 2.33620665656857E-06 -2.85857692851128E-06 0.0184914976278745 0.0142430247142026 0.0184914976278745 0.0142430247142026 -1.27906839794371E-06 -1.77362811227841E-07
3 2.04629398881814E-06 -2.95879379283479E-06 0.0200753517386113 0.0126224840614977 0.0200753517386113 0.0126224840614977 -1.32117009917303E-06 8.95764947347429E-08
3.05 1.74252918225536E-06 -3.01538960363352E-06 0.0211184438709936 0.0106283666921855 0.0211184438709936 0.0106283666921855 -1.30898040420129E-06 3.68244180163509E-07
3.1 1.42913949367326E-06 -3.03010828863119E-06 0.0218792145445533 0.00851733036539976 0.0218792145445533 0.00851733036539976 -1.23978039990449E-06 6.48380398242118E-07
3.15 1.11016049032541E-06 -3.0053076980544E-06 0.0229760730675841 0.00651294511204062 0.0229760730675841 0.00651294511204062 -1.11287120731226E-06 9.16900379767051E-07
3.2 7.89577746705682E-07 -2.94353580490186E-06 0.0237315588848759 0.00434805121518103 0.0237315588848759 0.00434805121518103 -9.29569109961736E-07 1.16233428677585E-06
3.25 4.7108947500882E-07 -2.84758309347163E-06 0.0239176589593341 0.00206688654268807 0.0239176589593341 0.00206688654268807 -6.94611109304421E-07 1.37347968503912E-06
3.3 1.58249584173306E-07 -2.72063758992589E-06 0.0243560466159927 -0.000214268891545894 0.0243560466159927 -0.000214268891545894 -4.14493108909325E-07 1.53885268707613E-06
3.35 -1.45661511293061E-07 -2.56615309786062E-06 0.0241335140887034 -0.00251387095406841 0.0241335140887034 -0.00251387095406841 -9.82115092544086E-08 1.64866628821181E-06
3.4 -4.37948348366742E-07 -2.3878020829865E-06 0.024117558877685 -0.0048582004224269 0.024117558877685 -0.0048582004224269 2.42505293121326E-07 1.6948259004719E-06
3.45 -7.16260614141639E-07 -2.1891329926075E-06 0.0234184891502534 -0.00708435128611964 0.0234184891502534 -0.00708435128611964 5.94352391498676E-07 1.67259779200246E-06
3.5 -9.786692396225E-07 -1.97351217997388E-06 0.0224102782989493 -0.00917868104343159 0.0224102782989493 -0.00917868104343159 9.42772892382144E-07 1.58017509195476E-06
3.55 -1.22355393227114E-06 -1.74421507074868E-06 0.0212730004784069 -0.011175202589695 0.0212730004784069 -0.011175202589695 1.27364219137529E-06 1.41875619132675E-06
3.6 -1.44939561846531E-06 -1.50434117575635E-06 0.0204777469925089 -0.0133772283201151 0.0204777469925089 -0.0133772283201151 1.57316959790035E-06 1.19312459576978E-06
3.65 -1.65506678116157E-06 -1.25683181289443E-06 0.019014193409446 -0.015176295616508 0.019014193409446 -0.015176295616508 1.82911809628503E-06 9.10186693128008E-07
3.7 -1.83962288513745E-06 -1.00449251922616E-06 0.0176695158474093 -0.0170843942942747 0.0176695158474093 -0.0170843942942747 2.0311397939E-06 5.79510188778154E-07
3.75 -2.00241698481381E-06 -7.49933210254487E-07 0.0160935741171007 -0.0188266522216851 0.0160935741171007 -0.0188266522216851 2.17096109287158E-06 2.12327287547399E-07
3.8 -2.14296148988678E-06 -4.95557941205718E-07 0.0144430007041591 -0.0205614605043016 0.0144430007041591 -0.0205614605043016 2.24316289523152E-06 -1.78860314556775E-07
3.85 -2.2610896918573E-06 -2.43596913304136E-07 0.0120363278741504 -0.0211479514168302 0.0120363278741504 -0.0211479514168302 2.24493409176335E-06 -5.80982517489377E-07
3.9 -2.35680499127262E-06 3.99876405235839E-09 0.00991495533922987 -0.0220539878220033 0.00991495533922987 -0.0220539878220033 2.17602488861084E-06 -9.81254321329498E-07
3.95 -2.43031319209096E-06 2.45482157517895E-07 0.00786501832249359 -0.0231442044792148 0.00786501832249359 -0.0231442044792148 2.03848898134739E-06 -1.36714742114059E-06
4 -2.48207669364729E-06 4.79349289617178E-07 0.00565657391080849 -0.0238713055044904 0.00565657391080849 -0.0238713055044904 1.83689427204472E-06 -1.72725031554315E-06
4.05 -2.51272579816221E-06 7.04354393849071E-07 0.0033947665483606 -0.024486317561297 0.0033947665483606 -0.024486317561297 1.57757417178168E-06 -2.05151881741284E-06
4.1 -2.52296640327498E-06 9.19562784387769E-07 0.00107416550848189 -0.0250484188372838 0.00107416550848189 -0.0250484188372838 1.26774437796356E-06 -2.33197720237374E-06
4.15 -2.51359700927153E-06 1.12424676246109E-06 -0.00129692496805581 -0.0248980807917148 -0.00129692496805581 -0.0248980807917148 9.15638257033896E-07 -2.56216751411849E-06
4.2 -2.48563890942038E-06 1.31791047372382E-06 -0.00367453423024679 -0.0248271778576054 -0.00367453423024679 -0.0248271778576054 5.30069662474919E-07 -2.73708070046959E-06
4.25 -2.44007050972344E-06 1.50026447344224E-06 -0.00597286938495935 -0.0242153068754602 -0.00597286938495935 -0.0242153068754602 1.19732978119575E-07 -2.85334879871351E-06
4.3 -2.37792452202396E-06 1.67120946811315E-06 -0.00841258142912526 -0.0240326204292144 -0.00841258142912526 -0.0240326204292144 -3.0682473474441E-07 -2.9091618885172E-06
4.35 -2.30037372498372E-06 1.83080446689513E-06 -0.0104305574109438 -0.0226474026486947 -0.0104305574109438 -0.0226474026486947 -7.41361956717874E-07 -2.90318588474714E-06
4.4 -2.2085414222891E-06 1.97927876868665E-06 -0.0126203069562671 -0.0217139807628238 -0.0126203069562671 -0.0217139807628238 -1.17569214964836E-06 -2.83518647847108E-06
4.45 -2.10356542437051E-06 2.11702537302321E-06 -0.0145016161830456 -0.0202543913947387 -0.0145016161830456 -0.0202543913947387 -1.60192835124245E-06 -2.70583785415347E-06
4.5 -1.98657692492056E-06 2.24441967057797E-06 -0.0162801965753637 -0.0187032839488706 -0.0162801965753637 -0.0187032839488706 -2.01269453025941E-06 -2.51630886047179E-06
4.55 -1.85869851985942E-06 2.36197007038674E-06 -0.0182187844292188 -0.0173047993523397 -0.0182187844292188 -0.0173047993523397 -2.40060486755007E-06 -2.26833053427518E-06
4.6 -1.72099102335903E-06 2.47027617260341E-06 -0.0198726470709205 -0.0155766631950131 -0.0198726470709205 -0.0155766631950131 -2.75796767759348E-06 -1.96411172213315E-06
4.65 -1.57457672268091E-06 2.56993307392886E-06 -0.0211110052064538 -0.0135292675630562 -0.0211110052064538 -0.0135292675630562 -3.07728815779009E-06 -1.60650585391845E-06
4.7 -1.42048522758714E-06 2.6614511850744E-06 -0.0221097675806201 -0.0113718855156423 -0.0221097675806201 -0.0113718855156423 -3.35116028498627E-06 -1.19966553785565E-06
4.75 -1.25972842316428E-06 2.74551338253411E-06 -0.0229698690151431 -0.00917921686131006 -0.0229698690151431 -0.00917921686131006 -3.57188798691417E-06 -7.48144425832422E-07
4.8 -1.09318512394883E-06 2.82266148634042E-06 -0.0236589387408738 -0.00693933894377145 -0.0236589387408738 -0.00693933894377145 -3.73180459122312E-06 -2.58281826881993E-07
4.85 -9.21732922364423E-07 2.89333048189064E-06 -0.0242987917653393 -0.00468403125201624 -0.0242987917653393 -0.00468403125201624 -3.82384170297984E-06 2.619764407395E-07
4.9 -7.46207724444438E-07 2.95796788906916E-06 -0.0246558074580202 -0.00236327154850561 -0.0246558074580202 -0.00236327154850561 -3.84195119869387E-06 8.03426740926595E-07
4.95 -5.67380021121483E-07 3.01692199346513E-06 -0.0246098572396757 -1.68411713975488E-05 -0.0246098572396757 -1.68411713975488E-05 -3.78111760998629E-06 1.35533496718117E-06
5 -3.85955818560472E-07 3.07046078890133E-06 -0.0241596433856101 0.00228236795794208 -0.0241596433856101 0.00228236795794208 -3.63790009866774E-06 1.90573968730325E-06
5.05 -3.85955818560472E-07 3.07046078890133E-06 -0.0243271100331368 0.00229818857682451 -0.0243271100331368 0.00229818857682451 -3.63790009866774E-06 1.90573968730325E-06
5.1 -3.85955818560472E-07 3.07046078890133E-06 -0.0248536695356664 0.00234793279354748 -0.0248536695356664 0.00234793279354748 -3.63790009866774E-06 1.90573968730325E-06
5.15 -3.85955818560472E-07 3.07046078890133E-06 -0.02523135182879 0.00238361254056811 -0.02523135182879 0.00238361254056811 -3.63790009866774E-06 1.90573968730325E-06
5.2 -3.85955818560472E-07 3.07046078890133E-06 -0.0248651177092992 0.00234901430556566 -0.0248651177092992 0.00234901430556566 -3.63790009866774E-06 1.90573968730325E-06
5.25 -3.85955818560472E-07 3.07046078890133E-06 -0.024657016142125 0.00232935489498019 -0.024657016142125 0.00232935489498019 -3.63790009866774E-06 1.90573968730325E-06
5.3 -3.85955818560472E-07 3.07046078890133E-06 -0.0240486399073173 0.00227188142972509 -0.0240486399073173 0.00227188142972509 -3.63790009866774E-06 1.90573968730325E-06
5.35 -3.85955818560472E-07 3.07046078890133E-06 -0.0241235111689809 0.00227895453779479 -0.0241235111689809 0.00227895453779479 -3.63790009866774E-06 1.90573968730325E-06
5.4 -3.85955818560472E-07 3.07046078890133E-06 -0.0241707718747851 0.00228341926928422 -0.0241707718747851 0.00228341926928422 -3.63790009866774E-06 1.90573968730325E-06
5.45 -3.85955818560472E-07 3.07046078890133E-06 -0.0241290664522528 0.00227947934688798 -0.0241290664522528 0.00227947934688798 -3.63790009866774E-06 1.90573968730325E-06
5.5 -3.85955818560472E-07 3.07046078890133E-06 -0.0241707718747851 0.00228341926928422 -0.0241707718747851 0.00228341926928422 -3.63790009866774E-06 1.90573968730325E-06
5.55 -3.85955818560472E-07 3.07046078890133E-06 -0.0240929799652878 0.00227607024683427 -0.0240929799652878 0.00227607024683427 -3.63790009866774E-06 1.90573968730325E-06
5.6 -3.85955818560472E-07 3.07046078890133E-06 -0.0241930442336129 0.00228552334496634 -0.0241930442336129 0.00228552334496634 -3.63790009866774E-06 1.90573968730325E-06
5.65 -3.85955818560472E-07 3.07046078890133E-06 -0.0239822827775893 0.00226561265397146 -0.0239822827775893 0.00226561265397146 -3.63790009866774E-06 1.90573968730325E-06
5.7 -3.85955818560472E-07 3.07046078890133E-06 -0.0235445567858219 0.00222426056271653 -0.0235445567858219 0.00222426056271653 -3.63790009866774E-06 1.90573968730325E-06
5.75 -3.85955818560472E-07 3.07046078890133E-06 -0.0234471747108312 0.00221506085210453 -0.0234471747108312 0.00221506085210453 -3.63790009866774E-06 1.90573968730325E-06
5.8 -3.85955818560472E-07 3.07046078890133E-06 -0.0227583367601341 0.00214998614707714 -0.0227583367601341 0.00214998614707714 -3.63790009866774E-06 1.90573968730325E-06
