# GHZ S RI R 50
0.5 2.10911388897581E-06 2.89829229283527E-06 -0.00450387863640243 0.00364840511930994 -0.00450387863640243 0.00364840511930994 4.35216194767787E-07 -2.13831978761222E-06
0.55 2.10911388897581E-06 2.89829229283527E-06 -0.00490949338613807 0.00397697679027867 -0.00490949338613807 0.00397697679027867 4.35216194767787E-07 -2.13831978761222E-06
0.6 2.10911388897581E-06 2.89829229283527E-06 -0.00520998747571877 0.00422039457820208 -0.00520998747571877 0.00422039457820208 4.35216194767787E-07 -2.13831978761222E-06
0.65 2.10911388897581E-06 2.89829229283527E-06 -0.00567984755154935 0.00460100872090219 -0.00567984755154935 0.00460100872090219 4.35216194767787E-07 -2.13831978761222E-06
0.7 2.10911388897581E-06 2.89829229283527E-06 -0.00612825289850929 0.00496424327836827 -0.00612825289850929 0.00496424327836827 4.35216194767787E-07 -2.13831978761222E-06
0.75 2.10911388897581E-06 2.89829229283527E-06 -0.00671099135401107 0.00543629551065704 -0.00671099135401107 0.00543629551065704 4.35216194767787E-07 -2.13831978761222E-06
0.8 2.10911388897581E-06 2.89829229283527E-06 -0.00712092938843535 0.00576836929508478 -0.00712092938843535 0.00576836929508478 4.35216194767787E-07 -2.13831978761222E-06
0.85 2.10911388897581E-06 2.89829229283527E-06 -0.00755764832473401 0.00612213717639793 -0.00755764832473401 0.00612213717639793 4.35216194767787E-07 -2.13831978761222E-06
0.9 2.10911388897581E-06 2.89829229283527E-06 -0.00774616385322187 0.00627484578040994 -0.00774616385322187 0.00627484578040994 4.35216194767787E-07 -2.13831978761222E-06
0.95 2.10911388897581E-06 2.89829229283527E-06 -0.00792933340989509 0.00642322383457573 -0.00792933340989509 0.00642322383457573 4.35216194767787E-07 -2.13831978761222E-06
1 2.10911388897581E-06 2.89829229283527E-06 -0.00847494091888563 0.0068651978284676 -0.00847494091888563 0.0068651978284676 4.35216194767787E-07 -2.13831978761222E-06
1.05 2.10911388897581E-06 2.89829229283527E-06 -0.00889276220476268 0.00720365750764939 -0.00889276220476268 0.00720365750764939 4.35216194767787E-07 -2.13831978761222E-06
1.1 2.10911388897581E-06 2.89829229283527E-06 -0.00931615443558608 0.00754662997807235 -0.00931615443558608 0.00754662997807235 4.35216194767787E-07 -2.13831978761222E-06
1.15 2.10911388897581E-06 2.89829229283527E-06 -0.00965798839684081 0.00782353547994705 -0.00965798839684081 0.00782353547994705 4.35216194767787E-07 -2.13831978761222E-06
1.2 2.10911388897581E-06 2.89829229283527E-06 -0.0101434730413335 0.00821680643711659 -0.0101434730413335 0.00821680643711659 4.35216194767787E-07 -2.13831978761222E-06
1.25 2.10911388897581E-06 2.89829229283527E-06 -0.0105544760636626 0.00854974292403649 -0.0105544760636626 0.00854974292403649 4.35216194767787E-07 -2.13831978761222E-06
1.3 2.10911388897581E-06 2.89829229283527E-06 -0.0108914745073273 0.00882273137384246 -0.0108914745073273 0.00882273137384246 4.35216194767787E-07 -2.13831978761222E-06
1.35 2.10911388897581E-06 2.89829229283527E-06 -0.0111464527478805 0.00902927866191282 -0.0111464527478805 0.00902927866191282 4.35216194767787E-07 -2.13831978761222E-06
1.4 2.10911388897581E-06 2.89829229283527E-06 -0.0115594369181452 0.00936381999453439 -0.0115594369181452 0.00936381999453439 4.35216194767787E-07 -2.13831978761222E-06
1.45 2.10911388897581E-06 2.89829229283527E-06 -0.0117919785169093 0.00955219229047641 -0.0117919785169093 0.00955219229047641 4.35216194767787E-07 -2.13831978761222E-06
1.5 2.10911388897581E-06 2.89829229283527E-06 -0.0120208915568081 0.00973762524150964 -0.0120208915568081 0.00973762524150964 4.35216194767787E-07 -2.13831978761222E-06
1.55 2.10911388897581E-06 2.89829229283527E-06 -0.012240148288885 0.00991523601842693 -0.012240148288885 0.00991523601842693 4.35216194767787E-07 -2.13831978761222E-06
1.6 2.10911388897581E-06 2.89829229283527E-06 -0.0125990175038579 0.0102059410721749 -0.0125990175038579 0.0102059410721749 4.35216194767787E-07 -2.13831978761222E-06
1.65 2.10911388897581E-06 2.89829229283527E-06 -0.0128184844032733 0.0103837220969287 -0.0128184844032733 0.0103837220969287 4.35216194767787E-07 -2.13831978761222E-06
1.7 2.10911388897581E-06 2.89829229283527E-06 -0.0133317352107162 0.0107994852700812 -0.0133317352107162 0.0107994852700812 4.35216194767787E-07 -2.13831978761222E-06
1.75 2.10911388897581E-06 2.89829229283527E-06 -0.0136752942349495 0.0110777881738644 -0.0136752942349495 0.0110777881738644 4.35216194767787E-07 -2.13831978761222E-06
1.8 2.10911388897581E-06 2.89829229283527E-06 -0.0139922217512048 0.0113345179985561 -0.0139922217512048 0.0113345179985561 4.35216194767787E-07 -2.13831978761222E-06
1.85 2.10911388897581E-06 2.89829229283527E-06 -0.0141672865888939 0.0114763307563142 -0.0141672865888939 0.0114763307563142 4.35216194767787E-07 -2.13831978761222E-06
1.9 2.10911388897581E-06 2.89829229283527E-06 -0.0143428903834152 0.011618580100629 -0.0143428903834152 0.011618580100629 4.35216194767787E-07 -2.13831978761222E-06
1.95 2.10911388897581E-06 2.89829229283527E-06 -0.0145860157876795 0.0118155258980541 -0.0145860157876795 0.0118155258980541 4.35216194767787E-07 -2.13831978761222E-06
2 2.10911388897581E-06 2.89829229283527E-06 -0.0149963883780982 0.0121479516982537 -0.0149963883780982 0.0121479516982537 4.35216194767787E-07 -2.13831978761222E-06
2.05 2.44011209424487E-06 2.41250809408192E-06 -0.0139465844841852 0.0136843178464755 -0.0139465844841852 0.0136843178464755 1.85006581215192E-07 -2.18991959778656E-06
2.1 2.73158580181658E-06 1.89601719538617E-06 -0.0127587057435727 0.0151527684015926 -0.0127587057435727 0.0151527684015926 -7.21423255749929E-08 -2.20182808701116E-06
2.15 2.9799388000566E-06 1.35837599352515E-06 -0.0114108378230653 0.0165090945454497 -0.0114108378230653 0.0165090945454497 -3.2716452305644E-07 -2.17382668818341E-06
2.2 3.18237059878044E-06 8.08994189719372E-07 -0.0099348985800226 0.017771990180779 -0.0099348985800226 0.017771990180779 -5.73311536624172E-07 -2.109808676285E-06
2.25 3.33706039351543E-06 2.57086582735499E-07 -0.00830462984851459 0.0188640872735746 -0.00830462984851459 0.0188640872735746 -8.05256008813328E-07 -2.01405758143176E-06
2.3 3.44288449651698E-06 -2.88540322133748E-07 -0.00659933824441599 0.0199362137696987 -0.00659933824441599 0.0199362137696987 -1.01913633014018E-06 -1.89109547355947E-06
2.35 3.49969138160478E-06 -8.19710826447511E-07 -0.00471701711767203 0.0206438192935939 -0.00471701711767203 0.0206438192935939 -1.21295993848785E-06 -1.74628726936823E-06
2.4 3.50807937791177E-06 -1.32875982384083E-06 -0.00276559831898275 0.0212180158007702 -0.00276559831898275 0.0212180158007702 -1.38567363716814E-06 -1.58270016719091E-06
2.45 3.46952288103712E-06 -1.80881513262793E-06 -0.000731478316280507 0.0211410285503208 -0.000731478316280507 0.0211410285503208 -1.53597355678792E-06 -1.40394203055742E-06
2.5 3.38607026660127E-06 -2.25409413061604E-06 0.00128765575611194 0.0212797513219998 0.00128765575611194 0.0212797513219998 -1.66636506608788E-06 -1.21358353802623E-06
2.55 3.2604297647239E-06 -2.6594670314198E-06 0.00337326756253231 0.021523677270077 0.00337326756253231 0.021523677270077 -1.77722877871046E-06 -1.01193762572343E-06
2.6 3.09591175609542E-06 -3.02089102798286E-06 0.00548825143070967 0.021450797594117 0.00548825143070967 0.021450797594117 -1.86858919371957E-06 -7.99840614376206E-07
2.65 2.89615415191178E-06 -3.33535842753343E-06 0.00748880874924598 0.0208058800265259 0.00748880874924598 0.0208058800265259 -1.94042587704873E-06 -5.78101128746949E-07
2.7 2.66521974674998E-06 -3.60060042537573E-06 0.00953224388399964 0.0202204745864822 0.00953224388399964 0.0202204745864822 -1.99104579000144E-06 -3.45620007022453E-07
2.75 2.40725379196492E-06 -3.81543898971152E-06 0.0116178935582182 0.019579108372513 0.0116178935582182 0.019579108372513 -2.01930249210036E-06 -1.02680926874737E-07
2.8 2.1268372911037E-06 -3.97945069050115E-06 0.0136751673662117 0.0187338600101386 0.0136751673662117 0.0187338600101386 -2.02049188948602E-06 1.50588288720116E-07
2.85 1.82837136967094E-06 -4.09301100765998E-06 0.0154737193287046 0.0174452993882999 0.0154737193287046 0.0174452993882999 -1.99043049357301E-06 4.13339877219048E-07
2.9 1.51629072758749E-06 -4.15733222082132E-06 0.0171687017605866 0.0160006953810307 0.0171687017605866 0.0160006953810307 -1.92561169746563E-06 6.80631884449854E-07
2.95 1.19495696416565E-06 -4.17428959706197E-06 0.0187268279747696 0.0143898965916151 0.0187268279747696 0.0143898965916151 -1.82211449753675E-06 9.47837090457236E-07
3 8.68577158838985E-07 -4.14624959730242E-06 0.0201386067836404 0.0126304249817011 0.0201386067836404 0.0126304249817011 -1.67637221103697E-06 1.20877897141716E-06
3.05 5.41163635269104E-07 -4.07605730317475E-06 0.0210578596415981 0.0105683347349961 0.0210578596415981 0.0105683347349961 -1.48682221758079E-06 1.45543578030455E-06
3.1 2.16462084589367E-07 -3.96697749666237E-06 0.0221834171606331 0.00860734950974603 0.0221834171606331 0.00860734950974603 -1.25352261332155E-06 1.67938157721299E-06
3.15 -1.02102676393354E-07 -3.82274979440359E-06 0.0230421299724322 0.00650404112904862 0.0230421299724322 0.00650404112904862 -9.77956014082023E-07 1.87094158558465E-06
3.2 -4.11312045184253E-07 -3.64722239021265E-06 0.0237397878111498 0.00432226289854445 0.0237397878111498 0.00432226289854445 -6.64342418656763E-07 2.02101079326E-06
3.25 -7.0850626631187E-07 -3.44447058235962E-06 0.0240948911563317 0.0020550346569245 0.0240948911563317 0.0020550346569245 -3.19470311294405E-07 2.12079728552378E-06
3.3 -9.91359267179453E-07 -3.21870617545657E-06 0.0245962817415644 -0.000244152520401795 0.0245962817415644 -0.000244152520401795 4.80155886602298E-08 2.16284259248532E-06
3.35 -1.25813686436001E-06 -2.97424737027391E-06 0.024223619250694 -0.00255119206826949 0.024223619250694 -0.00255119206826949 4.27802289855539E-07 2.14152148831696E-06
3.4 -1.50765742098607E-06 -2.71517898342751E-06 0.0241560597969442 -0.00489495815264637 0.0241560597969442 -0.00489495815264637 8.08030789232864E-07 2.05324978947733E-06
3.45 -1.7393158550247E-06 -2.44494495872771E-06 0.0235550199612168 -0.00715565748670098 0.0235550199612168 -0.00715565748670098 1.17587589311751E-06 1.89707189491208E-06
3.5 -1.95246173236772E-06 -2.16622485963777E-06 0.022557468380029 -0.00927004588608858 0.022557468380029 -0.00927004588608858 1.51841359497213E-06 1.67464319564794E-06
3.55 -2.14593067506549E-06 -1.88161532516527E-06 0.0216468945298339 -0.0114045671682347 0.0216468945298339 -0.0114045671682347 1.82306619768656E-06 1.39042739533444E-06
3.6 -2.31841726244533E-06 -1.5940163314043E-06 0.0203098078934017 -0.013302490920897 0.0203098078934017 -0.013302490920897 2.07809909479455E-06 1.05123629071076E-06
3.65 -2.46915286997919E-06 -1.30652995057836E-06 0.0189717899739718 -0.0151803967783999 0.0189717899739718 -0.0151803967783999 2.27347369552479E-06 6.66416492065965E-07
3.7 -2.59788588429253E-06 -1.02211631477337E-06 0.01782533508831 -0.0172777333275739 0.01782533508831 -0.0172777333275739 2.40112209232889E-06 2.47160288978572E-07
3.75 -2.70469458454478E-06 -7.43511027949204E-07 0.0160954334426172 -0.0188766256172609 0.0160954334426172 -0.0188766256172609 2.45522838775706E-06 -1.94275016407425E-07
3.8 -2.79003288570519E-06 -4.72982720365788E-07 0.0142332585432677 -0.0203175935811734 0.0142332585432677 -0.0203175935811734 2.43246559432425E-06 -6.44404819893755E-07
3.85 -2.85457548338735E-06 -2.12488545407065E-07 0.0120560576189672 -0.0212460220853648 0.0120560576189672 -0.0212460220853648 2.33218118179806E-06 -1.08934641952978E-06
3.9 -2.89912878978652E-06 3.63389607771601E-08 0.0101026864470961 -0.0225498513233396 0.0101026864470961 -0.0225498513233396 2.15631737429485E-06 -1.51590502017238E-06
3.95 -2.92467289022691E-06 2.72248480167059E-07 0.00771137304576275 -0.0227903081325748 0.00771137304576275 -0.0227903081325748 1.90920656626724E-06 -1.91130661655756E-06
4 -2.93233100158037E-06 4.94285987131216E-07 0.00561939631834244 -0.0238554809067107 0.00561939631834244 -0.0238554809067107 1.59727006564952E-06 -2.26401471524791E-06
4.05 -2.92328590356176E-06 7.01811459414758E-07 0.00339296853638828 -0.0247167299128941 0.00339296853638828 -0.0247167299128941 1.22868267515546E-06 -2.56437610014479E-06
4.1 -2.89882939580043E-06 8.94520187569512E-07 0.00104356139411909 -0.0251277589595454 0.00104356139411909 -0.0251277589595454 8.1286275521584E-07 -2.8039316052396E-06
4.15 -2.86031830749865E-06 1.07235366838637E-06 -0.00132732448416239 -0.0248310198536326 -0.00132732448416239 -0.0248310198536326 3.60510375087354E-07 -2.97660559940941E-06
4.2 -2.8091122947749E-06 1.23557068070574E-06 -0.00368362001870596 -0.0246552662573736 -0.00368362001870596 -0.0246552662573736 -1.17875337277573E-07 -3.07787369521167E-06
4.25 -2.74653999888379E-06 1.38470239549749E-06 -0.00605945822512483 -0.0244215460601064 -0.00605945822512483 -0.0244215460601064 -6.1096411867646E-07 -3.104938893837E-06
4.3 -2.67393030244837E-06 1.52045968839067E-06 -0.0083730798193892 -0.0238139309752391 -0.0083730798193892 -0.0238139309752391 -1.10743283044754E-06 -3.05639618806918E-06
4.35 -2.59260361859929E-06 1.64376376973362E-06 -0.0106015013993187 -0.0229345184586975 -0.0106015013993187 -0.0229345184586975 -1.59648424564162E-06 -2.93346836908309E-06
4.4 -2.50377962065592E-06 1.75568136089245E-06 -0.0126159629993183 -0.0216368677084514 -0.0126159629993183 -0.0216368677084514 -2.06763262530454E-06 -2.73833297017098E-06
4.45 -2.40856462544329E-06 1.85746316520505E-06 -0.014510450605385 -0.0202068061625767 -0.014510450605385 -0.0202068061625767 -2.51104575556975E-06 -2.47323823492238E-06
4.5 -2.30800562596048E-06 1.95042216702508E-06 -0.0165265313882529 -0.0189324183236058 -0.0165265313882529 -0.0189324183236058 -2.91776003605901E-06 -2.14309896607067E-06
4.55 -2.20303072021989E-06 2.03588126793163E-06 -0.0182023098734491 -0.0172403170168527 -0.0182023098734491 -0.0172403170168527 -3.27785315421763E-06 -1.75293065812112E-06
4.6 -2.09439472338746E-06 2.11525946987459E-06 -0.0198319692982078 -0.015499444893946 -0.0198319692982078 -0.015499444893946 -3.58385266635764E-06 -1.30864275410639E-06
4.65 -1.98285031778188E-06 2.18999066896906E-06 -0.0211122254376505 -0.013487692163052 -0.0211122254376505 -0.013487692163052 -3.8284225765089E-06 -8.1872686887143E-07
4.7 -1.86890962201959E-06 2.26137477635343E-06 -0.0221682885151834 -0.0113619183253394 -0.0221682885151834 -0.0113619183253394 -4.00443988210719E-06 -2.90760176691549E-07
4.75 -1.75293331908332E-06 2.33076486927005E-06 -0.0225883361363482 -0.00898909024865666 -0.0225883361363482 -0.00898909024865666 -4.10769469347862E-06 2.65975458747305E-07
4.8 -1.63525888136061E-06 2.39934581962068E-06 -0.0233212316060518 -0.00680362970481353 -0.0233212316060518 -0.00680362970481353 -4.13314710547459E-06 8.40563840237192E-07
4.85 -1.51594832289971E-06 2.46809067856286E-06 -0.024303687676671 -0.00464819962360071 -0.024303687676671 -0.00464819962360071 -4.07718000942974E-06 1.424376047435E-06
4.9 -1.39501212704573E-06 2.53795228468596E-06 -0.0245746470016819 -0.00231896581693776 -0.0245746470016819 -0.00231896581693776 -3.93869460378644E-06 2.00514576394583E-06
4.95 -1.27243032137323E-06 2.60965608321035E-06 -0.0248974843935521 2.00341783981433E-05 -0.0248974843935521 2.00341783981433E-05 -3.71596178738313E-06 2.5709634041005E-06
5 -1.14793912017198E-06 2.68374047682989E-06 -0.0244462088118768 0.00234663648737453 -0.0244462088118768 0.00234663648737453 -3.41127233265243E-06 3.10949044701614E-06
5.05 -1.14793912017198E-06 2.68374047682989E-06 -0.0245901692003913 0.00236045550949875 -0.0245901692003913 0.00236045550949875 -3.41127233265243E-06 3.10949044701614E-06
5.1 -1.14793912017198E-06 2.68374047682989E-06 -0.0249408653117087 0.00239411947339314 -0.0249408653117087 0.00239411947339314 -3.41127233265243E-06 3.10949044701614E-06
5.15 -1.14793912017198E-06 2.68374047682989E-06 -0.0250992946561394 0.00240932739717277 -0.0250992946561394 0.00240932739717277 -3.41127233265243E-06 3.10949044701614E-06
5.2 -1.14793912017198E-06 2.68374047682989E-06 -0.0248520098486641 0.00238559007428314 -0.0248520098486641 0.00238559007428314 -3.41127233265243E-06 3.10949044701614E-06
5.25 -1.14793912017198E-06 2.68374047682989E-06 -0.0245703598487267 0.00235855397344607 -0.0245703598487267 0.00235855397344607 -3.41127233265243E-06 3.10949044701614E-06
5.3 -1.14793912017198E-06 2.68374047682989E-06 -0.0241135702701798 0.00231470590275668 -0.0241135702701798 0.00231470590275668 -3.41127233265243E-06 3.10949044701614E-06
5.35 -1.14793912017198E-06 2.68374047682989E-06 -0.023917265086469 0.00229586220759309 -0.023917265086469 0.00229586220759309 -3.41127233265243E-06 3.10949044701614E-06
5.4 -1.14793912017198E-06 2.68374047682989E-06 -0.0238787460608379 0.00229216469556987 -0.0238787460608379 0.00229216469556987 -3.41127233265243E-06 3.10949044701614E-06
5.45 -1.14793912017198E-06 2.68374047682989E-06 -0.0238567630480557 0.00229005450579386 -0.0238567630480557 0.00229005450579386 -3.41127233265243E-06 3.10949044701614E-06
5.5 -1.14793912017198E-06 2.68374047682989E-06 -0.0239889653447657 0.00230274484708816 -0.0239889653447657 0.00230274484708816 -3.41127233265243E-06 3.10949044701614E-06
5.55 -1.14793912017198E-06 2.68374047682989E-06 -0.0240414975820925 0.00230778751304193 -0.0240414975820925 0.00230778751304193 -3.41127233265243E-06 3.10949044701614E-06
5.6 -1.14793912017198E-06 2.68374047682989E-06 -0.0239917273354556 0.00230300997564779 -0.0239917273354556 0.00230300997564779 -3.41127233265243E-06 3.10949044701614E-06
5.65 -1.14793912017198E-06 2.68374047682989E-06 -0.0239917273354556 0.00230300997564779 -0.0239917273354556 0.00230300997564779 -3.41127233265243E-06 3.10949044701614E-06
5.7 -1.14793912017198E-06 2.68374047682989E-06 -0.0237170963036301 0.00227664763845242 -0.0237170963036301 0.00227664763845242 -3.41127233265243E-06 3.10949044701614E-06
5.75 -1.14793912017198E-06 2.68374047682989E-06 -0.0234510081197749 0.00225110534492548 -0.0234510081197749 0.00225110534492548 -3.41127233265243E-06 3.10949044701614E-06
5.8 -1.14793912017198E-06 2.68374047682989E-06 -0.0234456089472302 0.00225058706843555 -0.0234456089472302 0.00225058706843555 -3.41127233265243E-06 3.10949044701614E-06
