# GHZ S RI R 50
0.5 3.78783689418392E-06 2.67767448855045E-06 -0.596852117198456 0.612281282618799 -0.596852117198456 0.612281282618799 -1.3657077449642E-06 -2.09084426757951E-06
0.55 3.78783689418392E-06 2.67767448855045E-06 -0.585890881283172 0.60103668887119 -0.585890881283172 0.60103668887119 -1.3657077449642E-06 -2.09084426757951E-06
0.6 3.78783689418392E-06 2.67767448855045E-06 -0.589137596689242 0.60436733479812 -0.589137596689242 0.60436733479812 -1.3657077449642E-06 -2.09084426757951E-06
0.65 3.78783689418392E-06 2.67767448855045E-06 -0.591312062861054 0.606598012881223 -0.591312062861054 0.606598012881223 -1.3657077449642E-06 -2.09084426757951E-06
0.7 3.78783689418392E-06 2.67767448855045E-06 -0.595753686970458 0.611154456978935 -0.595753686970458 0.611154456978935 -1.3657077449642E-06 -2.09084426757951E-06
0.75 3.78783689418392E-06 2.67767448855045E-06 -0.598228003425897 0.613692736745878 -0.598228003425897 0.613692736745878 -1.3657077449642E-06 -2.09084426757951E-06
0.8 3.78783689418392E-06 2.67767448855045E-06 -0.58879855941941 0.604019533109148 -0.58879855941941 0.604019533109148 -1.3657077449642E-06 -2.09084426757951E-06
0.85 3.78783689418392E-06 2.67767448855045E-06 -0.597264550467795 0.612704377660048 -0.597264550467795 0.612704377660048 -1.3657077449642E-06 -2.09084426757951E-06
0.9 3.78783689418392E-06 2.67767448855045E-06 -0.590495699110252 0.605760545391335 -0.590495699110252 0.605760545391335 -1.3657077449642E-06 -2.09084426757951E-06
0.95 3.78783689418392E-06 2.67767448855045E-06 -0.592675177944282 0.607996365718494 -0.592675177944282 0.607996365718494 -1.3657077449642E-06 -2.09084426757951E-06
1 3.78783689418392E-06 2.67767448855045E-06 -0.594725744653639 0.610099941426315 -0.594725744653639 0.610099941426315 -1.3657077449642E-06 -2.09084426757951E-06
1.05 3.78783689418392E-06 2.67767448855045E-06 -0.598365766374124 0.613834060990539 -0.598365766374124 0.613834060990539 -1.3657077449642E-06 -2.09084426757951E-06
1.1 3.78783689418392E-06 2.67767448855045E-06 -0.597127041054711 0.612563313504641 -0.597127041054711 0.612563313504641 -1.3657077449642E-06 -2.09084426757951E-06
1.15 3.78783689418392E-06 2.67767448855045E-06 -0.595273759638749 0.610662123092945 -0.595273759638749 0.610662123092945 -1.3657077449642E-06 -2.09084426757951E-06
1.2 3.78783689418392E-06 2.67767448855045E-06 -0.597333317048766 0.612774921919145 -0.597333317048766 0.612774921919145 -1.3657077449642E-06 -2.09084426757951E-06
1.25 3.78783689418392E-06 2.67767448855045E-06 -0.590835713613466 0.606109349576053 -0.590835713613466 0.606109349576053 -1.3657077449642E-06 -2.09084426757951E-06
1.3 3.78783689418392E-06 2.67767448855045E-06 -0.593289604475794 0.608626675729884 -0.593289604475794 0.608626675729884 -1.3657077449642E-06 -2.09084426757951E-06
1.35 3.78783689418392E-06 2.67767448855045E-06 -0.591107866175414 0.606388537527132 -0.591107866175414 0.606388537527132 -1.3657077449642E-06 -2.09084426757951E-06
1.4 3.78783689418392E-06 2.67767448855045E-06 -0.592879916053725 0.608206396492681 -0.592879916053725 0.608206396492681 -1.3657077449642E-06 -2.09084426757951E-06
1.45 3.78783689418392E-06 2.67767448855045E-06 -0.588256505568474 0.603463466677386 -0.588256505568474 0.603463466677386 -1.3657077449642E-06 -2.09084426757951E-06
1.5 3.78783689418392E-06 2.67767448855045E-06 -0.58643075530993 0.601590519128352 -0.58643075530993 0.601590519128352 -1.3657077449642E-06 -2.09084426757951E-06
1.55 3.78783689418392E-06 2.67767448855045E-06 -0.592470510536668 0.607786407473842 -0.592470510536668 0.607786407473842 -1.3657077449642E-06 -2.09084426757951E-06
1.6 3.78783689418392E-06 2.67767448855045E-06 -0.583266104332611 0.598344059069654 -0.583266104332611 0.598344059069654 -1.3657077449642E-06 -2.09084426757951E-06
1.65 3.78783689418392E-06 2.67767448855045E-06 -0.581857636825803 0.596899181407759 -0.581857636825803 0.596899181407759 -1.3657077449642E-06 -2.09084426757951E-06
1.7 3.78783689418392E-06 2.67767448855045E-06 -0.583938000951723 0.59903332482223 -0.583938000951723 0.59903332482223 -1.3657077449642E-06 -2.09084426757951E-06
1.75 3.78783689418392E-06 2.67767448855045E-06 -0.585958338346707 0.601105889760644 -0.585958338346707 0.601105889760644 -1.3657077449642E-06 -2.09084426757951E-06
1.8 3.78783689418392E-06 2.67767448855045E-06 -0.580987433327945 0.596006482364806 -0.580987433327945 0.596006482364806 -1.3657077449642E-06 -2.09084426757951E-06
1.85 3.78783689418392E-06 2.67767448855045E-06 -0.577386650813067 0.592312616375036 -0.577386650813067 0.592312616375036 -1.3657077449642E-06 -2.09084426757951E-06
1.9 3.78783689418392E-06 2.67767448855045E-06 -0.578917581028666 0.593883122517172 -0.578917581028666 0.593883122517172 -1.3657077449642E-06 -2.09084426757951E-06
1.95 3.78783689418392E-06 2.67767448855045E-06 -0.574799972608932 0.589659070206877 -0.574799972608932 0.589659070206877 -1.3657077449642E-06 -2.09084426757951E-06
2 3.78783689418392E-06 2.67767448855045E-06 -0.575130949324645 0.589998602969138 -0.575130949324645 0.589998602969138 -1.3657077449642E-06 -2.09084426757951E-06
2.05 4.14674640069063E-06 2.02118979322361E-06 -0.509529200935792 0.636943457015906 -0.509529200935792 0.636943457015906 -1.63796721937309E-06 -1.9319069743306E-06
2.1 4.44499239752406E-06 1.3363721838248E-06 -0.446081307792119 0.685624927712251 -0.446081307792119 0.685624927712251 -1.88718086714143E-06 -1.73194393509683E-06
2.15 4.67875179321568E-06 6.35638779884063E-07 -0.371614901908619 0.715687470500113 -0.371614901908619 0.715687470500113 -2.10609526225381E-06 -1.49647893067906E-06
2.2 4.84540479335096E-06 -6.8856430471021E-08 -0.303113386839712 0.756588937847616 -0.303113386839712 0.756588937847616 -2.28983186620199E-06 -1.23206994905373E-06
2.25 4.94364159437939E-06 -7.65428032234076E-07 -0.224169881281705 0.770294018085003 -0.224169881281705 0.770294018085003 -2.43547109097248E-06 -9.46157116346642E-07
2.3 4.97338478632399E-06 -1.44302424083366E-06 -0.150423285568535 0.802200885215001 -0.150423285568535 0.802200885215001 -2.54187298477478E-06 -6.45606817454616E-07
2.35 4.9358439796497E-06 -2.09129144298795E-06 -0.0699253925171687 0.796708602260283 -0.0699253925171687 0.796708602260283 -2.60957748286101E-06 -3.36381737324605E-07
2.4 4.83330037068413E-06 -2.70083785090535E-06 0.00820690350142452 0.8003369709481 0.00820690350142452 0.8003369709481 -2.64005168861371E-06 -2.34877518538977E-08
2.45 4.6694235572922E-06 -3.26342444393419E-06 0.0856603252838647 0.789837165213016 0.0856603252838647 0.789837165213016 -2.63523930011967E-06 2.89172063821833E-07
2.5 4.448936746222E-06 -3.77214864863398E-06 0.159737508992325 0.76523980368215 0.159737508992325 0.76523980368215 -2.59728150449116E-06 5.99068058287307E-07
2.55 4.17725924022167E-06 -4.22176593940516E-06 0.235935306667682 0.753308308253635 0.235935306667682 0.753308308253635 -2.52832131162415E-06 9.0431065578424E-07
2.6 3.86011273315253E-06 -4.60849444877281E-06 0.304270633902747 0.717196674935758 0.304270633902747 0.717196674935758 -2.42981211009592E-06 1.20383745891945E-06
2.65 3.50335343296764E-06 -4.92958974756053E-06 0.37621031874267 0.690406620217036 0.37621031874267 0.690406620217036 -2.30350160165893E-06 1.49657278791559E-06
2.7 3.11330882744608E-06 -5.18335394023436E-06 0.434267074415601 0.639421559489135 0.434267074415601 0.639421559489135 -2.15120182088616E-06 1.78054836717646E-06
2.75 2.69656658390614E-06 -5.36919819513071E-06 0.492536521542704 0.591631769302688 0.492536521542704 0.591631769302688 -1.97300482195559E-06 2.05011396926793E-06
2.8 2.25962650712906E-06 -5.48760263583768E-06 0.55963997030619 0.552434067399327 0.55963997030619 0.552434067399327 -1.77523071932306E-06 2.30324347160381E-06
2.85 1.80914798238584E-06 -5.5400717930252E-06 0.595248491607601 0.482647336179036 0.595248491607601 0.482647336179036 -1.55130192627904E-06 2.524027683841E-06
2.9 1.35172232914267E-06 -5.52892821228941E-06 0.64430636484352 0.425569833460933 0.64430636484352 0.425569833460933 -1.29016312197232E-06 2.72126648084244E-06
2.95 8.93549425432578E-07 -5.4573629103098E-06 0.67986235868422 0.359287665929634 0.67986235868422 0.359287665929634 -9.94342421687709E-07 2.88744898264446E-06
3 4.40494484087227E-07 -5.32926109952057E-06 0.720349414644501 0.294944435234103 0.720349414644501 0.294944435234103 -6.67172021999687E-07 3.01442138616106E-06
3.05 -1.90427448594064E-09 -5.14897999548838E-06 0.739141806885144 0.221457857329587 0.739141806885144 0.221457857329587 -3.1459462188896E-07 3.09733959346886E-06
3.1 -4.2852234094837E-07 -4.92146268429681E-06 0.752492000759859 0.147534145391192 0.752492000759859 0.147534145391192 5.65525830057235E-08 3.1347429956928E-06
3.15 -8.34779126839808E-07 -4.65192869430434E-06 0.767948223122581 0.0740489514295495 0.767948223122581 0.0740489514295495 4.38562184637593E-07 3.1198083983928E-06
3.2 -1.21665976612238E-06 -4.3458854775116E-06 0.766199236670845 -0.00101933242048372 0.766199236670845 -0.00101933242048372 8.27380085686439E-07 3.04891989915554E-06
3.25 -1.57054604228949E-06 -4.00902838054471E-06 0.767224437307304 -0.0760248376927142 0.767224437307304 -0.0760248376927142 1.21033738648205E-06 2.92113559313042E-06
3.3 -1.89347043268459E-06 -3.64710697400519E-06 0.758640132864719 -0.15077503805633 0.758640132864719 -0.15077503805633 1.57727589142855E-06 2.7349438959025E-06
3.35 -2.1829957284839E-06 -3.26588347778837E-06 0.727631055610414 -0.219981024676721 0.727631055610414 -0.219981024676721 1.91854059692422E-06 2.49287160145372E-06
3.4 -2.43726202094976E-06 -2.8710915643163E-06 0.706115312687912 -0.291054901812338 0.706115312687912 -0.291054901812338 2.22410429714362E-06 2.19930689697084E-06
3.45 -2.65492732998217E-06 -2.46821286523771E-06 0.666953625625148 -0.354323915431221 0.666953625625148 -0.354323915431221 2.48568669376868E-06 1.85891509081871E-06
3.5 -2.83520913752897E-06 -2.06269286416502E-06 0.626422105880611 -0.415527118536934 0.626422105880611 -0.415527118536934 2.69378759851292E-06 1.47946379677996E-06
3.55 -2.9778158600497E-06 -1.65968895754349E-06 0.577359852993979 -0.469788992894161 0.577359852993979 -0.469788992894161 2.84105179645627E-06 1.07054079088663E-06
3.6 -3.08312538305354E-06 -1.2639634173877E-06 0.532441858914509 -0.527098045621018 0.532441858914509 -0.527098045621018 2.92360570228611E-06 6.43994886692146E-07
3.65 -3.15182368015811E-06 -8.79947761168714E-07 0.47371799513298 -0.570325535949521 0.47371799513298 -0.570325535949521 2.93946789177136E-06 2.10209084640316E-07
3.7 -3.18510688184914E-06 -5.11696950251929E-07 0.412345932636389 -0.608155206632931 0.412345932636389 -0.608155206632931 2.88823519649872E-06 -2.20358818601653E-07
3.75 -3.18459019384957E-06 -1.62832424748967E-07 0.350901187019877 -0.644564739808839 0.350901187019877 -0.644564739808839 2.77136918709994E-06 -6.36678618942767E-07
3.8 -3.15229409896013E-06 1.63472641164013E-07 0.284372758250015 -0.67026945552195 0.284372758250015 -0.67026945552195 2.59164658535031E-06 -1.02842642341131E-06
3.85 -3.09064140381654E-06 4.64544564354256E-07 0.220009588803749 -0.701353782353971 0.220009588803749 -0.701353782353971 2.3537061760684E-06 -1.38581562136436E-06
3.9 -3.0022892052411E-06 7.38278154107636E-07 0.146973477059483 -0.700896490800697 0.146973477059483 -0.700896490800697 2.06426597078241E-06 -1.69976501349722E-06
3.95 -2.89020481301439E-06 9.83067560204314E-07 0.0802790600826477 -0.730677704129299 0.0802790600826477 -0.730677704129299 1.73099017384533E-06 -1.96287762198607E-06
4 -2.75750681234888E-06 1.19783295959911E-06 0.00866302381418507 -0.712091427647314 0.00866302381418507 -0.712091427647314 1.36283908785718E-06 -2.16939109590955E-06
4.05 -2.60753489876673E-06 1.38203408573156E-06 -0.0617033599625051 -0.723324766641597 -0.0617033599625051 -0.723324766641597 9.68896282993255E-07 -2.31497489997325E-06
4.1 -2.44372381869435E-06 1.53569916153086E-06 -0.128374499998219 -0.696128414666589 -0.128374499998219 -0.696128414666589 5.58981675269012E-07 -2.39653590581938E-06
4.15 -2.26949691671369E-06 1.6594072623066E-06 -0.198703573704945 -0.691979639464961 -0.198703573704945 -0.691979639464961 1.43017991697315E-07 -2.41262598887904E-06
4.2 -2.08834961307933E-06 1.75421576553605E-06 -0.264600552580068 -0.66848932109999 -0.264600552580068 -0.66848932109999 -2.68959420203449E-07 -2.36341739336852E-06
4.25 -1.90354971722556E-06 1.82173166958455E-06 -0.329146799214755 -0.641335407398983 -0.329146799214755 -0.641335407398983 -6.67242425914884E-07 -2.25026738184599E-06
4.3 -1.71823881732879E-06 1.8639413747826E-06 -0.391822834758084 -0.609357900965706 -0.391822834758084 -0.609357900965706 -1.0423008178093E-06 -2.07596218595488E-06
4.35 -1.5353181145851E-06 1.88318887015244E-06 -0.444080834171146 -0.561994993069676 -0.444080834171146 -0.561994993069676 -1.38514721760518E-06 -1.84465137301131E-06
4.4 -1.35738701770706E-06 1.88221377980988E-06 -0.496363589121905 -0.51598467985405 -0.496363589121905 -0.51598467985405 -1.68755576337633E-06 -1.56181503562464E-06
4.45 -1.18674131854845E-06 1.86394148432911E-06 -0.540237458202277 -0.461986134659385 -0.540237458202277 -0.461986134659385 -1.94202935918331E-06 -1.23406803945676E-06
4.5 -1.02521651120593E-06 1.83142207978218E-06 -0.587858204242589 -0.411014053235481 -0.587858204242589 -0.411014053235481 -2.14226887573693E-06 -8.68953345463146E-07
4.55 -8.74228312485284E-07 1.78783027849224E-06 -0.625851150846854 -0.352422113596533 -0.625851150846854 -0.352422113596533 -2.28298677947287E-06 -4.75088034142431E-07
4.6 -7.34840214079821E-07 1.73617259251549E-06 -0.658176089488839 -0.290395360112777 -0.658176089488839 -0.290395360112777 -2.36018849336067E-06 -6.16405159187791E-08
4.65 -6.07713912171653E-07 1.67929889193314E-06 -0.678722525615763 -0.22355222546245 -0.678722525615763 -0.22355222546245 -2.3713921038424E-06 3.61540462500622E-07
4.7 -4.93255908764307E-07 1.61991668396906E-06 -0.687903077065072 -0.154426836732365 -0.687903077065072 -0.154426836732365 -2.3154036991976E-06 7.84323073952577E-07
4.75 -3.91702510688672E-07 1.56044428719676E-06 -0.70054564219946 -0.0869334575219913 -0.70054564219946 -0.0869334575219913 -2.19279500579598E-06 1.19643577695472E-06
4.8 -3.02982009956013E-07 1.50320038979648E-06 -0.701718954162588 -0.0183079718951119 -0.701718954162588 -0.0183079718951119 -2.00553021887177E-06 1.58765677306519E-06
4.85 -2.26884209515818E-07 1.45028639714785E-06 -0.704963991967503 0.0503549074772075 -0.704963991967503 0.0503549074772075 -1.75719132507198E-06 1.94826627738513E-06
4.9 -1.6296840875435E-07 1.40360959880224E-06 -0.694828227456903 0.11835255232885 -0.694828227456903 0.11835255232885 -1.45292002162692E-06 2.26900097823911E-06
4.95 -1.10533707922153E-07 1.36486509837212E-06 -0.684768503381933 0.186669163374807 -0.684768503381933 0.186669163374807 -1.0991125174175E-06 2.54154307832553E-06
5 -6.87046078946486E-08 1.33553599884497E-06 -0.652567988448071 0.248292954094585 -0.652567988448071 0.248292954094585 -7.03578402687685E-07 2.7586155230607E-06
5.05 -6.87046078946486E-08 1.33553599884497E-06 -0.659516652515605 0.250936823176244 -0.659516652515605 0.250936823176244 -7.03578402687685E-07 2.7586155230607E-06
5.1 -6.87046078946486E-08 1.33553599884497E-06 -0.664547097910723 0.252850836994997 -0.664547097910723 0.252850836994997 -7.03578402687685E-07 2.7586155230607E-06
5.15 -6.87046078946486E-08 1.33553599884497E-06 -0.667460801720171 0.253959460370663 -0.667460801720171 0.253959460370663 -7.03578402687685E-07 2.7586155230607E-06
5.2 -6.87046078946486E-08 1.33553599884497E-06 -0.657999806306856 0.250359684498368 -0.657999806306856 0.250359684498368 -7.03578402687685E-07 2.7586155230607E-06
5.25 -6.87046078946486E-08 1.33553599884497E-06 -0.660048374369851 0.251139135873595 -0.660048374369851 0.251139135873595 -7.03578402687685E-07 2.7586155230607E-06
5.3 -6.87046078946486E-08 1.33553599884497E-06 -0.642577871691226 0.244491854982742 -0.642577871691226 0.244491854982742 -7.03578402687685E-07 2.7586155230607E-06
5.35 -6.87046078946486E-08 1.33553599884497E-06 -0.648523571533383 0.246754110263574 -0.648523571533383 0.246754110263574 -7.03578402687685E-07 2.7586155230607E-06
5.4 -6.87046078946486E-08 1.33553599884497E-06 -0.63376137276962 0.241137300973399 -0.63376137276962 0.241137300973399 -7.03578402687685E-07 2.7586155230607E-06
5.45 -6.87046078946486E-08 1.33553599884497E-06 -0.654750389982989 0.249123327226147 -0.654750389982989 0.249123327226147 -7.03578402687685E-07 2.7586155230607E-06
5.5 -6.87046078946486E-08 1.33553599884497E-06 -0.643540325402812 0.244858055102054 -0.643540325402812 0.244858055102054 -7.03578402687685E-07 2.7586155230607E-06
5.55 -6.87046078946486E-08 1.33553599884497E-06 -0.650018572764897 0.247322937234432 -0.650018572764897 0.247322937234432 -7.03578402687685E-07 2.7586155230607E-06
5.6 -6.87046078946486E-08 1.33553599884497E-06 -0.645098104454395 0.245450768151715 -0.645098104454395 0.245450768151715 -7.03578402687685E-07 2.7586155230607E-06
5.65 -6.87046078946486E-08 1.33553599884497E-06 -0.634053297880593 0.24124837437795 -0.634053297880593 0.24124837437795 -7.03578402687685E-07 2.7586155230607E-06
5.7 -6.87046078946486E-08 1.33553599884497E-06 -0.644726862996818 0.245309515991303 -0.644726862996818 0.245309515991303 -7.03578402687685E-07 2.7586155230607E-06
5.75 -6.87046078946486E-08 1.33553599884497E-06 -0.628023313273208 0.238954049927753 -0.628023313273208 0.238954049927753 -7.03578402687685E-07 2.7586155230607E-06
5.8 -6.87046078946486E-08 1.33553599884497E-06 -0.645395251525552 0.245563828438772 -0.645395251525552 0.245563828438772 -7.03578402687685E-07 2.7586155230607E-06
