# GHZ S RI R 50
0.5 0.0001 0.0001 0.887360310778668 0 0.887360310778668 0 0.0001 0.0001
0.55 0.0001 0.0001 0.875588401413115 0 0.875588401413115 0 0.0001 0.0001
0.6 0.0001 0.0001 0.893922770479138 0 0.893922770479138 0 0.0001 0.0001
0.65 0.0001 0.0001 0.880136435306341 0 0.880136435306341 0 0.0001 0.0001
0.7 0.0001 0.0001 0.891148334983958 0 0.891148334983958 0 0.0001 0.0001
0.75 0.0001 0.0001 0.900326431059723 0 0.900326431059723 0 0.0001 0.0001
0.8 0.0001 0.0001 0.895364765549594 0 0.895364765549594 0 0.0001 0.0001
0.85 0.0001 0.0001 0.891353553096838 0 0.891353553096838 0 0.0001 0.0001
0.9 0.0001 0.0001 0.88521751839749 0 0.88521751839749 0 0.0001 0.0001
0.95 0.0001 0.0001 0.898566037853974 0 0.898566037853974 0 0.0001 0.0001
1 0.0001 0.0001 0.884606242950281 0 0.884606242950281 0 0.0001 0.0001
1.05 0.0001 0.0001 0.892174898243773 0 0.892174898243773 0 0.0001 0.0001
1.1 0.0001 0.0001 0.893099816223518 0 0.893099816223518 0 0.0001 0.0001
1.15 0.0001 0.0001 0.882571705049325 0 0.882571705049325 0 0.0001 0.0001
1.2 0.0001 0.0001 0.883384958089318 0 0.883384958089318 0 0.0001 0.0001
1.25 0.0001 0.0001 0.882063802136673 0 0.882063802136673 0 0.0001 0.0001
1.3 0.0001 0.0001 0.88419896050809 0 0.88419896050809 0 0.0001 0.0001
1.35 0.0001 0.0001 0.882063802136673 0 0.882063802136673 0 0.0001 0.0001
1.4 0.0001 0.0001 0.882876587165302 0 0.882876587165302 0 0.0001 0.0001
1.45 0.0001 0.0001 0.87760684113662 0 0.87760684113662 0 0.0001 0.0001
1.5 0.0001 0.0001 0.877505808731129 0 0.877505808731129 0 0.0001 0.0001
1.55 0.0001 0.0001 0.875991717633117 0 0.875991717633117 0 0.0001 0.0001
1.6 0.0001 0.0001 0.86716152409183 0 0.86716152409183 0 0.0001 0.0001
1.65 0.0001 0.0001 0.868260412032009 0 0.868260412032009 0 0.0001 0.0001
1.7 0.0001 0.0001 0.870261958995358 0 0.870261958995358 0 0.0001 0.0001
1.75 0.0001 0.0001 0.870462367288708 0 0.870462367288708 0 0.0001 0.0001
1.8 0.0001 0.0001 0.861192026148752 0 0.861192026148752 0 0.0001 0.0001
1.85 0.0001 0.0001 0.865465977673737 0 0.865465977673737 0 0.0001 0.0001
1.9 0.0001 0.0001 0.860003066888856 0 0.860003066888856 0 0.0001 0.0001
1.95 0.0001 0.0001 0.858914629611715 0 0.858914629611715 0 0.0001 0.0001
2 0.0001 0.0001 0.854968275357981 0 0.854968275357981 0 0.0001 0.0001
2.05 0.0001 0.0001 0.852609171434438 0 0.852609171434438 0 0.0001 0.0001
2.1 0.0001 0.0001 0.851530092020945 0 0.851530092020945 0 0.0001 0.0001
2.15 0.0001 0.0001 0.843237670851073 0 0.843237670851073 0 0.0001 0.0001
2.2 0.0001 0.0001 0.842364391438402 0 0.842364391438402 0 0.0001 0.0001
2.25 0.0001 0.0001 0.842946477167722 0 0.842946477167722 0 0.0001 0.0001
2.3 0.0001 0.0001 0.848301041097193 0 0.848301041097193 0 0.0001 0.0001
2.35 0.0001 0.0001 0.845084234919653 0 0.845084234919653 0 0.0001 0.0001
2.4 0.0001 0.0001 0.84372321721183 0 0.84372321721183 0 0.0001 0.0001
2.45 0.0001 0.0001 0.840814127170448 0 0.840814127170448 0 0.0001 0.0001
2.5 0.0001 0.0001 0.831955313840021 0 0.831955313840021 0 0.0001 0.0001
2.55 0.0001 0.0001 0.830424206152315 0 0.830424206152315 0 0.0001 0.0001
2.6 0.0001 0.0001 0.824707606127079 0 0.824707606127079 0 0.0001 0.0001
2.65 0.0001 0.0001 0.829946313114698 0 0.829946313114698 0 0.0001 0.0001
2.7 0.0001 0.0001 0.820634932651979 0 0.820634932651979 0 0.0001 0.0001
2.75 0.0001 0.0001 0.827656251997777 0 0.827656251997777 0 0.0001 0.0001
2.8 0.0001 0.0001 0.833969177631605 0 0.833969177631605 0 0.0001 0.0001
2.85 0.0001 0.0001 0.825657632621327 0 0.825657632621327 0 0.0001 0.0001
2.9 0.0001 0.0001 0.820351544329818 0 0.820351544329818 0 0.0001 0.0001
2.95 0.0001 0.0001 0.823948372044987 0 0.823948372044987 0 0.0001 0.0001
3 0.0001 0.0001 0.821296552834554 0 0.821296552834554 0 0.0001 0.0001
3.05 0.0001 0.0001 0.812736940979341 0 0.812736940979341 0 0.0001 0.0001
3.1 0.0001 0.0001 0.816582371358592 0 0.816582371358592 0 0.0001 0.0001
3.15 0.0001 0.0001 0.81846478813479 0 0.81846478813479 0 0.0001 0.0001
3.2 0.0001 0.0001 0.818936069972668 0 0.818936069972668 0 0.0001 0.0001
3.25 0.0001 0.0001 0.809934689135331 0 0.809934689135331 0 0.0001 0.0001
3.3 0.0001 0.0001 0.821296552834554 0 0.821296552834554 0 0.0001 0.0001
3.35 0.0001 0.0001 0.811428018953858 0 0.811428018953858 0 0.0001 0.0001
3.4 0.0001 0.0001 0.810130531880825 0 0.810130531880825 0 0.0001 0.0001
3.45 0.0001 0.0001 0.804507320029609 0 0.804507320029609 0 0.0001 0.0001
3.5 0.0001 0.0001 0.799751383411068 0 0.799751383411068 0 0.0001 0.0001
3.55 0.0001 0.0001 0.798003874574219 0 0.798003874574219 0 0.0001 0.0001
3.6 0.0001 0.0001 0.799005925328941 0 0.799005925328941 0 0.0001 0.0001
3.65 0.0001 0.0001 0.803424368329026 0 0.803424368329026 0 0.0001 0.0001
3.7 0.0001 0.0001 0.788070371566015 0 0.788070371566015 0 0.0001 0.0001
3.75 0.0001 0.0001 0.799935554175051 0 0.799935554175051 0 0.0001 0.0001
3.8 0.0001 0.0001 0.774907742190995 0 0.774907742190995 0 0.0001 0.0001
3.85 0.0001 0.0001 0.789223484789973 0 0.789223484789973 0 0.0001 0.0001
3.9 0.0001 0.0001 0.784512738820292 0 0.784512738820292 0 0.0001 0.0001
3.95 0.0001 0.0001 0.779201894882609 0 0.779201894882609 0 0.0001 0.0001
4 0.0001 0.0001 0.777051852243097 0 0.777051852243097 0 0.0001 0.0001
4.05 0.0001 0.0001 0.780998140761064 0 0.780998140761064 0 0.0001 0.0001
4.1 0.0001 0.0001 0.782438118363527 0 0.782438118363527 0 0.0001 0.0001
4.15 0.0001 0.0001 0.774640144753754 0 0.774640144753754 0 0.0001 0.0001
4.2 0.0001 0.0001 0.782167920475605 0 0.782167920475605 0 0.0001 0.0001
4.25 0.0001 0.0001 0.784783746719655 0 0.784783746719655 0 0.0001 0.0001
4.3 0.0001 0.0001 0.78370027651284 0 0.78370027651284 0 0.0001 0.0001
4.35 0.0001 0.0001 0.778036551039804 0 0.778036551039804 0 0.0001 0.0001
4.4 0.0001 0.0001 0.782348042031461 0 0.782348042031461 0 0.0001 0.0001
4.45 0.0001 0.0001 0.777409780255033 0 0.777409780255033 0 0.0001 0.0001
4.5 0.0001 0.0001 0.781807801763586 0 0.781807801763586 0 0.0001 0.0001
4.55 0.0001 0.0001 0.774550966144898 0 0.774550966144898 0 0.0001 0.0001
4.6 0.0001 0.0001 0.778574185319996 0 0.778574185319996 0 0.0001 0.0001
4.65 0.0001 0.0001 0.768068580990099 0 0.768068580990099 0 0.0001 0.0001
4.7 0.0001 0.0001 0.763659924136158 0 0.763659924136158 0 0.0001 0.0001
4.75 0.0001 0.0001 0.768510844087684 0 0.768510844087684 0 0.0001 0.0001
4.8 0.0001 0.0001 0.757355877274438 0 0.757355877274438 0 0.0001 0.0001
4.85 0.0001 0.0001 0.769307559506068 0 0.769307559506068 0 0.0001 0.0001
4.9 0.0001 0.0001 0.760939274498719 0 0.760939274498719 0 0.0001 0.0001
4.95 0.0001 0.0001 0.76815701324382 0 0.76815701324382 0 0.0001 0.0001
5 0.0001 0.0001 0.759276572646526 0 0.759276572646526 0 0.0001 0.0001
5.05 0.0001 0.0001 0.762166752664596 0 0.762166752664596 0 0.0001 0.0001
5.1 0.0001 0.0001 0.763220452648997 0 0.763220452648997 0 0.0001 0.0001
5.15 0.0001 0.0001 0.775175432069081 0 0.775175432069081 0 0.0001 0.0001
5.2 0.0001 0.0001 0.772858521860332 0 0.772858521860332 0 0.0001 0.0001
5.25 0.0001 0.0001 0.768864837914199 0 0.768864837914199 0 0.0001 0.0001
5.3 0.0001 0.0001 0.762517824256225 0 0.762517824256225 0 0.0001 0.0001
5.35 0.0001 0.0001 0.758402926195531 0 0.758402926195531 0 0.0001 0.0001
5.4 0.0001 0.0001 0.756397352356767 0 0.756397352356767 0 0.0001 0.0001
5.45 0.0001 0.0001 0.756658647868493 0 0.756658647868493 0 0.0001 0.0001
5.5 0.0001 0.0001 0.76155276627404 0 0.76155276627404 0 0.0001 0.0001
5.55 0.0001 0.0001 0.759014373091746 0 0.759014373091746 0 0.0001 0.0001
5.6 0.0001 0.0001 0.766919887695604 0 0.766919887695604 0 0.0001 0.0001
5.65 0.0001 0.0001 0.768864837914199 0 0.768864837914199 0 0.0001 0.0001
5.7 0.0001 0.0001 0.761640448323685 0 0.761640448323685 0 0.0001 0.0001
5.75 0.0001 0.0001 0.75866491452756 0 0.75866491452756 0 0.0001 0.0001
5.8 0.0001 0.0001 0.754223395847571 0 0.754223395847571 0 0.0001 0.0001
