# GHZ S RI R 50
0.5 0.0001 0.0001 0.0060304538745508 0 0.0060304538745508 0 0.0001 0.0001
0.55 0.0001 0.0001 0.00657355044454897 0 0.00657355044454897 0 0.0001 0.0001
0.6 0.0001 0.0001 0.00697589604332804 0 0.00697589604332804 0 0.0001 0.0001
0.65 0.0001 0.0001 0.00760501368692701 0 0.00760501368692701 0 0.0001 0.0001
0.7 0.0001 0.0001 0.00820540459002288 0 0.00820540459002288 0 0.0001 0.0001
0.75 0.0001 0.0001 0.00898566037853974 0 0.00898566037853974 0 0.0001 0.0001
0.8 0.0001 0.0001 0.00953454559672455 0 0.00953454559672455 0 0.0001 0.0001
0.85 0.0001 0.0001 0.0101192890176964 0 0.0101192890176964 0 0.0001 0.0001
0.9 0.0001 0.0001 0.010371701280761 0 0.010371701280761 0 0.0001 0.0001
0.95 0.0001 0.0001 0.0106169555719872 0 0.0106169555719872 0 0.0001 0.0001
1 0.0001 0.0001 0.0113474949986011 0 0.0113474949986011 0 0.0001 0.0001
1.05 0.0001 0.0001 0.011906935471069 0 0.011906935471069 0 0.0001 0.0001
1.1 0.0001 0.0001 0.0124738351424294 0 0.0124738351424294 0 0.0001 0.0001
1.15 0.0001 0.0001 0.0129315326299772 0 0.0129315326299772 0 0.0001 0.0001
1.2 0.0001 0.0001 0.0135815707397417 0 0.0135815707397417 0 0.0001 0.0001
1.25 0.0001 0.0001 0.0141318819200706 0 0.0141318819200706 0 0.0001 0.0001
1.3 0.0001 0.0001 0.0145831049068291 0 0.0145831049068291 0 0.0001 0.0001
1.35 0.0001 0.0001 0.0149245072053374 0 0.0149245072053374 0 0.0001 0.0001
1.4 0.0001 0.0001 0.0154774710373492 0 0.0154774710373492 0 0.0001 0.0001
1.45 0.0001 0.0001 0.0157888318661972 0 0.0157888318661972 0 0.0001 0.0001
1.5 0.0001 0.0001 0.0160953342477746 0 0.0160953342477746 0 0.0001 0.0001
1.55 0.0001 0.0001 0.0163889073469225 0 0.0163889073469225 0 0.0001 0.0001
1.6 0.0001 0.0001 0.0168694141328732 0 0.0168694141328732 0 0.0001 0.0001
1.65 0.0001 0.0001 0.0171632686349059 0 0.0171632686349059 0 0.0001 0.0001
1.7 0.0001 0.0001 0.0178504841596192 0 0.0178504841596192 0 0.0001 0.0001
1.75 0.0001 0.0001 0.0183104914147168 0 0.0183104914147168 0 0.0001 0.0001
1.8 0.0001 0.0001 0.0187348404975066 0 0.0187348404975066 0 0.0001 0.0001
1.85 0.0001 0.0001 0.018969243001208 0 0.018969243001208 0 0.0001 0.0001
1.9 0.0001 0.0001 0.0192043671394335 0 0.0192043671394335 0 0.0001 0.0001
1.95 0.0001 0.0001 0.0195298991207568 0 0.0195298991207568 0 0.0001 0.0001
2 0.0001 0.0001 0.0200793661862984 0 0.0200793661862984 0 0.0001 0.0001
2.05 0.0001 0.0001 0.0203469819585051 0 0.0203469819585051 0 0.0001 0.0001
2.1 0.0001 0.0001 0.0206466692195502 0 0.0206466692195502 0 0.0001 0.0001
2.15 0.0001 0.0001 0.020936303241481 0 0.020936303241481 0 0.0001 0.0001
2.2 0.0001 0.0001 0.0212593508845045 0 0.0212593508845045 0 0.0001 0.0001
2.25 0.0001 0.0001 0.021540213322577 0 0.021540213322577 0 0.0001 0.0001
2.3 0.0001 0.0001 0.0219659504702098 0 0.0219659504702098 0 0.0001 0.0001
2.35 0.0001 0.0001 0.0221691989074767 0 0.0221691989074767 0 0.0001 0.0001
2.4 0.0001 0.0001 0.0224207429709425 0 0.0224207429709425 0 0.0001 0.0001
2.45 0.0001 0.0001 0.0221845181380208 0 0.0221845181380208 0 0.0001 0.0001
2.5 0.0001 0.0001 0.0223769040673712 0 0.0223769040673712 0 0.0001 0.0001
2.55 0.0001 0.0001 0.0228875865706236 0 0.0228875865706236 0 0.0001 0.0001
2.6 0.0001 0.0001 0.0232809125766501 0 0.0232809125766501 0 0.0001 0.0001
2.65 0.0001 0.0001 0.0232701937884816 0 0.0232701937884816 0 0.0001 0.0001
2.7 0.0001 0.0001 0.0235450707618494 0 0.0235450707618494 0 0.0001 0.0001
2.75 0.0001 0.0001 0.0239993787680988 0 0.0239993787680988 0 0.0001 0.0001
2.8 0.0001 0.0001 0.0244709032516365 0 0.0244709032516365 0 0.0001 0.0001
2.85 0.0001 0.0001 0.0246235122536419 0 0.0246235122536419 0 0.0001 0.0001
2.9 0.0001 0.0001 0.0248027593769296 0 0.0248027593769296 0 0.0001 0.0001
2.95 0.0001 0.0001 0.0249804351871415 0 0.0249804351871415 0 0.0001 0.0001
3 0.0001 0.0001 0.0251651776161464 0 0.0251651776161464 0 0.0001 0.0001
3.05 0.0001 0.0001 0.0249631852724334 0 0.0249631852724334 0 0.0001 0.0001
3.1 0.0001 0.0001 0.0252319026274352 0 0.0252319026274352 0 0.0001 0.0001
3.15 0.0001 0.0001 0.0254097270554931 0 0.0254097270554931 0 0.0001 0.0001
3.2 0.0001 0.0001 0.0256300822565256 0 0.0256300822565256 0 0.0001 0.0001
3.25 0.0001 0.0001 0.0257069172755511 0 0.0257069172755511 0 0.0001 0.0001
3.3 0.0001 0.0001 0.0261697756797007 0 0.0261697756797007 0 0.0001 0.0001
3.35 0.0001 0.0001 0.0259358209901113 0 0.0259358209901113 0 0.0001 0.0001
3.4 0.0001 0.0001 0.0262654593214359 0 0.0262654593214359 0 0.0001 0.0001
3.45 0.0001 0.0001 0.0262557845508889 0 0.0262557845508889 0 0.0001 0.0001
3.5 0.0001 0.0001 0.0260315483137418 0 0.0260315483137418 0 0.0001 0.0001
3.55 0.0001 0.0001 0.0261372565078954 0 0.0261372565078954 0 0.0001 0.0001
3.6 0.0001 0.0001 0.0259561335480381 0 0.0259561335480381 0 0.0001 0.0001
3.65 0.0001 0.0001 0.0259971057028683 0 0.0259971057028683 0 0.0001 0.0001
3.7 0.0001 0.0001 0.0265818375766021 0 0.0265818375766021 0 0.0001 0.0001
3.75 0.0001 0.0001 0.0265836738483124 0 0.0265836738483124 0 0.0001 0.0001
3.8 0.0001 0.0001 0.0266041875013879 0 0.0266041875013879 0 0.0001 0.0001
3.85 0.0001 0.0001 0.0262180266151044 0 0.0262180266151044 0 0.0001 0.0001
3.9 0.0001 0.0001 0.026539943868229 0 0.026539943868229 0 0.0001 0.0001
3.95 0.0001 0.0001 0.025861279022603 0 0.025861279022603 0 0.0001 0.0001
4 0.0001 0.0001 0.0263633138582538 0 0.0263633138582538 0 0.0001 0.0001
4.05 0.0001 0.0001 0.0268565362516047 0 0.0268565362516047 0 0.0001 0.0001
4.1 0.0001 0.0001 0.0270925572649767 0 0.0270925572649767 0 0.0001 0.0001
4.15 0.0001 0.0001 0.0268071102206198 0 0.0268071102206198 0 0.0001 0.0001
4.2 0.0001 0.0001 0.0268936655697369 0 0.0268936655697369 0 0.0001 0.0001
4.25 0.0001 0.0001 0.0271643926883908 0 0.0271643926883908 0 0.0001 0.0001
4.3 0.0001 0.0001 0.027270933226839 0 0.027270933226839 0 0.0001 0.0001
4.35 0.0001 0.0001 0.0273149242208918 0 0.0273149242208918 0 0.0001 0.0001
4.4 0.0001 0.0001 0.0270956765904605 0 0.0270956765904605 0 0.0001 0.0001
4.45 0.0001 0.0001 0.026930846219368 0 0.026930846219368 0 0.0001 0.0001
4.5 0.0001 0.0001 0.0272238786354934 0 0.0272238786354934 0 0.0001 0.0001
4.55 0.0001 0.0001 0.0271769052344228 0 0.0271769052344228 0 0.0001 0.0001
4.6 0.0001 0.0001 0.0273023481294007 0 0.0273023481294007 0 0.0001 0.0001
4.65 0.0001 0.0001 0.0271925540222905 0 0.0271925540222905 0 0.0001 0.0001
4.7 0.0001 0.0001 0.0270551533575363 0 0.0270551533575363 0 0.0001 0.0001
4.75 0.0001 0.0001 0.0264210455628279 0 0.0264210455628279 0 0.0001 0.0001
4.8 0.0001 0.0001 0.0264180039026406 0 0.0264180039026406 0 0.0001 0.0001
4.85 0.0001 0.0001 0.0269246458767316 0 0.0269246458767316 0 0.0001 0.0001
4.9 0.0001 0.0001 0.026875094498665 0 0.026875094498665 0 0.0001 0.0001
4.95 0.0001 0.0001 0.0271237666863613 0 0.0271237666863613 0 0.0001 0.0001
5 0.0001 0.0001 0.0267701004005563 0 0.0267701004005563 0 0.0001 0.0001
5.05 0.0001 0.0001 0.0269277458695896 0 0.0269277458695896 0 0.0001 0.0001
5.1 0.0001 0.0001 0.0273117796550447 0 0.0273117796550447 0 0.0001 0.0001
5.15 0.0001 0.0001 0.0274852695196467 0 0.0274852695196467 0 0.0001 0.0001
5.2 0.0001 0.0001 0.0272144774645437 0 0.0272144774645437 0 0.0001 0.0001
5.25 0.0001 0.0001 0.0269060534126115 0 0.0269060534126115 0 0.0001 0.0001
5.3 0.0001 0.0001 0.0264058407631274 0 0.0264058407631274 0 0.0001 0.0001
5.35 0.0001 0.0001 0.0261908745277685 0 0.0261908745277685 0 0.0001 0.0001
5.4 0.0001 0.0001 0.0261486938284457 0 0.0261486938284457 0 0.0001 0.0001
5.45 0.0001 0.0001 0.0261246210790139 0 0.0261246210790139 0 0.0001 0.0001
5.5 0.0001 0.0001 0.0262693907152117 0 0.0262693907152117 0 0.0001 0.0001
5.55 0.0001 0.0001 0.0263269167421849 0 0.0263269167421849 0 0.0001 0.0001
5.6 0.0001 0.0001 0.0262724152646886 0 0.0262724152646886 0 0.0001 0.0001
5.65 0.0001 0.0001 0.0262724152646886 0 0.0262724152646886 0 0.0001 0.0001
5.7 0.0001 0.0001 0.0259716774140201 0 0.0259716774140201 0 0.0001 0.0001
5.75 0.0001 0.0001 0.0256802945066735 0 0.0256802945066735 0 0.0001 0.0001
5.8 0.0001 0.0001 0.0256743820810613 0 0.0256743820810613 0 0.0001 0.0001
