# GHZ S RI R 50
0.5 1.76288076539423E-07 4.21068810073666E-06 -0.600885975502412 0.60918958861737 -0.600885975502412 0.60918958861737 3.17880887237716E-06 -2.2806567326656E-06
0.55 1.76288076539423E-07 4.21068810073666E-06 -0.592914495195343 0.60110795082432 -0.592914495195343 0.60110795082432 3.17880887237716E-06 -2.2806567326656E-06
0.6 1.76288076539423E-07 4.21068810073666E-06 -0.605329818607533 0.613694840967162 -0.605329818607533 0.613694840967162 3.17880887237716E-06 -2.2806567326656E-06
0.65 1.76288076539423E-07 4.21068810073666E-06 -0.595994247297565 0.604230261866157 -0.595994247297565 0.604230261866157 3.17880887237716E-06 -2.2806567326656E-06
0.7 1.76288076539423E-07 4.21068810073666E-06 -0.603451078530093 0.611790138674955 -0.603451078530093 0.611790138674955 3.17880887237716E-06 -2.2806567326656E-06
0.75 1.76288076539423E-07 4.21068810073666E-06 -0.609666129109605 0.618091074726264 -0.609666129109605 0.618091074726264 3.17880887237716E-06 -2.2806567326656E-06
0.8 1.76288076539423E-07 4.21068810073666E-06 -0.6063062817241 0.614684797778492 -0.6063062817241 0.614684797778492 3.17880887237716E-06 -2.2806567326656E-06
0.85 1.76288076539423E-07 4.21068810073666E-06 -0.603590044274279 0.61193102477978 -0.603590044274279 0.61193102477978 3.17880887237716E-06 -2.2806567326656E-06
0.9 1.76288076539423E-07 4.21068810073666E-06 -0.599434959635888 0.607718521235467 -0.599434959635888 0.607718521235467 3.17880887237716E-06 -2.2806567326656E-06
0.95 1.76288076539423E-07 4.21068810073666E-06 -0.608474059128724 0.616882531590191 -0.608474059128724 0.616882531590191 3.17880887237716E-06 -2.2806567326656E-06
1 1.76288076539423E-07 4.21068810073666E-06 -0.599021027618718 0.607298869112543 -0.599021027618718 0.607298869112543 3.17880887237716E-06 -2.2806567326656E-06
1.05 1.76288076539423E-07 4.21068810073666E-06 -0.60414622734202 0.612494893713398 -0.60414622734202 0.612494893713398 3.17880887237716E-06 -2.2806567326656E-06
1.1 1.76288076539423E-07 4.21068810073666E-06 -0.604772545913819 0.613129867350084 -0.604772545913819 0.613129867350084 3.17880887237716E-06 -2.2806567326656E-06
1.15 1.76288076539423E-07 4.21068810073666E-06 -0.597643317486247 0.605902120472949 -0.597643317486247 0.605902120472949 3.17880887237716E-06 -2.2806567326656E-06
1.2 1.76288076539423E-07 4.21068810073666E-06 -0.598194020893116 0.606460434022538 -0.598194020893116 0.606460434022538 3.17880887237716E-06 -2.2806567326656E-06
1.25 1.76288076539423E-07 4.21068810073666E-06 -0.597299385338931 0.605553435544563 -0.597299385338931 0.605553435544563 3.17880887237716E-06 -2.2806567326656E-06
1.3 1.76288076539423E-07 4.21068810073666E-06 -0.598745231750221 0.607019262034791 -0.598745231750221 0.607019262034791 3.17880887237716E-06 -2.2806567326656E-06
1.35 1.76288076539423E-07 4.21068810073666E-06 -0.597299385338931 0.605553435544563 -0.597299385338931 0.605553435544563 3.17880887237716E-06 -2.2806567326656E-06
1.4 1.76288076539423E-07 4.21068810073666E-06 -0.597849771826662 0.606111427795524 -0.597849771826662 0.606111427795524 3.17880887237716E-06 -2.2806567326656E-06
1.45 1.76288076539423E-07 4.21068810073666E-06 -0.594281304266606 0.602493647761488 -0.594281304266606 0.602493647761488 3.17880887237716E-06 -2.2806567326656E-06
1.5 1.76288076539423E-07 4.21068810073666E-06 -0.594212889041366 0.602424287109687 -0.594212889041366 0.602424287109687 3.17880887237716E-06 -2.2806567326656E-06
1.55 1.76288076539423E-07 4.21068810073666E-06 -0.593187605292051 0.601384835015737 -0.593187605292051 0.601384835015737 3.17880887237716E-06 -2.2806567326656E-06
1.6 1.76288076539423E-07 4.21068810073666E-06 -0.587208140811298 0.595322740615653 -0.587208140811298 0.595322740615653 3.17880887237716E-06 -2.2806567326656E-06
1.65 1.76288076539423E-07 4.21068810073666E-06 -0.587952265090784 0.596077147911182 -0.587952265090784 0.596077147911182 3.17880887237716E-06 -2.2806567326656E-06
1.7 1.76288076539423E-07 4.21068810073666E-06 -0.589307635040258 0.597451247649912 -0.589307635040258 0.597451247649912 3.17880887237716E-06 -2.2806567326656E-06
1.75 1.76288076539423E-07 4.21068810073666E-06 -0.589443343761265 0.597588831722919 -0.589443343761265 0.597588831722919 3.17880887237716E-06 -2.2806567326656E-06
1.8 1.76288076539423E-07 4.21068810073666E-06 -0.583165828403119 0.591224567695337 -0.583165828403119 0.591224567695337 3.17880887237716E-06 -2.2806567326656E-06
1.85 1.76288076539423E-07 4.21068810073666E-06 -0.586059982559154 0.594158716022291 -0.586059982559154 0.594158716022291 3.17880887237716E-06 -2.2806567326656E-06
1.9 1.76288076539423E-07 4.21068810073666E-06 -0.582360711320422 0.590408324740113 -0.582360711320422 0.590408324740113 3.17880887237716E-06 -2.2806567326656E-06
1.95 1.76288076539423E-07 4.21068810073666E-06 -0.581623663824491 0.589661092021855 -0.581623663824491 0.589661092021855 3.17880887237716E-06 -2.2806567326656E-06
2 1.76288076539423E-07 4.21068810073666E-06 -0.578951345830741 0.586951845399971 -0.578951345830741 0.586951845399971 3.17880887237716E-06 -2.2806567326656E-06
2.05 6.54809783712233E-07 3.81074440207275E-06 -0.516913431037464 0.638375931551426 -0.516913431037464 0.638375931551426 2.95655326674814E-06 -2.65151653018197E-06
2.1 1.09628338941718E-06 3.36784860216894E-06 -0.451079385133716 0.684344827640169 -0.451079385133716 0.684344827640169 2.68426506014679E-06 -2.99314272950795E-06
2.15 1.49497459523516E-06 2.8917182023099E-06 -0.377999997596269 0.717433832146113 -0.377999997596269 0.717433832146113 2.36670254773324E-06 -3.29941062905933E-06
2.2 1.8461467955703E-06 2.39230819896309E-06 -0.305520610952152 0.749477371740762 -0.305520610952152 0.749477371740762 2.00862217894299E-06 -3.56483760082711E-06
2.25 2.1460457926892E-06 1.87938119182644E-06 -0.230816217533227 0.775576492715939 -0.230816217533227 0.775576492715939 1.61521778827831E-06 -3.78444259264123E-06
2.3 2.39192309764161E-06 1.36243109398686E-06 -0.154822030830503 0.798743839625389 -0.154822030830503 0.798743839625389 1.19221037232663E-06 -3.95352499486784E-06
2.35 2.58222149125181E-06 8.50582490524984E-07 -0.0757486921060618 0.806255777768972 -0.0757486921060618 0.806255777768972 7.45928368255245E-07 -4.06754700076778E-06
2.4 2.71635702082433E-06 3.52502276047071E-07 0.00329907870493553 0.807780080213013 0.00329907870493553 0.807780080213013 2.83396885574915E-07 -4.12264049365662E-06
2.45 2.79496339501689E-06 -1.23744619367507E-07 0.0817530726519288 0.800124844434585 0.0817530726519288 0.800124844434585 -1.87253583828112E-07 -4.11546208517491E-06
2.5 2.81989218680013E-06 -5.70957420196699E-07 0.157603291881594 0.779338235218775 0.157603291881594 0.779338235218775 -6.57055937341663E-07 -4.04368828352044E-06
2.55 2.79426988211117E-06 -9.83017122755721E-07 0.232229929885132 0.75818265117445 0.232229929885132 0.75818265117445 -1.11607795020265E-06 -3.90645528461955E-06
2.6 2.72204227765219E-06 -1.35532372477311E-06 0.302684803557893 0.726246284722853 0.302684803557893 0.726246284722853 -1.55381311933E-06 -3.70451627820194E-06
2.65 2.60734777842482E-06 -1.68477142844129E-06 0.374072254195325 0.697070018287727 0.374072254195325 0.697070018287727 -1.95929657033087E-06 -3.4405278564703E-06
2.7 2.45441897511339E-06 -1.96935762642192E-06 0.434902944292747 0.649348480567854 0.434902944292747 0.649348480567854 -2.32204705616223E-06 -3.11946894772405E-06
2.75 2.26741496561581E-06 -2.20772862471064E-06 0.499904288749448 0.608514895597345 0.499904288749448 0.608514895597345 -2.63198075861419E-06 -2.7483790331779E-06
2.8 2.05066746090192E-06 -2.39916291584504E-06 0.56055232651832 0.560678870595886 0.56055232651832 0.560678870595886 -2.88049404427619E-06 -2.33625415261583E-06
2.85 1.80869955866201E-06 -2.54356821724867E-06 0.605848099307625 0.49796703789614 0.605848099307625 0.49796703789614 -3.06065706853788E-06 -1.89427752594543E-06
2.9 1.54623586121984E-06 -2.64148931730026E-06 0.646691226300821 0.433425645832461 0.646691226300821 0.433425645832461 -3.16749418331691E-06 -1.43468881891112E-06
2.95 1.26797957051217E-06 -2.69410760270226E-06 0.688202976769666 0.369707665685736 0.688202976769666 0.369707665685736 -3.19861637879158E-06 -9.7085982940819E-07
3 9.78652075346025E-07 -2.70315009689554E-06 0.717953064395957 0.299746037093117 0.717953064395957 0.299746037093117 -3.15433688541421E-06 -5.16377125964765E-07
3.05 6.82767967065855E-07 -2.67087299713611E-06 0.735300207894693 0.225891103042188 0.735300207894693 0.225891103042188 -3.0378357919338E-06 -8.49052169318135E-08
3.1 3.84803760716177E-07 -2.60001659871693E-06 0.756672253605891 0.153886274343057 0.756672253605891 0.153886274343057 -2.85405009201814E-06 3.11149850340325E-07
3.15 8.88660554431399E-08 -2.49358829701274E-06 0.769127689477466 0.0796851111318353 0.769127689477466 0.0796851111318353 -2.61145620103416E-06 6.61005152486488E-07
3.2 -2.01215822414576E-07 -2.35500239376063E-06 0.772976689342498 0.0045274774439748 0.772976689342498 0.0045274774439748 -2.32005830492079E-06 9.54162075582921E-07
3.25 -4.81878934480421E-07 -2.18787847898682E-06 0.760603868587187 -0.0697917348489795 0.760603868587187 -0.0697917348489795 -1.99034841217891E-06 1.18347256757236E-06
3.3 -7.4989934115852E-07 -1.99590607654468E-06 0.76005075330129 -0.145260567893769 0.76005075330129 -0.145260567893769 -1.63534181610136E-06 1.34436597826277E-06
3.35 -1.00254491291165E-06 -1.78296848083232E-06 0.732747627126002 -0.215604188717573 0.732747627126002 -0.215604188717573 -1.26781631373735E-06 1.43378788159559E-06
3.4 -1.23729843286961E-06 -1.55293336400463E-06 0.706551747152443 -0.285052917372922 0.706551747152443 -0.285052917372922 -9.00075912646977E-07 1.45214368771035E-06
3.45 -1.45221376315742E-06 -1.30967642510366E-06 0.670212811665214 -0.349568393739255 0.670212811665214 -0.349568393739255 -5.44938012818867E-07 1.39996019430658E-06
3.5 -1.64563076837109E-06 -1.05702543304903E-06 0.628767174574351 -0.410186426139992 0.628767174574351 -0.410186426139992 -2.13681408197679E-07 1.28007379851157E-06
3.55 -1.81633808907341E-06 -7.98600310037998E-07 0.58413785002154 -0.467846107597856 0.58413785002154 -0.467846107597856 8.1148693796779E-08 1.09903690030759E-06
3.6 -1.96354058159709E-06 -5.37909420614077E-07 0.536122652852085 -0.522522152266311 0.536122652852085 -0.522522152266311 3.28774997317314E-07 8.63402399831114E-07
3.65 -2.08677318563699E-06 -2.78254834178275E-07 0.485074834893416 -0.574730385939757 0.485074834893416 -0.574730385939757 5.20693999505198E-07 5.82161599918279E-07
3.7 -2.18596319113006E-06 -2.26856110589431E-08 0.418436145803451 -0.60670584108106 0.418436145803451 -0.60670584108106 6.48596700257618E-07 2.66071698500031E-07
3.75 -2.2614254966796E-06 2.2600405744192E-07 0.362608243161506 -0.653548132257849 0.362608243161506 -0.653548132257849 7.06516898936902E-07 -7.35387040586547E-08
3.8 -2.31375370149844E-06 4.65329862728675E-07 0.28788074209086 -0.663583044193915 0.28788074209086 -0.663583044193915 6.90719195214185E-07 -4.2346860758965E-07
3.85 -2.34384550851103E-06 6.93178261782259E-07 0.226003313393021 -0.700451478775568 0.226003313393021 -0.700451478775568 5.98854288653242E-07 -7.69951907770976E-07
3.9 -2.35295200167973E-06 9.07746970991042E-07 0.155867610720169 -0.714117914491837 0.155867610720169 -0.714117914491837 4.31488890298847E-07 -1.09907610289942E-06
3.95 -2.34247970846584E-06 1.10760767663231E-06 0.0851601995306768 -0.720286357171992 0.0851601995306768 -0.720286357171992 1.91721885943873E-07 -1.3963599006828E-06
4 -2.31407280229214E-06 1.29170956759362E-06 0.0147941166884021 -0.72247637173299 0.0147941166884021 -0.72247637173299 -1.14601609948825E-07 -1.64791099186628E-06
4.05 -2.26950529684237E-06 1.45935508671336E-06 -0.0556280503223101 -0.723488639026935 -0.0556280503223101 -0.723488639026935 -4.78905322959122E-07 -1.84105809232927E-06
4.1 -2.2107154115394E-06 1.61026936384717E-06 -0.125703388075643 -0.715331082645173 -0.125703388075643 -0.715331082645173 -8.90424112686944E-07 -1.96472569218322E-06
4.15 -2.13968341664117E-06 1.74447916851896E-06 -0.192427949927361 -0.692144348245848 -0.192427949927361 -0.692144348245848 -1.33604742281168E-06 -2.00971837042031E-06
4.2 -2.05843471967069E-06 1.86234267192402E-06 -0.260982232915794 -0.676096285738284 -0.260982232915794 -0.676096285738284 -1.80108591795486E-06 -1.96934468207672E-06
4.25 -1.96896621483621E-06 1.96460616878577E-06 -0.326176869710925 -0.649151210624042 -0.326176869710925 -0.649151210624042 -2.26964306265715E-06 -1.83997133497382E-06
4.3 -1.87325911443379E-06 2.05223346908962E-06 -0.386778579141154 -0.613027122391679 -0.386778579141154 -0.613027122391679 -2.72508215690814E-06 -1.62094545961905E-06
4.35 -1.77317331937712E-06 2.12647407370872E-06 -0.440872098348943 -0.567944053457548 -0.440872098348943 -0.567944053457548 -3.15113356542848E-06 -1.31474484746484E-06
4.4 -1.67047892140138E-06 2.18883188000781E-06 -0.496245158241155 -0.524895625057369 -0.496245158241155 -0.524895625057369 -3.5319903898901E-06 -9.27107223704008E-07
4.45 -1.56679021876857E-06 2.24092177240082E-06 -0.540974513514249 -0.470833696404752 -0.540974513514249 -0.470833696404752 -3.85321608473773E-06 -4.66360528477247E-07
4.5 -1.46347231730591E-06 2.28452987664802E-06 -0.586961593065881 -0.418076006679629 -0.586961593065881 -0.418076006679629 -4.10238448863108E-06 5.65006463777304E-08
4.55 -1.36171982288585E-06 2.32156117966823E-06 -0.618492137653705 -0.355465577412714 -0.618492137653705 -0.355465577412714 -4.26923329471543E-06 6.28513468356622E-07
4.6 -1.26246981589545E-06 2.35387197785803E-06 -0.65295613846617 -0.294993967171481 -0.65295613846617 -0.294993967171481 -4.34621069621625E-06 1.2353432925931E-06
4.65 -1.16638542179606E-06 2.38329518662364E-06 -0.668853854583849 -0.226879142432264 -0.668853854583849 -0.226879142432264 -4.32856721709603E-06 1.86169114494835E-06
4.7 -1.0739078234866E-06 2.41162178844836E-06 -0.683271843688775 -0.15977078943534 -0.683271843688775 -0.15977078943534 -4.21413252977497E-06 2.49202642943284E-06
4.75 -9.85308422000411E-07 2.44038818845526E-06 -0.699470964299228 -0.0931332745194056 -0.699470964299228 -0.0931332745194056 -4.00356424243331E-06 3.11107754371099E-06
4.8 -9.00694419598141E-07 2.47098859112671E-06 -0.694482757371336 -0.0243314105837073 -0.694482757371336 -0.0243314105837073 -3.69977454511932E-06 3.70413445118182E-06
4.85 -8.20121020099699E-07 2.50470378787821E-06 -0.704021528492138 0.0439465469162912 -0.704021528492138 0.0439465469162912 -3.30780914654804E-06 4.25761186090917E-06
4.9 -7.43614918904817E-07 2.54271988040055E-06 -0.688384131596266 0.110891342817035 -0.688384131596266 0.110891342817035 -2.834514743437E-06 4.75917645998661E-06
4.95 -6.71051318563425E-07 2.58631848908452E-06 -0.680304703430635 0.178870212503612 -0.680304703430635 0.178870212503612 -2.28808544063728E-06 5.19790317087542E-06
5 -6.02055719825336E-07 2.63677209553603E-06 -0.651663284553234 0.24121360684808 -0.651663284553234 0.24121360684808 -1.6778667413261E-06 5.56423547410399E-06
5.05 -6.02055719825336E-07 2.63677209553603E-06 -0.654143835476806 0.242131784455179 -0.654143835476806 0.242131784455179 -1.6778667413261E-06 5.56423547410399E-06
5.1 -6.02055719825336E-07 2.63677209553603E-06 -0.655048193147655 0.242466533060535 -0.655048193147655 0.242466533060535 -1.6778667413261E-06 5.56423547410399E-06
5.15 -6.02055719825336E-07 2.63677209553603E-06 -0.665308777283029 0.246264495238746 -0.665308777283029 0.246264495238746 -1.6778667413261E-06 5.56423547410399E-06
5.2 -6.02055719825336E-07 2.63677209553603E-06 -0.663320245868994 0.245528438986875 -0.663320245868994 0.245528438986875 -1.6778667413261E-06 5.56423547410399E-06
5.25 -6.02055719825336E-07 2.63677209553603E-06 -0.659892592110716 0.244259690623021 -0.659892592110716 0.244259690623021 -1.6778667413261E-06 5.56423547410399E-06
5.3 -6.02055719825336E-07 2.63677209553603E-06 -0.654445149220383 0.242243315941767 -0.654445149220383 0.242243315941767 -1.6778667413261E-06 5.56423547410399E-06
5.35 -6.02055719825336E-07 2.63677209553603E-06 -0.65091346118675 0.240936059220316 -0.65091346118675 0.240936059220316 -1.6778667413261E-06 5.56423547410399E-06
5.4 -6.02055719825336E-07 2.63677209553603E-06 -0.649192140020963 0.240298911023102 -0.649192140020963 0.240298911023102 -1.6778667413261E-06 5.56423547410399E-06
5.45 -6.02055719825336E-07 2.63677209553603E-06 -0.64941640176898 0.240381921661264 -0.64941640176898 0.240381921661264 -1.6778667413261E-06 5.56423547410399E-06
5.5 -6.02055719825336E-07 2.63677209553603E-06 -0.65361687020176 0.241936727901142 -0.65361687020176 0.241936727901142 -1.6778667413261E-06 5.56423547410399E-06
5.55 -6.02055719825336E-07 2.63677209553603E-06 -0.651438246893398 0.241130309005632 -0.651438246893398 0.241130309005632 -1.6778667413261E-06 5.56423547410399E-06
5.6 -6.02055719825336E-07 2.63677209553603E-06 -0.658223302298014 0.243641801866449 -0.658223302298014 0.243641801866449 -1.6778667413261E-06 5.56423547410399E-06
5.65 -6.02055719825336E-07 2.63677209553603E-06 -0.659892592110716 0.244259690623021 -0.659892592110716 0.244259690623021 -1.6778667413261E-06 5.56423547410399E-06
5.7 -6.02055719825336E-07 2.63677209553603E-06 -0.653692124956782 0.241964583499764 -0.653692124956782 0.241964583499764 -1.6778667413261E-06 5.56423547410399E-06
5.75 -6.02055719825336E-07 2.63677209553603E-06 -0.651138317560719 0.241019289959677 -0.651138317560719 0.241019289959677 -1.6778667413261E-06 5.56423547410399E-06
5.8 -6.02055719825336E-07 2.63677209553603E-06 -0.647326301286705 0.239608269549882 -0.647326301286705 0.239608269549882 -1.6778667413261E-06 5.56423547410399E-06
