# GHZ S RI R 50
0.5 1.29060469200946E-06 2.03741389100864E-06 -0.532105905252776 0.525655020635612 -0.532105905252776 0.525655020635612 1.85613876062419E-06 -2.56870642261284E-06
0.55 1.29060469200946E-06 2.03741389100864E-06 -0.534992974226246 0.528507088778146 -0.534992974226246 0.528507088778146 1.85613876062419E-06 -2.56870642261284E-06
0.6 1.29060469200946E-06 2.03741389100864E-06 -0.517068497026827 0.510799915564823 -0.517068497026827 0.510799915564823 1.85613876062419E-06 -2.56870642261284E-06
0.65 1.29060469200946E-06 2.03741389100864E-06 -0.546258337588914 0.53963587865327 -0.546258337588914 0.53963587865327 1.85613876062419E-06 -2.56870642261284E-06
0.7 1.29060469200946E-06 2.03741389100864E-06 -0.534931384429342 0.528446245653417 -0.534931384429342 0.528446245653417 1.85613876062419E-06 -2.56870642261284E-06
0.75 1.29060469200946E-06 2.03741389100864E-06 -0.554367904680332 0.547647130952303 -0.554367904680332 0.547647130952303 1.85613876062419E-06 -2.56870642261284E-06
0.8 1.29060469200946E-06 2.03741389100864E-06 -0.556542172139228 0.549795039093692 -0.556542172139228 0.549795039093692 1.85613876062419E-06 -2.56870642261284E-06
0.85 1.29060469200946E-06 2.03741389100864E-06 -0.555390029221482 0.548656863961214 -0.555390029221482 0.548656863961214 1.85613876062419E-06 -2.56870642261284E-06
0.9 1.29060469200946E-06 2.03741389100864E-06 -0.5578251343464 0.551062447552851 -0.5578251343464 0.551062447552851 1.85613876062419E-06 -2.56870642261284E-06
0.95 1.29060469200946E-06 2.03741389100864E-06 -0.559626251619104 0.552841729323273 -0.559626251619104 0.552841729323273 1.85613876062419E-06 -2.56870642261284E-06
1 1.29060469200946E-06 2.03741389100864E-06 -0.547517593109094 0.540879867828943 -0.547517593109094 0.540879867828943 1.85613876062419E-06 -2.56870642261284E-06
1.05 1.29060469200946E-06 2.03741389100864E-06 -0.547643678209425 0.541004424360569 -0.547643678209425 0.541004424360569 1.85613876062419E-06 -2.56870642261284E-06
1.1 1.29060469200946E-06 2.03741389100864E-06 -0.534561994517318 0.528081333969651 -0.534561994517318 0.528081333969651 1.85613876062419E-06 -2.56870642261284E-06
1.15 1.29060469200946E-06 2.03741389100864E-06 -0.544437559697591 0.537837174615996 -0.544437559697591 0.537837174615996 1.85613876062419E-06 -2.56870642261284E-06
1.2 1.29060469200946E-06 2.03741389100864E-06 -0.519335581563453 0.513039515533774 -0.519335581563453 0.513039515533774 1.85613876062419E-06 -2.56870642261284E-06
1.25 1.29060469200946E-06 2.03741389100864E-06 -0.534069871391239 0.52759517700458 -0.534069871391239 0.52759517700458 1.85613876062419E-06 -2.56870642261284E-06
1.3 1.29060469200946E-06 2.03741389100864E-06 -0.530637671676159 0.524204586909176 -0.530637671676159 0.524204586909176 1.85613876062419E-06 -2.56870642261284E-06
1.35 1.29060469200946E-06 2.03741389100864E-06 -0.530759869583431 0.524325303373389 -0.530759869583431 0.524325303373389 1.85613876062419E-06 -2.56870642261284E-06
1.4 1.29060469200946E-06 2.03741389100864E-06 -0.52311609053623 0.516774192225916 -0.52311609053623 0.516774192225916 1.85613876062419E-06 -2.56870642261284E-06
1.45 1.29060469200946E-06 2.03741389100864E-06 -0.51808149310138 0.511800630774364 -0.51808149310138 0.511800630774364 1.85613876062419E-06 -2.56870642261284E-06
1.5 1.29060469200946E-06 2.03741389100864E-06 -0.521312428175848 0.514992396222701 -0.521312428175848 0.514992396222701 1.85613876062419E-06 -2.56870642261284E-06
1.55 1.29060469200946E-06 2.03741389100864E-06 -0.513390796320012 0.507166800762209 -0.513390796320012 0.507166800762209 1.85613876062419E-06 -2.56870642261284E-06
1.6 1.29060469200946E-06 2.03741389100864E-06 -0.520712590423516 0.514399830489136 -0.520712590423516 0.514399830489136 1.85613876062419E-06 -2.56870642261284E-06
1.65 1.29060469200946E-06 2.03741389100864E-06 -0.519216013892881 0.512921397419088 -0.519216013892881 0.512921397419088 1.85613876062419E-06 -2.56870642261284E-06
1.7 1.29060469200946E-06 2.03741389100864E-06 -0.51885747602564 0.512567206217407 -0.51885747602564 0.512567206217407 1.85613876062419E-06 -2.56870642261284E-06
1.75 1.29060469200946E-06 2.03741389100864E-06 -0.523959933929352 0.517607805444348 -0.523959933929352 0.517607805444348 1.85613876062419E-06 -2.56870642261284E-06
1.8 1.29060469200946E-06 2.03741389100864E-06 -0.515701124862681 0.509449120476731 -0.515701124862681 0.509449120476731 1.85613876062419E-06 -2.56870642261284E-06
1.85 1.29060469200946E-06 2.03741389100864E-06 -0.512800073435445 0.506583239394045 -0.512800073435445 0.506583239394045 1.85613876062419E-06 -2.56870642261284E-06
1.9 1.29060469200946E-06 2.03741389100864E-06 -0.502687491500866 0.496593255420883 -0.502687491500866 0.496593255420883 1.85613876062419E-06 -2.56870642261284E-06
1.95 1.29060469200946E-06 2.03741389100864E-06 -0.498882280425905 0.492834176097789 -0.498882280425905 0.492834176097789 1.85613876062419E-06 -2.56870642261284E-06
2 1.29060469200946E-06 2.03741389100864E-06 -0.493512410762852 0.48752940702705 -0.493512410762852 0.48752940702705 1.85613876062419E-06 -2.56870642261284E-06
2.05 1.58096849378592E-06 1.53282289360366E-06 -0.445841100871489 0.535636542306865 -0.445841100871489 0.535636542306865 1.54699958534862E-06 -2.81262360418957E-06
2.1 1.82521299921367E-06 1.00364439481722E-06 -0.388765197944947 0.57212076521546 -0.388765197944947 0.57212076521546 1.19931628360295E-06 -3.01479769936582E-06
2.15 2.01982129273967E-06 4.60540491690884E-07 -0.33781899420032 0.619039887468417 -0.33781899420032 0.619039887468417 8.18137775259316E-07 -3.16718159415577E-06
2.2 2.16223328955895E-06 -8.60019117268824E-08 -0.274797346824731 0.64587244077129 -0.274797346824731 0.64587244077129 4.09494461969469E-07 -3.26248090074236E-06
2.25 2.25093879101841E-06 -6.25898815550932E-07 -0.205508455666722 0.652767987981979 -0.205508455666722 0.652767987981979 -1.7584215730832E-08 -3.28563839277616E-06
2.3 2.28552577976492E-06 -1.14968361690279E-06 -0.144149448596999 0.683827398047869 -0.144149448596999 0.683827398047869 -4.25175450407237E-07 -3.24154119100541E-06
2.35 2.26658418247154E-06 -1.6487466235965E-06 -0.0753661872648994 0.679106797486184 -0.0753661872648994 0.679106797486184 -8.1222602495129E-07 -3.15807519175954E-06
2.4 2.19545416838654E-06 -2.11539382204058E-06 -0.00909019011412171 0.682838981763962 -0.00909019011412171 0.682838981763962 -1.18781034657616E-06 -3.03911507150592E-06
2.45 2.07423051368221E-06 -2.54290356598705E-06 0.0567429124079567 0.674821826629504 0.0567429124079567 0.674821826629504 -1.55560281701346E-06 -2.88326158092986E-06
2.5 1.90556327209068E-06 -2.92533530551945E-06 0.121119247332804 0.661566893303831 0.121119247332804 0.661566893303831 -1.91590543573676E-06 -2.68605797169631E-06
2.55 1.69276896770484E-06 -3.25757560349588E-06 0.184759534180217 0.646792117225417 0.184759534180217 0.646792117225417 -2.26597551778771E-06 -2.44206727245153E-06
2.6 1.44001349360933E-06 -3.53536029648156E-06 0.241162783213244 0.611949254734814 0.241162783213244 0.611949254734814 -2.59975154009988E-06 -2.14573945942734E-06
2.65 1.15208135048059E-06 -3.75552260418861E-06 0.301846489882587 0.590504896102952 0.301846489882587 0.590504896102952 -2.90801487676165E-06 -1.79281833543002E-06
2.7 8.34342568346655E-07 -3.9161280060464E-06 0.35137471798016 0.548596896686549 0.35137471798016 0.548596896686549 -3.17868447251905E-06 -1.3811227546013E-06
2.75 4.92404360105787E-07 -4.01636459895804E-06 0.393438120686343 0.499909469787649 0.393438120686343 0.499909469787649 -3.3975957872708E-06 -9.11795043286856E-07
2.8 1.3191366551339E-07 -4.05645189242378E-06 0.452135748886658 0.472034900624632 0.452135748886658 0.472034900624632 -3.54958038206348E-06 -3.90244640523381E-07
2.85 -2.41410914735069E-07 -4.03753849744345E-06 0.475983249059443 0.408994590503911 0.475983249059443 0.408994590503911 -3.61989789348904E-06 1.73839056133159E-07
2.9 -6.22035952282169E-07 -3.96158647863546E-06 0.52006724839021 0.365642028402698 0.52006724839021 0.365642028402698 -3.59536959048541E-06 7.66146791712927E-07
2.95 -1.00455794380885E-06 -3.83119568636143E-06 0.559932967514321 0.317428698565767 0.559932967514321 0.317428698565767 -3.46606740379495E-06 1.36823177356207E-06
3 -1.38381995081399E-06 -3.64967627494708E-06 0.577149533620108 0.256833188408575 0.577149533620108 0.256833188408575 -3.22648221392934E-06 1.95867955593112E-06
3.05 -1.7550381403333E-06 -3.42071646714709E-06 0.606216156145067 0.202013956099794 0.606216156145067 0.202013956099794 -2.87602922547123E-06 2.5142113585747E-06
3.1 -2.11363283028765E-06 -3.14851136367278E-06 0.610891050050791 0.139592937146385 0.610891050050791 0.139592937146385 -2.42022612766094E-06 3.01100645996716E-06
3.15 -2.45550185460812E-06 -2.8374803491574E-06 0.63714890074225 0.0817749096423703 0.63714890074225 0.0817749096423703 -1.87016702789588E-06 3.42649917537281E-06
3.2 -2.77697127110847E-06 -2.49236652399343E-06 0.62109431205843 0.0190456435447637 0.62109431205843 0.0190456435447637 -1.24243623217291E-06 3.74101698834924E-06
3.25 -3.07471304567516E-06 -2.11798715590795E-06 0.607965371713338 -0.0403838960279356 0.607965371713338 -0.0403838960279356 -5.58115728410817E-07 3.93884049082805E-06
3.3 -3.34587337160366E-06 -1.71925383604877E-06 0.630364520521526 -0.103863542592124 0.630364520521526 -0.103863542592124 1.58453279441238E-07 4.00954230018806E-06
3.35 -3.5880638860577E-06 -1.3009755193429E-06 0.566962063882192 -0.150984980825798 0.566962063882192 -0.150984980825798 8.8120457989819E-07 3.94863159525361E-06
3.4 -3.79925538565856E-06 -8.67994629191719E-07 0.594137063827745 -0.221752529853527 0.594137063827745 -0.221752529853527 1.58387058788813E-06 3.7576031923471E-06
3.45 -3.97788608183078E-06 -4.2495475948343E-07 0.541887791012863 -0.264555995661705 0.541887791012863 -0.264555995661705 2.24146069103915E-06 3.4439194942473E-06
3.5 -4.12277669617654E-06 2.3629251049427E-08 0.517613342610505 -0.318147796399907 0.517613342610505 -0.318147796399907 2.83188529439946E-06 3.02007729462976E-06
3.55 -4.23313349118274E-06 4.73439679033982E-07 0.493396911486723 -0.373572190479755 0.493396911486723 -0.373572190479755 3.33690810139892E-06 2.50276509506072E-06
3.6 -4.30858110486656E-06 9.20495021951401E-07 0.44423365012709 -0.409710996140117 0.44423365012709 -0.409710996140117 3.7430413019115E-06 1.91163948915906E-06
3.65 -4.3490503242975E-06 1.36104872856479E-06 0.414910658492555 -0.464684716081177 0.414910658492555 -0.464684716081177 4.04188539767255E-06 1.26768278305325E-06
3.7 -4.35481731109638E-06 1.79168284415209E-06 0.354104949350125 -0.483689288797674 0.354104949350125 -0.483689288797674 4.23004620200373E-06 5.91878783900069E-07
3.75 -4.32641382471764E-06 2.20930294360356E-06 0.317019172424216 -0.534899894525384 0.317019172424216 -0.534899894525384 4.30859028824911E-06 -9.60069250152521E-08
3.8 -4.26467099202235E-06 2.61117938814305E-06 0.25374948956853 -0.541687394278271 0.25374948956853 -0.541687394278271 4.28224818083485E-06 -7.78572629421382E-07
3.85 -4.17062733608274E-06 2.99486624263221E-06 0.19786039496173 -0.557292706453453 0.19786039496173 -0.557292706453453 4.15827668173819E-06 -1.44133673774496E-06
3.9 -4.04558844268514E-06 3.35830514153315E-06 0.146072026389977 -0.586159382469171 0.146072026389977 -0.586159382469171 3.9452717775367E-06 -2.07302363669323E-06
3.95 -3.89106514492391E-06 3.69978664661329E-06 0.08398629591226 -0.566055256769603 0.08398629591226 -0.566055256769603 3.6520502604511E-06 -2.66541273259604E-06
4 -3.70868153910605E-06 4.01794584491859E-06 0.0292793364692564 -0.580868034213751 0.0292793364692564 -0.580868034213751 3.28670115277716E-06 -3.2126334356646E-06
4.05 -3.50022074717353E-06 4.31175304857546E-06 -0.0264177932835497 -0.566828472982766 -0.0264177932835497 -0.566828472982766 2.85595664585456E-06 -3.71046133362513E-06
4.1 -3.26757584646508E-06 4.58050895964807E-06 -0.079683476758524 -0.551420326082734 -0.079683476758524 -0.551420326082734 2.36498294850274E-06 -4.15545322008368E-06
4.15 -3.01271924306717E-06 4.8237425618775E-06 -0.132774718118476 -0.541494135366609 -0.132774718118476 -0.541494135366609 1.81745637826161E-06 -4.54383240310298E-06
4.2 -2.73768504742866E-06 5.04132636198216E-06 -0.18891128721234 -0.538484363386145 -0.18891128721234 -0.538484363386145 1.21594748822445E-06 -4.8706590901451E-06
4.25 -2.44455384453328E-06 5.23335016964596E-06 -0.235447376483156 -0.507529824761086 -0.235447376483156 -0.507529824761086 5.62877952944032E-07 -5.12932899752231E-06
4.3 -2.13540094521847E-06 5.40013166875811E-06 -0.281954363363346 -0.479765896122409 -0.281954363363346 -0.479765896122409 -1.38524702081808E-07 -5.31121799584978E-06
4.35 -1.81230413804911E-06 5.54219767288296E-06 -0.337575863978272 -0.464664627419805 -0.337575863978272 -0.464664627419805 -8.83187491661019E-07 -5.40590997217836E-06
4.4 -1.47732094661969E-06 5.66023268290935E-06 -0.370575311535966 -0.418060038287616 -0.370575311535966 -0.418060038287616 -1.66308042500116E-06 -5.40180898126072E-06
4.45 -1.13241853817323E-06 5.75503588221571E-06 -0.423630812849237 -0.393512478501735 -0.423630812849237 -0.393512478501735 -2.46659453297868E-06 -5.28703608076795E-06
4.5 -7.7950743706797E-07 5.82751518232882E-06 -0.459837982923037 -0.350710991202066 -0.459837982923037 -0.350710991202066 -3.27794274441246E-06 -5.05079126574988E-06
4.55 -4.20480640502676E-07 5.87864199407448E-06 -0.476640533936307 -0.295239375483021 -0.476640533936307 -0.295239375483021 -4.07726711734986E-06 -4.68478949325851E-06
4.6 -5.70501368356071E-08 5.9094226925658E-06 -0.507998751388164 -0.250153050040081 -0.507998751388164 -0.250153050040081 -4.84124903283414E-06 -4.18462916114769E-06
4.65 3.09126965158171E-07 5.92082158884429E-06 -0.531008223098388 -0.200213536491028 -0.531008223098388 -0.200213536491028 -5.54410002177828E-06 -3.55103619995692E-06
4.7 6.7652256827644E-07 5.91382739424452E-06 -0.548048489019309 -0.147873938464142 -0.548048489019309 -0.147873938464142 -6.15891995101558E-06 -2.79082750788323E-06
4.75 1.0436943691936E-06 5.8892761993222E-06 -0.547520868332886 -0.0920235781475274 -0.547520868332886 -0.0920235781475274 -6.65950695614412E-06 -1.91730532468906E-06
4.8 1.40929146394663E-06 5.84795624212828E-06 -0.556837714392293 -0.0387531241625922 -0.556837714392293 -0.0387531241625922 -7.02207288952472E-06 -9.50197763697341E-07
4.85 1.7719954849769E-06 5.79051710097866E-06 -0.548969647515148 0.0151324698177578 -0.548969647515148 0.0151324698177578 -7.22710349113098E-06 8.50270305999513E-08
4.9 2.13049048356984E-06 5.71748589956114E-06 -0.531833608292386 0.0666148983179228 -0.531833608292386 0.0666148983179228 -7.26096499912754E-06 1.1582837670897E-06
4.95 2.48344067722384E-06 5.62930529485548E-06 -0.519276853776601 0.117026064459409 -0.519276853776601 0.117026064459409 -7.11695320236724E-06 2.23659697819395E-06
5 2.82944448973714E-06 5.52647029763155E-06 -0.492008665635572 0.162348034100068 -0.492008665635572 0.162348034100068 -6.79599272421855E-06 3.28593303062088E-06
5.05 2.82944448973714E-06 5.52647029763155E-06 -0.491159730012159 0.162067910925082 -0.491159730012159 0.162067910925082 -6.79599272421855E-06 3.28593303062088E-06
5.1 2.82944448973714E-06 5.52647029763155E-06 -0.495077001555522 0.163360492496342 -0.495077001555522 0.163360492496342 -6.79599272421855E-06 3.28593303062088E-06
5.15 2.82944448973714E-06 5.52647029763155E-06 -0.495020006990272 0.163341686007211 -0.495020006990272 0.163341686007211 -6.79599272421855E-06 3.28593303062088E-06
5.2 2.82944448973714E-06 5.52647029763155E-06 -0.505734698882073 0.166877211468688 -0.505734698882073 0.166877211468688 -6.79599272421855E-06 3.28593303062088E-06
5.25 2.82944448973714E-06 5.52647029763155E-06 -0.479924313093275 0.158360561895529 -0.479924313093275 0.158360561895529 -6.79599272421855E-06 3.28593303062088E-06
5.3 2.82944448973714E-06 5.52647029763155E-06 -0.500636779367788 0.165195051643158 -0.500636779367788 0.165195051643158 -6.79599272421855E-06 3.28593303062088E-06
5.35 2.82944448973714E-06 5.52647029763155E-06 -0.474266830657763 0.156493763167148 -0.474266830657763 0.156493763167148 -6.79599272421855E-06 3.28593303062088E-06
5.4 2.82944448973714E-06 5.52647029763155E-06 -0.482806103804609 0.159311465994075 -0.482806103804609 0.159311465994075 -6.79599272421855E-06 3.28593303062088E-06
5.45 2.82944448973714E-06 5.52647029763155E-06 -0.46320448088989 0.152843521082445 -0.46320448088989 0.152843521082445 -6.79599272421855E-06 3.28593303062088E-06
5.5 2.82944448973714E-06 5.52647029763155E-06 -0.473448507657235 0.156223741235272 -0.473448507657235 0.156223741235272 -6.79599272421855E-06 3.28593303062088E-06
5.55 2.82944448973714E-06 5.52647029763155E-06 -0.460174714943473 0.151843789615218 -0.460174714943473 0.151843789615218 -6.79599272421855E-06 3.28593303062088E-06
5.6 2.82944448973714E-06 5.52647029763155E-06 -0.464753588703895 0.153354679982234 -0.464753588703895 0.153354679982234 -6.79599272421855E-06 3.28593303062088E-06
5.65 2.82944448973714E-06 5.52647029763155E-06 -0.477884288056661 0.157687415104951 -0.477884288056661 0.157687415104951 -6.79599272421855E-06 3.28593303062088E-06
5.7 2.82944448973714E-06 5.52647029763155E-06 -0.454802404359086 0.150071089004704 -0.454802404359086 0.150071089004704 -6.79599272421855E-06 3.28593303062088E-06
5.75 2.82944448973714E-06 5.52647029763155E-06 -0.464058521434969 0.153125328727756 -0.464058521434969 0.153125328727756 -6.79599272421855E-06 3.28593303062088E-06
5.8 2.82944448973714E-06 5.52647029763155E-06 -0.455955807797916 0.150451677384335 -0.455955807797916 0.150451677384335 -6.79599272421855E-06 3.28593303062088E-06
