# GHZ S RI R 50
0.5 0.0001 0.0001 0.779381333407199 0 0.779381333407199 0 0.0001 0.0001
0.55 0.0001 0.0001 0.783610054877811 0 0.783610054877811 0 0.0001 0.0001
0.6 0.0001 0.0001 0.757355877274438 0 0.757355877274438 0 0.0001 0.0001
0.65 0.0001 0.0001 0.800110555684585 0 0.800110555684585 0 0.0001 0.0001
0.7 0.0001 0.0001 0.783519843629333 0 0.783519843629333 0 0.0001 0.0001
0.75 0.0001 0.0001 0.811988727211477 0 0.811988727211477 0 0.0001 0.0001
0.8 0.0001 0.0001 0.815173400515362 0 0.815173400515362 0 0.0001 0.0001
0.85 0.0001 0.0001 0.813485844195005 0 0.813485844195005 0 0.0001 0.0001
0.9 0.0001 0.0001 0.817052569278321 0 0.817052569278321 0 0.0001 0.0001
0.95 0.0001 0.0001 0.819690685427315 0 0.819690685427315 0 0.0001 0.0001
1 0.0001 0.0001 0.801955001004079 0 0.801955001004079 0 0.0001 0.0001
1.05 0.0001 0.0001 0.802139679228185 0 0.802139679228185 0 0.0001 0.0001
1.1 0.0001 0.0001 0.782978794189102 0 0.782978794189102 0 0.0001 0.0001
1.15 0.0001 0.0001 0.797443642412681 0 0.797443642412681 0 0.0001 0.0001
1.2 0.0001 0.0001 0.760676500766227 0 0.760676500766227 0 0.0001 0.0001
1.25 0.0001 0.0001 0.782257976069218 0 0.782257976069218 0 0.0001 0.0001
1.3 0.0001 0.0001 0.777230795645073 0 0.777230795645073 0 0.0001 0.0001
1.35 0.0001 0.0001 0.777409780255033 0 0.777409780255033 0 0.0001 0.0001
1.4 0.0001 0.0001 0.766213853565876 0 0.766213853565876 0 0.0001 0.0001
1.45 0.0001 0.0001 0.758839623693201 0 0.758839623693201 0 0.0001 0.0001
1.5 0.0001 0.0001 0.763572009599151 0 0.763572009599151 0 0.0001 0.0001
1.55 0.0001 0.0001 0.751969108865265 0 0.751969108865265 0 0.0001 0.0001
1.6 0.0001 0.0001 0.762693420689263 0 0.762693420689263 0 0.0001 0.0001
1.65 0.0001 0.0001 0.760501368692701 0 0.760501368692701 0 0.0001 0.0001
1.7 0.0001 0.0001 0.759976214361037 0 0.759976214361037 0 0.0001 0.0001
1.75 0.0001 0.0001 0.767449840203922 0 0.767449840203922 0 0.0001 0.0001
1.8 0.0001 0.0001 0.755353072325206 0 0.755353072325206 0 0.0001 0.0001
1.85 0.0001 0.0001 0.751103870601785 0 0.751103870601785 0 0.0001 0.0001
1.9 0.0001 0.0001 0.736291861348444 0 0.736291861348444 0 0.0001 0.0001
1.95 0.0001 0.0001 0.730718327109822 0 0.730718327109822 0 0.0001 0.0001
2 0.0001 0.0001 0.722853020341191 0 0.722853020341191 0 0.0001 0.0001
2.05 0.0001 0.0001 0.726858711695058 0 0.726858711695058 0 0.0001 0.0001
2.1 0.0001 0.0001 0.722104414482046 0 0.722104414482046 0 0.0001 0.0001
2.15 0.0001 0.0001 0.736885481649447 0 0.736885481649447 0 0.0001 0.0001
2.2 0.0001 0.0001 0.73409116966034 0 0.73409116966034 0 0.0001 0.0001
2.25 0.0001 0.0001 0.716390800104284 0 0.716390800104284 0 0.0001 0.0001
2.3 0.0001 0.0001 0.732234184257324 0 0.732234184257324 0 0.0001 0.0001
2.35 0.0001 0.0001 0.716555774174604 0 0.716555774174604 0 0.0001 0.0001
2.4 0.0001 0.0001 0.716803306516052 0 0.716803306516052 0 0.0001 0.0001
2.45 0.0001 0.0001 0.711459200524677 0 0.711459200524677 0 0.0001 0.0001
2.5 0.0001 0.0001 0.707212616855977 0 0.707212616855977 0 0.0001 0.0001
2.55 0.0001 0.0001 0.707945784384138 0 0.707945784384138 0 0.0001 0.0001
2.6 0.0001 0.0001 0.692867195966648 0 0.692867195966648 0 0.0001 0.0001
2.65 0.0001 0.0001 0.69919771445146 0 0.69919771445146 0 0.0001 0.0001
2.7 0.0001 0.0001 0.687464062259504 0 0.687464062259504 0 0.0001 0.0001
2.75 0.0001 0.0001 0.671892819776302 0 0.671892819776302 0 0.0001 0.0001
2.8 0.0001 0.0001 0.690955375648151 0 0.690955375648151 0 0.0001 0.0001
2.85 0.0001 0.0001 0.663972358731244 0 0.663972358731244 0 0.0001 0.0001
2.9 0.0001 0.0001 0.673209134332047 0 0.673209134332047 0 0.0001 0.0001
2.95 0.0001 0.0001 0.682181597938182 0 0.682181597938182 0 0.0001 0.0001
3 0.0001 0.0001 0.670116019324652 0 0.670116019324652 0 0.0001 0.0001
3.05 0.0001 0.0001 0.67842212049826 0 0.67842212049826 0 0.0001 0.0001
3.1 0.0001 0.0001 0.665886177686128 0 0.665886177686128 0 0.0001 0.0001
3.15 0.0001 0.0001 0.683203370146403 0 0.683203370146403 0 0.0001 0.0001
3.2 0.0001 0.0001 0.66145453748406 0 0.66145453748406 0 0.0001 0.0001
3.25 0.0001 0.0001 0.649157381835319 0 0.649157381835319 0 0.0001 0.0001
3.3 0.0001 0.0001 0.681239779965915 0 0.681239779965915 0 0.0001 0.0001
3.35 0.0001 0.0001 0.626181164615689 0 0.626181164615689 0 0.0001 0.0001
3.4 0.0001 0.0001 0.677407498939794 0 0.677407498939794 0 0.0001 0.0001
3.45 0.0001 0.0001 0.644688613851571 0 0.644688613851571 0 0.0001 0.0001
3.5 0.0001 0.0001 0.6501147207261 0 0.6501147207261 0 0.0001 0.0001
3.55 0.0001 0.0001 0.66277329323924 0 0.66277329323924 0 0.0001 0.0001
3.6 0.0001 0.0001 0.647753845607409 0 0.647753845607409 0 0.0001 0.0001
3.65 0.0001 0.0001 0.668305445707395 0 0.668305445707395 0 0.0001 0.0001
3.7 0.0001 0.0001 0.643635515129432 0 0.643635515129432 0 0.0001 0.0001
3.75 0.0001 0.0001 0.66818235063267 0 0.66818235063267 0 0.0001 0.0001
3.8 0.0001 0.0001 0.643353991862827 0 0.643353991862827 0 0.0001 0.0001
3.85 0.0001 0.0001 0.636575617505015 0 0.636575617505015 0 0.0001 0.0001
3.9 0.0001 0.0001 0.650803679984525 0 0.650803679984525 0 0.0001 0.0001
3.95 0.0001 0.0001 0.617021077743846 0 0.617021077743846 0 0.0001 0.0001
4 0.0001 0.0001 0.627624661280025 0 0.627624661280025 0 0.0001 0.0001
4.05 0.0001 0.0001 0.612844086742927 0 0.612844086742927 0 0.0001 0.0001
4.1 0.0001 0.0001 0.602212824709743 0 0.602212824709743 0 0.0001 0.0001
4.15 0.0001 0.0001 0.603114819617817 0 0.603114819617817 0 0.0001 0.0001
4.2 0.0001 0.0001 0.617802981694069 0 0.617802981694069 0 0.0001 0.0001
4.25 0.0001 0.0001 0.606177762046695 0 0.606177762046695 0 0.0001 0.0001
4.3 0.0001 0.0001 0.603392628219305 0 0.603392628219305 0 0.0001 0.0001
4.35 0.0001 0.0001 0.623232367093497 0 0.623232367093497 0 0.0001 0.0001
4.4 0.0001 0.0001 0.606666480508024 0 0.606666480508024 0 0.0001 0.0001
4.45 0.0001 0.0001 0.628347656984478 0 0.628347656984478 0 0.0001 0.0001
4.5 0.0001 0.0001 0.628926653160416 0 0.628926653160416 0 0.0001 0.0001
4.55 0.0001 0.0001 0.61016880432104 0 0.61016880432104 0 0.0001 0.0001
4.6 0.0001 0.0001 0.616665994071029 0 0.616665994071029 0 0.0001 0.0001
4.65 0.0001 0.0001 0.618443458227128 0 0.618443458227128 0 0.0001 0.0001
4.7 0.0001 0.0001 0.619013328096725 0 0.619013328096725 0 0.0001 0.0001
4.75 0.0001 0.0001 0.605828918491926 0 0.605828918491926 0 0.0001 0.0001
4.8 0.0001 0.0001 0.609466725750981 0 0.609466725750981 0 0.0001 0.0001
4.85 0.0001 0.0001 0.599998272533644 0 0.599998272533644 0 0.0001 0.0001
4.9 0.0001 0.0001 0.585935754521002 0 0.585935754521002 0 0.0001 0.0001
4.95 0.0001 0.0001 0.582237267422498 0 0.582237267422498 0 0.0001 0.0001
5 0.0001 0.0001 0.567022118160543 0 0.567022118160543 0 0.0001 0.0001
5.05 0.0001 0.0001 0.566043750686573 0 0.566043750686573 0 0.0001 0.0001
5.1 0.0001 0.0001 0.570558263871129 0 0.570558263871129 0 0.0001 0.0001
5.15 0.0001 0.0001 0.570492579704632 0 0.570492579704632 0 0.0001 0.0001
5.2 0.0001 0.0001 0.582840872969097 0 0.582840872969097 0 0.0001 0.0001
5.25 0.0001 0.0001 0.553095340740311 0 0.553095340740311 0 0.0001 0.0001
5.3 0.0001 0.0001 0.57696570587734 0 0.57696570587734 0 0.0001 0.0001
5.35 0.0001 0.0001 0.546575297704288 0 0.546575297704288 0 0.0001 0.0001
5.4 0.0001 0.0001 0.556416499872997 0 0.556416499872997 0 0.0001 0.0001
5.45 0.0001 0.0001 0.533826341364039 0 0.533826341364039 0 0.0001 0.0001
5.5 0.0001 0.0001 0.54563221016639 0 0.54563221016639 0 0.0001 0.0001
5.55 0.0001 0.0001 0.53033464614715 0 0.53033464614715 0 0.0001 0.0001
5.6 0.0001 0.0001 0.53561163185851 0 0.53561163185851 0 0.0001 0.0001
5.65 0.0001 0.0001 0.550744285976129 0 0.550744285976129 0 0.0001 0.0001
5.7 0.0001 0.0001 0.524143253312553 0 0.524143253312553 0 0.0001 0.0001
5.75 0.0001 0.0001 0.534810592074828 0 0.534810592074828 0 0.0001 0.0001
5.8 0.0001 0.0001 0.525472508885998 0 0.525472508885998 0 0.0001 0.0001
