# GHZ S RI R 50
0.5 1.29060469200946E-06 2.03741389100864E-06 -0.535177786167397 0.528689660186921 -0.535177786167397 0.528689660186921 1.85613876062419E-06 -2.56870642261284E-06
0.55 1.29060469200946E-06 2.03741389100864E-06 -0.537462389595689 0.530946566660592 -0.537462389595689 0.530946566660592 1.85613876062419E-06 -2.56870642261284E-06
0.6 1.29060469200946E-06 2.03741389100864E-06 -0.523899614285036 0.517548217073754 -0.523899614285036 0.517548217073754 1.85613876062419E-06 -2.56870642261284E-06
0.65 1.29060469200946E-06 2.03741389100864E-06 -0.548274539377481 0.541627637403385 -0.548274539377481 0.541627637403385 1.85613876062419E-06 -2.56870642261284E-06
0.7 1.29060469200946E-06 2.03741389100864E-06 -0.534931384429342 0.528446245653417 -0.534931384429342 0.528446245653417 1.85613876062419E-06 -2.56870642261284E-06
0.75 1.29060469200946E-06 2.03741389100864E-06 -0.552329295405843 0.545633236369156 -0.552329295405843 0.545633236369156 1.85613876062419E-06 -2.56870642261284E-06
0.8 1.29060469200946E-06 2.03741389100864E-06 -0.553347661229088 0.546639256228263 -0.553347661229088 0.546639256228263 1.85613876062419E-06 -2.56870642261284E-06
0.85 1.29060469200946E-06 2.03741389100864E-06 -0.55673442819514 0.54998496436992 -0.55673442819514 0.54998496436992 1.85613876062419E-06 -2.56870642261284E-06
0.9 1.29060469200946E-06 2.03741389100864E-06 -0.551820815524618 0.545130920946944 -0.551820815524618 0.545130920946944 1.85613876062419E-06 -2.56870642261284E-06
0.95 1.29060469200946E-06 2.03741389100864E-06 -0.556798528304724 0.550048287374032 -0.556798528304724 0.550048287374032 1.85613876062419E-06 -2.56870642261284E-06
1 1.29060469200946E-06 2.03741389100864E-06 -0.547643678209425 0.541004424360569 -0.547643678209425 0.541004424360569 1.85613876062419E-06 -2.56870642261284E-06
1.05 1.29060469200946E-06 2.03741389100864E-06 -0.543560736856822 0.536970981769969 -0.543560736856822 0.536970981769969 1.85613876062419E-06 -2.56870642261284E-06
1.1 1.29060469200946E-06 2.03741389100864E-06 -0.536411498378516 0.529908415722976 -0.536411498378516 0.529908415722976 1.85613876062419E-06 -2.56870642261284E-06
1.15 1.29060469200946E-06 2.03741389100864E-06 -0.539384023692383 0.532844904192237 -0.539384023692383 0.532844904192237 1.85613876062419E-06 -2.56870642261284E-06
1.2 1.29060469200946E-06 2.03741389100864E-06 -0.521252413319352 0.51493310894489 -0.521252413319352 0.51493310894489 1.85613876062419E-06 -2.56870642261284E-06
1.25 1.29060469200946E-06 2.03741389100864E-06 -0.528321249496138 0.521916247432355 -0.528321249496138 0.521916247432355 1.85613876062419E-06 -2.56870642261284E-06
1.3 1.29060469200946E-06 2.03741389100864E-06 -0.527591850682963 0.521195691346796 -0.527591850682963 0.521195691346796 1.85613876062419E-06 -2.56870642261284E-06
1.35 1.29060469200946E-06 2.03741389100864E-06 -0.526499640164776 0.520116722034845 -0.526499640164776 0.520116722034845 1.85613876062419E-06 -2.56870642261284E-06
1.4 1.29060469200946E-06 2.03741389100864E-06 -0.525712227919074 0.519338855831562 -0.525712227919074 0.519338855831562 1.85613876062419E-06 -2.56870642261284E-06
1.45 1.29060469200946E-06 2.03741389100864E-06 -0.521372449942208 0.515051690326606 -0.521372449942208 0.515051690326606 1.85613876062419E-06 -2.56870642261284E-06
1.5 1.29060469200946E-06 2.03741389100864E-06 -0.524503123347157 0.518144409608682 -0.524503123347157 0.518144409608682 1.85613876062419E-06 -2.56870642261284E-06
1.55 1.29060469200946E-06 2.03741389100864E-06 -0.512445966012463 0.506233424924976 -0.512445966012463 0.506233424924976 1.85613876062419E-06 -2.56870642261284E-06
1.6 1.29060469200946E-06 2.03741389100864E-06 -0.520233217197555 0.513926268853196 -0.520233217197555 0.513926268853196 1.85613876062419E-06 -2.56870642261284E-06
1.65 1.29060469200946E-06 2.03741389100864E-06 -0.519036714000613 0.512744271234921 -0.519036714000613 0.512744271234921 1.85613876062419E-06 -2.56870642261284E-06
1.7 1.29060469200946E-06 2.03741389100864E-06 -0.519754285287387 0.513453143182842 -0.519754285287387 0.513453143182842 1.85613876062419E-06 -2.56870642261284E-06
1.75 1.29060469200946E-06 2.03741389100864E-06 -0.522875242135486 0.516536263704894 -0.522875242135486 0.516536263704894 1.85613876062419E-06 -2.56870642261284E-06
1.8 1.29060469200946E-06 2.03741389100864E-06 -0.517306670706797 0.511035201791538 -0.517306670706797 0.511035201791538 1.85613876062419E-06 -2.56870642261284E-06
1.85 1.29060469200946E-06 2.03741389100864E-06 -0.505764192659558 0.499632656778951 -0.505764192659558 0.499632656778951 1.85613876062419E-06 -2.56870642261284E-06
1.9 1.29060469200946E-06 2.03741389100864E-06 -0.504020358252564 0.497909963416325 -0.504020358252564 0.497909963416325 1.85613876062419E-06 -2.56870642261284E-06
1.95 1.29060469200946E-06 2.03741389100864E-06 -0.500665975841363 0.494596247221535 -0.500665975841363 0.494596247221535 1.85613876062419E-06 -2.56870642261284E-06
2 1.29060469200946E-06 2.03741389100864E-06 -0.496933275368515 0.490908799432078 -0.496933275368515 0.490908799432078 1.85613876062419E-06 -2.56870642261284E-06
2.05 1.58096849378592E-06 1.53282289360366E-06 -0.442313405882997 0.531398345464412 -0.442313405882997 0.531398345464412 1.54699958534862E-06 -2.81262360418957E-06
2.1 1.82521299921367E-06 1.00364439481722E-06 -0.391414923655635 0.576020196309663 -0.391414923655635 0.576020196309663 1.19931628360295E-06 -3.01479769936582E-06
2.15 2.01982129273967E-06 4.60540491690884E-07 -0.335184605958096 0.61421247566206 -0.335184605958096 0.61421247566206 8.18137775259316E-07 -3.16718159415577E-06
2.2 2.16223328955895E-06 -8.60019117268824E-08 -0.273660764128392 0.643201063304567 -0.273660764128392 0.643201063304567 4.09494461969469E-07 -3.26248090074236E-06
2.25 2.25093879101841E-06 -6.25898815550932E-07 -0.206528359649603 0.656007565977346 -0.206528359649603 0.656007565977346 -1.7584215730832E-08 -3.28563839277616E-06
2.3 2.28552577976492E-06 -1.14968361690279E-06 -0.144564941717207 0.685798446720367 -0.144564941717207 0.685798446720367 -4.25175450407237E-07 -3.24154119100541E-06
2.35 2.26658418247154E-06 -1.6487466235965E-06 -0.0763882472447315 0.688316337001603 -0.0763882472447315 0.688316337001603 -8.1222602495129E-07 -3.15807519175954E-06
2.4 2.19545416838654E-06 -2.11539382204058E-06 -0.00910066160896668 0.683625581910683 -0.00910066160896668 0.683625581910683 -1.18781034657616E-06 -3.03911507150592E-06
2.45 2.07423051368221E-06 -2.54290356598705E-06 0.0569130188754583 0.676844838002195 0.0569130188754583 0.676844838002195 -1.55560281701346E-06 -2.88326158092986E-06
2.5 1.90556327209068E-06 -2.92533530551945E-06 0.119856933809405 0.65467199547016 0.119856933809405 0.65467199547016 -1.91590543573676E-06 -2.68605797169631E-06
2.55 1.69276896770484E-06 -3.25757560349588E-06 0.183762486472337 0.643301728484093 0.183762486472337 0.643301728484093 -2.26597551778771E-06 -2.44206727245153E-06
2.6 1.44001349360933E-06 -3.53536029648156E-06 0.238841773495301 0.606059705160859 0.238841773495301 0.606059705160859 -2.59975154009988E-06 -2.14573945942734E-06
2.65 1.15208135048059E-06 -3.75552260418861E-06 0.297225543513853 0.581464898796944 0.297225543513853 0.581464898796944 -2.90801487676165E-06 -1.79281833543002E-06
2.7 8.34342568346655E-07 -3.9161280060464E-06 0.351496099468945 0.548786408067578 0.351496099468945 0.548786408067578 -3.17868447251905E-06 -1.3811227546013E-06
2.75 4.92404360105787E-07 -4.01636459895804E-06 0.392578432779683 0.498817135051881 0.392578432779683 0.498817135051881 -3.3975957872708E-06 -9.11795043286856E-07
2.8 1.3191366551339E-07 -4.05645189242378E-06 0.446651551216772 0.46630933544098 0.446651551216772 0.46630933544098 -3.54958038206348E-06 -3.90244640523381E-07
2.85 -2.41410914735069E-07 -4.03753849744345E-06 0.484386096751363 0.41621484301829 0.484386096751363 0.41621484301829 -3.61989789348904E-06 1.73839056133159E-07
2.9 -6.22035952282169E-07 -3.96158647863546E-06 0.511280824189655 0.359464585048897 0.511280824189655 0.359464585048897 -3.59536959048541E-06 7.66146791712927E-07
2.95 -1.00455794380885E-06 -3.83119568636143E-06 0.560061911689406 0.317501797640227 0.560061911689406 0.317501797640227 -3.46606740379495E-06 1.36823177356207E-06
3 -1.38381995081399E-06 -3.64967627494708E-06 0.580414627688875 0.258286164580756 0.580414627688875 0.258286164580756 -3.22648221392934E-06 1.95867955593112E-06
3.05 -1.7550381403333E-06 -3.42071646714709E-06 0.605379215845503 0.20173505620704 0.605379215845503 0.20173505620704 -2.87602922547123E-06 2.5142113585747E-06
3.1 -2.11363283028765E-06 -3.14851136367278E-06 0.604106853112496 0.13804270003501 0.604106853112496 0.13804270003501 -2.42022612766094E-06 3.01100645996716E-06
3.15 -2.45550185460812E-06 -2.8374803491574E-06 0.628045254107381 0.080606501629557 0.628045254107381 0.080606501629557 -1.87016702789588E-06 3.42649917537281E-06
3.2 -2.77697127110847E-06 -2.49236652399343E-06 0.623889321098569 0.0191313515360452 0.623889321098569 0.0191313515360452 -1.24243623217291E-06 3.74101698834924E-06
3.25 -3.07471304567516E-06 -2.11798715590795E-06 0.594468495389235 -0.0394873705422184 0.594468495389235 -0.0394873705422184 -5.58115728410817E-07 3.93884049082805E-06
3.3 -3.34587337160366E-06 -1.71925383604877E-06 0.629639204153254 -0.103744034077517 0.629639204153254 -0.103744034077517 1.58453279441238E-07 4.00954230018806E-06
3.35 -3.5880638860577E-06 -1.3009755193429E-06 0.56853080425494 -0.151402744641384 0.56853080425494 -0.151402744641384 8.8120457989819E-07 3.94863159525361E-06
3.4 -3.79925538565856E-06 -8.67994629191719E-07 0.573761820215333 -0.214147783251244 0.573761820215333 -0.214147783251244 1.58387058788813E-06 3.7576031923471E-06
3.45 -3.97788608183078E-06 -4.2495475948343E-07 0.543988058490701 -0.265581370957053 0.543988058490701 -0.265581370957053 2.24146069103915E-06 3.4439194942473E-06
3.5 -4.12277669617654E-06 2.3629251049427E-08 0.509009001575573 -0.312859192118706 0.509009001575573 -0.312859192118706 2.83188529439946E-06 3.02007729462976E-06
3.55 -4.23313349118274E-06 4.73439679033982E-07 0.480857535903473 -0.364078085642803 0.480857535903473 -0.364078085642803 3.33690810139892E-06 2.50276509506072E-06
3.6 -4.30858110486656E-06 9.20495021951401E-07 0.434531688065014 -0.400763001003258 0.434531688065014 -0.400763001003258 3.7430413019115E-06 1.91163948915906E-06
3.65 -4.3490503242975E-06 1.36104872856479E-06 0.411547143273146 -0.460917702429504 0.411547143273146 -0.460917702429504 4.04188539767255E-06 1.26768278305325E-06
3.7 -4.35481731109638E-06 1.79168284415209E-06 0.342832508924849 -0.468291710474292 0.342832508924849 -0.468291710474292 4.23004620200373E-06 5.91878783900069E-07
3.75 -4.32641382471764E-06 2.20930294360356E-06 0.30779426809695 -0.519334904200261 0.30779426809695 -0.519334904200261 4.30859028824911E-06 -9.60069250152521E-08
3.8 -4.26467099202235E-06 2.61117938814305E-06 0.254071047024859 -0.542373833572891 0.254071047024859 -0.542373833572891 4.28224818083485E-06 -7.78572629421382E-07
3.85 -4.17062733608274E-06 2.99486624263221E-06 0.193022915749725 -0.543667484068791 0.193022915749725 -0.543667484068791 4.15827668173819E-06 -1.44133673774496E-06
3.9 -4.04558844268514E-06 3.35830514153315E-06 0.141389465946798 -0.56736915407581 0.141389465946798 -0.56736915407581 3.9452717775367E-06 -2.07302363669323E-06
3.95 -3.89106514492391E-06 3.69978664661329E-06 0.0830631559232634 -0.559833429293705 0.0830631559232634 -0.559833429293705 3.6520502604511E-06 -2.66541273259604E-06
4 -3.70868153910605E-06 4.01794584491859E-06 0.0287581689289084 -0.570528675431634 0.0287581689289084 -0.570528675431634 3.28670115277716E-06 -3.2126334356646E-06
4.05 -3.50022074717353E-06 4.31175304857546E-06 -0.0254651675237795 -0.546388635372603 -0.0254651675237795 -0.546388635372603 2.85595664585456E-06 -3.71046133362513E-06
4.1 -3.26757584646508E-06 4.58050895964807E-06 -0.0811181943675708 -0.561348763997343 -0.0811181943675708 -0.561348763997343 2.36498294850274E-06 -4.15545322008368E-06
4.15 -3.01271924306717E-06 4.8237425618775E-06 -0.129692657117044 -0.528924589139984 -0.129692657117044 -0.528924589139984 1.81745637826161E-06 -4.54383240310298E-06
4.2 -2.73768504742866E-06 5.04132636198216E-06 -0.178796044733064 -0.509651253478704 -0.178796044733064 -0.509651253478704 1.21594748822445E-06 -4.8706590901451E-06
4.25 -2.44455384453328E-06 5.23335016964596E-06 -0.23219018394934 -0.50050862800539 -0.23219018394934 -0.50050862800539 5.62877952944032E-07 -5.12932899752231E-06
4.3 -2.13540094521847E-06 5.40013166875811E-06 -0.274049377470487 -0.46631498656569 -0.274049377470487 -0.46631498656569 -1.38524702081808E-07 -5.31121799584978E-06
4.35 -1.81230413804911E-06 5.54219767288296E-06 -0.319573962643133 -0.439885466142803 -0.319573962643133 -0.439885466142803 -8.83187491661019E-07 -5.40590997217836E-06
4.4 -1.47732094661969E-06 5.66023268290935E-06 -0.369000098751659 -0.416282981110793 -0.369000098751659 -0.416282981110793 -1.66308042500116E-06 -5.40180898126072E-06
4.45 -1.13241853817323E-06 5.75503588221571E-06 -0.409484569554437 -0.38037197244887 -0.409484569554437 -0.38037197244887 -2.46659453297868E-06 -5.28703608076795E-06
4.5 -7.7950743706797E-07 5.82751518232882E-06 -0.446842879131198 -0.340799835749794 -0.446842879131198 -0.340799835749794 -3.27794274441246E-06 -5.05079126574988E-06
4.55 -4.20480640502676E-07 5.87864199407448E-06 -0.477409407180186 -0.295715628844173 -0.477409407180186 -0.295715628844173 -4.07726711734986E-06 -4.68478949325851E-06
4.6 -5.70501368356071E-08 5.9094226925658E-06 -0.501721422388002 -0.247061914498498 -0.501721422388002 -0.247061914498498 -4.84124903283414E-06 -4.18462916114769E-06
4.65 3.09126965158171E-07 5.92082158884429E-06 -0.513512768188016 -0.193616977816877 -0.513512768188016 -0.193616977816877 -5.54410002177828E-06 -3.55103619995692E-06
4.7 6.7652256827644E-07 5.91382739424452E-06 -0.532499230750759 -0.143678451921553 -0.532499230750759 -0.143678451921553 -6.15891995101558E-06 -2.79082750788323E-06
4.75 1.0436943691936E-06 5.8892761993222E-06 -0.532354190007928 -0.0894744661614859 -0.532354190007928 -0.0894744661614859 -6.65950695614412E-06 -1.91730532468906E-06
4.8 1.40929146394663E-06 5.84795624212828E-06 -0.52550716550521 -0.0365726744198367 -0.52550716550521 -0.0365726744198367 -7.02207288952472E-06 -9.50197763697341E-07
4.85 1.7719954849769E-06 5.79051710097866E-06 -0.527167141859771 0.0145314789245912 -0.527167141859771 0.0145314789245912 -7.22710349113098E-06 8.50270305999513E-08
4.9 2.13049048356984E-06 5.71748589956114E-06 -0.516922907423104 0.0647472562457239 -0.516922907423104 0.0647472562457239 -7.26096499912754E-06 1.1582837670897E-06
4.95 2.48344067722384E-06 5.62930529485548E-06 -0.502804278780893 0.113313746821448 -0.502804278780893 0.113313746821448 -7.11695320236724E-06 2.23659697819395E-06
5 2.82944448973714E-06 5.52647029763155E-06 -0.484364998087758 0.159825854133788 -0.484364998087758 0.159825854133788 -6.79599272421855E-06 3.28593303062088E-06
5.05 2.82944448973714E-06 5.52647029763155E-06 -0.477389378347542 0.157524109813918 -0.477389378347542 0.157524109813918 -6.79599272421855E-06 3.28593303062088E-06
5.1 2.82944448973714E-06 5.52647029763155E-06 -0.483195356381898 0.159439907615341 -0.483195356381898 0.159439907615341 -6.79599272421855E-06 3.28593303062088E-06
5.15 2.82944448973714E-06 5.52647029763155E-06 -0.468999901996398 0.154755835415787 -0.468999901996398 0.154755835415787 -6.79599272421855E-06 3.28593303062088E-06
5.2 2.82944448973714E-06 5.52647029763155E-06 -0.49059458686083 0.161881430714444 -0.49059458686083 0.161881430714444 -6.79599272421855E-06 3.28593303062088E-06
5.25 2.82944448973714E-06 5.52647029763155E-06 -0.469378023604973 0.154880604152784 -0.469378023604973 0.154880604152784 -6.79599272421855E-06 3.28593303062088E-06
5.3 2.82944448973714E-06 5.52647029763155E-06 -0.486712782195294 0.160600552144152 -0.486712782195294 0.160600552144152 -6.79599272421855E-06 3.28593303062088E-06
5.35 2.82944448973714E-06 5.52647029763155E-06 -0.479261730952735 0.158141929754553 -0.479261730952735 0.158141929754553 -6.79599272421855E-06 3.28593303062088E-06
5.4 2.82944448973714E-06 5.52647029763155E-06 -0.482972887926163 0.159366499728528 -0.482972887926163 0.159366499728528 -6.79599272421855E-06 3.28593303062088E-06
5.45 2.82944448973714E-06 5.52647029763155E-06 -0.480919904244163 0.158689076975452 -0.480919904244163 0.158689076975452 -6.79599272421855E-06 3.28593303062088E-06
5.5 2.82944448973714E-06 5.52647029763155E-06 -0.459804007337473 0.151721467275667 -0.459804007337473 0.151721467275667 -6.79599272421855E-06 3.28593303062088E-06
5.55 2.82944448973714E-06 5.52647029763155E-06 -0.470351736738426 0.155201900146198 -0.470351736738426 0.155201900146198 -6.79599272421855E-06 3.28593303062088E-06
5.6 2.82944448973714E-06 5.52647029763155E-06 -0.444091797762509 0.14653691156755 -0.444091797762509 0.14653691156755 -6.79599272421855E-06 3.28593303062088E-06
5.65 2.82944448973714E-06 5.52647029763155E-06 -0.452296005206752 0.14924405280906 -0.452296005206752 0.14924405280906 -6.79599272421855E-06 3.28593303062088E-06
5.7 2.82944448973714E-06 5.52647029763155E-06 -0.446604147526993 0.147365911285896 -0.446604147526993 0.147365911285896 -6.79599272421855E-06 3.28593303062088E-06
5.75 2.82944448973714E-06 5.52647029763155E-06 -0.452973454568339 0.149467590684991 -0.452973454568339 0.149467590684991 -6.79599272421855E-06 3.28593303062088E-06
5.8 2.82944448973714E-06 5.52647029763155E-06 -0.448613927049146 0.148029077968082 -0.448613927049146 0.148029077968082 -6.79599272421855E-06 3.28593303062088E-06
