# GHZ S RI R 50
0.5 0.0001 0.0001 0.00544542427468819 0 0.00544542427468819 0 0.0001 0.0001
0.55 0.0001 0.0001 0.00692462274888809 0 0.00692462274888809 0 0.0001 0.0001
0.6 0.0001 0.0001 0.00662748804871905 0 0.00662748804871905 0 0.0001 0.0001
0.65 0.0001 0.0001 0.00742107146328826 0 0.00742107146328826 0 0.0001 0.0001
0.7 0.0001 0.0001 0.00832836388807714 0 0.00832836388807714 0 0.0001 0.0001
0.75 0.0001 0.0001 0.00876451810715666 0 0.00876451810715666 0 0.0001 0.0001
0.8 0.0001 0.0001 0.00903705719565304 0 0.00903705719565304 0 0.0001 0.0001
0.85 0.0001 0.0001 0.00977877261280254 0 0.00977877261280254 0 0.0001 0.0001
0.9 0.0001 0.0001 0.00992947547964029 0 0.00992947547964029 0 0.0001 0.0001
0.95 0.0001 0.0001 0.0103701315012153 0 0.0103701315012153 0 0.0001 0.0001
1 0.0001 0.0001 0.0111888437655079 0 0.0111888437655079 0 0.0001 0.0001
1.05 0.0001 0.0001 0.0119383302403193 0 0.0119383302403193 0 0.0001 0.0001
1.1 0.0001 0.0001 0.0120033166188497 0 0.0120033166188497 0 0.0001 0.0001
1.15 0.0001 0.0001 0.0128087838349443 0 0.0128087838349443 0 0.0001 0.0001
1.2 0.0001 0.0001 0.0134060794331797 0 0.0134060794331797 0 0.0001 0.0001
1.25 0.0001 0.0001 0.013783674396847 0 0.013783674396847 0 0.0001 0.0001
1.3 0.0001 0.0001 0.0139854799766338 0 0.0139854799766338 0 0.0001 0.0001
1.35 0.0001 0.0001 0.0145494815763654 0 0.0145494815763654 0 0.0001 0.0001
1.4 0.0001 0.0001 0.0149174506779189 0 0.0149174506779189 0 0.0001 0.0001
1.45 0.0001 0.0001 0.0152322564922085 0 0.0152322564922085 0 0.0001 0.0001
1.5 0.0001 0.0001 0.0158094103545752 0 0.0158094103545752 0 0.0001 0.0001
1.55 0.0001 0.0001 0.0157868470927848 0 0.0157868470927848 0 0.0001 0.0001
1.6 0.0001 0.0001 0.0163609471273751 0 0.0163609471273751 0 0.0001 0.0001
1.65 0.0001 0.0001 0.0166028122154397 0 0.0166028122154397 0 0.0001 0.0001
1.7 0.0001 0.0001 0.0172555552984911 0 0.0172555552984911 0 0.0001 0.0001
1.75 0.0001 0.0001 0.0178148670306088 0 0.0178148670306088 0 0.0001 0.0001
1.8 0.0001 0.0001 0.018269383815525 0 0.018269383815525 0 0.0001 0.0001
1.85 0.0001 0.0001 0.0184572936664299 0 0.0184572936664299 0 0.0001 0.0001
1.9 0.0001 0.0001 0.0191690080555853 0 0.0191690080555853 0 0.0001 0.0001
1.95 0.0001 0.0001 0.0190243925513138 0 0.0190243925513138 0 0.0001 0.0001
2 0.0001 0.0001 0.0198170947414459 0 0.0198170947414459 0 0.0001 0.0001
2.05 0.0001 0.0001 0.0199220117045197 0 0.0199220117045197 0 0.0001 0.0001
2.1 0.0001 0.0001 0.0203589465615195 0 0.0203589465615195 0 0.0001 0.0001
2.15 0.0001 0.0001 0.0207110613167216 0 0.0207110613167216 0 0.0001 0.0001
2.2 0.0001 0.0001 0.0210791785957331 0 0.0210791785957331 0 0.0001 0.0001
2.25 0.0001 0.0001 0.0216405458685055 0 0.0216405458685055 0 0.0001 0.0001
2.3 0.0001 0.0001 0.0215356846807641 0 0.0215356846807641 0 0.0001 0.0001
2.35 0.0001 0.0001 0.0214764261647612 0 0.0214764261647612 0 0.0001 0.0001
2.4 0.0001 0.0001 0.0212845531529651 0 0.0212845531529651 0 0.0001 0.0001
2.45 0.0001 0.0001 0.0218089079156823 0 0.0218089079156823 0 0.0001 0.0001
2.5 0.0001 0.0001 0.0216201215573319 0 0.0216201215573319 0 0.0001 0.0001
2.55 0.0001 0.0001 0.0220702483643322 0 0.0220702483643322 0 0.0001 0.0001
2.6 0.0001 0.0001 0.023029103462986 0 0.023029103462986 0 0.0001 0.0001
2.65 0.0001 0.0001 0.0236128466109031 0 0.0236128466109031 0 0.0001 0.0001
2.7 0.0001 0.0001 0.022548990211616 0 0.022548990211616 0 0.0001 0.0001
2.75 0.0001 0.0001 0.0232346110369907 0 0.0232346110369907 0 0.0001 0.0001
2.8 0.0001 0.0001 0.0235265986136557 0 0.0235265986136557 0 0.0001 0.0001
2.85 0.0001 0.0001 0.0235259683403236 0 0.0235259683403236 0 0.0001 0.0001
2.9 0.0001 0.0001 0.0242243199840504 0 0.0242243199840504 0 0.0001 0.0001
2.95 0.0001 0.0001 0.0242441270993485 0 0.0242441270993485 0 0.0001 0.0001
3 0.0001 0.0001 0.0246270045472673 0 0.0246270045472673 0 0.0001 0.0001
3.05 0.0001 0.0001 0.0246485048580518 0 0.0246485048580518 0 0.0001 0.0001
3.1 0.0001 0.0001 0.0247624320501636 0 0.0247624320501636 0 0.0001 0.0001
3.15 0.0001 0.0001 0.0247921719406432 0 0.0247921719406432 0 0.0001 0.0001
3.2 0.0001 0.0001 0.025443133836342 0 0.025443133836342 0 0.0001 0.0001
3.25 0.0001 0.0001 0.0251358700490038 0 0.0251358700490038 0 0.0001 0.0001
3.3 0.0001 0.0001 0.026078411140081 0 0.026078411140081 0 0.0001 0.0001
3.35 0.0001 0.0001 0.0256834227715868 0 0.0256834227715868 0 0.0001 0.0001
3.4 0.0001 0.0001 0.0258503297477349 0 0.0258503297477349 0 0.0001 0.0001
3.45 0.0001 0.0001 0.0261803015000975 0 0.0261803015000975 0 0.0001 0.0001
3.5 0.0001 0.0001 0.0261629212216051 0 0.0261629212216051 0 0.0001 0.0001
3.55 0.0001 0.0001 0.0259198149698607 0 0.0259198149698607 0 0.0001 0.0001
3.6 0.0001 0.0001 0.0258154166604556 0 0.0258154166604556 0 0.0001 0.0001
3.65 0.0001 0.0001 0.0264697479234555 0 0.0264697479234555 0 0.0001 0.0001
3.7 0.0001 0.0001 0.0256946451692859 0 0.0256946451692859 0 0.0001 0.0001
3.75 0.0001 0.0001 0.0263318502540177 0 0.0263318502540177 0 0.0001 0.0001
3.8 0.0001 0.0001 0.0262184230859932 0 0.0262184230859932 0 0.0001 0.0001
3.85 0.0001 0.0001 0.0263787003841319 0 0.0263787003841319 0 0.0001 0.0001
3.9 0.0001 0.0001 0.0259394202980616 0 0.0259394202980616 0 0.0001 0.0001
3.95 0.0001 0.0001 0.0265522456499156 0 0.0265522456499156 0 0.0001 0.0001
4 0.0001 0.0001 0.0259116610784058 0 0.0259116610784058 0 0.0001 0.0001
4.05 0.0001 0.0001 0.026779782471938 0 0.026779782471938 0 0.0001 0.0001
4.1 0.0001 0.0001 0.0263028578156819 0 0.0263028578156819 0 0.0001 0.0001
4.15 0.0001 0.0001 0.0272520184324485 0 0.0272520184324485 0 0.0001 0.0001
4.2 0.0001 0.0001 0.0272166621170671 0 0.0272166621170671 0 0.0001 0.0001
4.25 0.0001 0.0001 0.0259237266523135 0 0.0259237266523135 0 0.0001 0.0001
4.3 0.0001 0.0001 0.0275552546971864 0 0.0275552546971864 0 0.0001 0.0001
4.35 0.0001 0.0001 0.0267765953677381 0 0.0267765953677381 0 0.0001 0.0001
4.4 0.0001 0.0001 0.0264644183654747 0 0.0264644183654747 0 0.0001 0.0001
4.45 0.0001 0.0001 0.0262099611529537 0 0.0262099611529537 0 0.0001 0.0001
4.5 0.0001 0.0001 0.0265875912371707 0 0.0265875912371707 0 0.0001 0.0001
4.55 0.0001 0.0001 0.0263409947412401 0 0.0263409947412401 0 0.0001 0.0001
4.6 0.0001 0.0001 0.0269481304336702 0 0.0269481304336702 0 0.0001 0.0001
4.65 0.0001 0.0001 0.0266778658828 0 0.0266778658828 0 0.0001 0.0001
4.7 0.0001 0.0001 0.0261747152422772 0 0.0261747152422772 0 0.0001 0.0001
4.75 0.0001 0.0001 0.0258824878964637 0 0.0258824878964637 0 0.0001 0.0001
4.8 0.0001 0.0001 0.0263667125475392 0 0.0263667125475392 0 0.0001 0.0001
4.85 0.0001 0.0001 0.02608944290575 0 0.02608944290575 0 0.0001 0.0001
4.9 0.0001 0.0001 0.0265772592552498 0 0.0265772592552498 0 0.0001 0.0001
4.95 0.0001 0.0001 0.0261817054374316 0 0.0261817054374316 0 0.0001 0.0001
5 0.0001 0.0001 0.0266219198911704 0 0.0266219198911704 0 0.0001 0.0001
5.05 0.0001 0.0001 0.0264917226096543 0 0.0264917226096543 0 0.0001 0.0001
5.1 0.0001 0.0001 0.025843857059428 0 0.025843857059428 0 0.0001 0.0001
5.15 0.0001 0.0001 0.0263669209850977 0 0.0263669209850977 0 0.0001 0.0001
5.2 0.0001 0.0001 0.0258515763406949 0 0.0258515763406949 0 0.0001 0.0001
5.25 0.0001 0.0001 0.0263609927376557 0 0.0263609927376557 0 0.0001 0.0001
5.3 0.0001 0.0001 0.0255111749534546 0 0.0255111749534546 0 0.0001 0.0001
5.35 0.0001 0.0001 0.0255407372296478 0 0.0255407372296478 0 0.0001 0.0001
5.4 0.0001 0.0001 0.0253098074540085 0 0.0253098074540085 0 0.0001 0.0001
5.45 0.0001 0.0001 0.025511443852811 0 0.025511443852811 0 0.0001 0.0001
5.5 0.0001 0.0001 0.0250428602199919 0 0.0250428602199919 0 0.0001 0.0001
5.55 0.0001 0.0001 0.0253219264059965 0 0.0253219264059965 0 0.0001 0.0001
5.6 0.0001 0.0001 0.0249962923312783 0 0.0249962923312783 0 0.0001 0.0001
5.65 0.0001 0.0001 0.0254411784267871 0 0.0254411784267871 0 0.0001 0.0001
5.7 0.0001 0.0001 0.0245406086733478 0 0.0245406086733478 0 0.0001 0.0001
5.75 0.0001 0.0001 0.024509943382677 0 0.024509943382677 0 0.0001 0.0001
5.8 0.0001 0.0001 0.025153760002533 0 0.025153760002533 0 0.0001 0.0001
