# GHZ S RI R 50
0.5 0.0001 0.0001 0.78207787524943 0 0.78207787524943 0 0.0001 0.0001
0.55 0.0001 0.0001 0.784783746719655 0 0.784783746719655 0 0.0001 0.0001
0.6 0.0001 0.0001 0.762693420689263 0 0.762693420689263 0 0.0001 0.0001
0.65 0.0001 0.0001 0.801678063387679 0 0.801678063387679 0 0.0001 0.0001
0.7 0.0001 0.0001 0.78777101958568 0 0.78777101958568 0 0.0001 0.0001
0.75 0.0001 0.0001 0.810961057853841 0 0.810961057853841 0 0.0001 0.0001
0.8 0.0001 0.0001 0.810214478981769 0 0.810214478981769 0 0.0001 0.0001
0.85 0.0001 0.0001 0.814891898213851 0 0.814891898213851 0 0.0001 0.0001
0.9 0.0001 0.0001 0.812456280055831 0 0.812456280055831 0 0.0001 0.0001
0.95 0.0001 0.0001 0.813954259097268 0 0.813954259097268 0 0.0001 0.0001
1 0.0001 0.0001 0.801955001004079 0 0.801955001004079 0 0.0001 0.0001
1.05 0.0001 0.0001 0.797627281738481 0 0.797627281738481 0 0.0001 0.0001
1.1 0.0001 0.0001 0.78063856062849 0 0.78063856062849 0 0.0001 0.0001
1.15 0.0001 0.0001 0.792318871312692 0 0.792318871312692 0 0.0001 0.0001
1.2 0.0001 0.0001 0.765067934129092 0 0.765067934129092 0 0.0001 0.0001
1.25 0.0001 0.0001 0.781447848854183 0 0.781447848854183 0 0.0001 0.0001
1.3 0.0001 0.0001 0.773036499601133 0 0.773036499601133 0 0.0001 0.0001
1.35 0.0001 0.0001 0.775889723919874 0 0.775889723919874 0 0.0001 0.0001
1.4 0.0001 0.0001 0.76155276627404 0 0.76155276627404 0 0.0001 0.0001
1.45 0.0001 0.0001 0.760413817776896 0 0.760413817776896 0 0.0001 0.0001
1.5 0.0001 0.0001 0.761815842710188 0 0.761815842710188 0 0.0001 0.0001
1.55 0.0001 0.0001 0.754483940371636 0 0.754483940371636 0 0.0001 0.0001
1.6 0.0001 0.0001 0.763044734876336 0 0.763044734876336 0 0.0001 0.0001
1.65 0.0001 0.0001 0.761815842710188 0 0.761815842710188 0 0.0001 0.0001
1.7 0.0001 0.0001 0.763220452648997 0 0.763220452648997 0 0.0001 0.0001
1.75 0.0001 0.0001 0.763220452648997 0 0.763220452648997 0 0.0001 0.0001
1.8 0.0001 0.0001 0.753702576688426 0 0.753702576688426 0 0.0001 0.0001
1.85 0.0001 0.0001 0.746964565078007 0 0.746964565078007 0 0.0001 0.0001
1.9 0.0001 0.0001 0.727528481701902 0 0.727528481701902 0 0.0001 0.0001
1.95 0.0001 0.0001 0.729373533189316 0 0.729373533189316 0 0.0001 0.0001
2 0.0001 0.0001 0.718869404203544 0 0.718869404203544 0 0.0001 0.0001
2.05 0.0001 0.0001 0.724686214606303 0 0.724686214606303 0 0.0001 0.0001
2.1 0.0001 0.0001 0.723519099270412 0 0.723519099270412 0 0.0001 0.0001
2.15 0.0001 0.0001 0.730886600594997 0 0.730886600594997 0 0.0001 0.0001
2.2 0.0001 0.0001 0.731475863014725 0 0.731475863014725 0 0.0001 0.0001
2.25 0.0001 0.0001 0.716803306516052 0 0.716803306516052 0 0.0001 0.0001
2.3 0.0001 0.0001 0.73544466179727 0 0.73544466179727 0 0.0001 0.0001
2.35 0.0001 0.0001 0.718372998283636 0 0.718372998283636 0 0.0001 0.0001
2.4 0.0001 0.0001 0.719283337825269 0 0.719283337825269 0 0.0001 0.0001
2.45 0.0001 0.0001 0.71696837558042 0 0.71696837558042 0 0.0001 0.0001
2.5 0.0001 0.0001 0.70745692162786 0 0.70745692162786 0 0.0001 0.0001
2.55 0.0001 0.0001 0.708271880546745 0 0.708271880546745 0 0.0001 0.0001
2.6 0.0001 0.0001 0.692388745533541 0 0.692388745533541 0 0.0001 0.0001
2.65 0.0001 0.0001 0.695824954700605 0 0.695824954700605 0 0.0001 0.0001
2.7 0.0001 0.0001 0.689366222382697 0 0.689366222382697 0 0.0001 0.0001
2.75 0.0001 0.0001 0.671970178748902 0 0.671970178748902 0 0.0001 0.0001
2.8 0.0001 0.0001 0.691194064398049 0 0.691194064398049 0 0.0001 0.0001
2.85 0.0001 0.0001 0.672976656284318 0 0.672976656284318 0 0.0001 0.0001
2.9 0.0001 0.0001 0.671892819776302 0 0.671892819776302 0 0.0001 0.0001
2.95 0.0001 0.0001 0.677797558299367 0 0.677797558299367 0 0.0001 0.0001
3 0.0001 0.0001 0.674761041662899 0 0.674761041662899 0 0.0001 0.0001
3.05 0.0001 0.0001 0.683439380986022 0 0.683439380986022 0 0.0001 0.0001
3.1 0.0001 0.0001 0.655013121424972 0 0.655013121424972 0 0.0001 0.0001
3.15 0.0001 0.0001 0.67445037425903 0 0.67445037425903 0 0.0001 0.0001
3.2 0.0001 0.0001 0.66168303524561 0 0.66168303524561 0 0.0001 0.0001
3.25 0.0001 0.0001 0.645505578769006 0 0.645505578769006 0 0.0001 0.0001
3.3 0.0001 0.0001 0.683282031369199 0 0.683282031369199 0 0.0001 0.0001
3.35 0.0001 0.0001 0.638483972663327 0 0.638483972663327 0 0.0001 0.0001
3.4 0.0001 0.0001 0.669021384940744 0 0.669021384940744 0 0.0001 0.0001
3.45 0.0001 0.0001 0.641844760017898 0 0.641844760017898 0 0.0001 0.0001
3.5 0.0001 0.0001 0.658521562525207 0 0.658521562525207 0 0.0001 0.0001
3.55 0.0001 0.0001 0.64617477459261 0 0.64617477459261 0 0.0001 0.0001
3.6 0.0001 0.0001 0.639160606233217 0 0.639160606233217 0 0.0001 0.0001
3.65 0.0001 0.0001 0.667398152344843 0 0.667398152344843 0 0.0001 0.0001
3.7 0.0001 0.0001 0.630768504458075 0 0.630768504458075 0 0.0001 0.0001
3.75 0.0001 0.0001 0.659978822410933 0 0.659978822410933 0 0.0001 0.0001
3.8 0.0001 0.0001 0.647515248225558 0 0.647515248225558 0 0.0001 0.0001
3.85 0.0001 0.0001 0.641209576585162 0 0.641209576585162 0 0.0001 0.0001
3.9 0.0001 0.0001 0.636942165377709 0 0.636942165377709 0 0.0001 0.0001
3.95 0.0001 0.0001 0.611716225333826 0 0.611716225333826 0 0.0001 0.0001
4 0.0001 0.0001 0.628202991245556 0 0.628202991245556 0 0.0001 0.0001
4.05 0.0001 0.0001 0.592038568681714 0 0.592038568681714 0 0.0001 0.0001
4.1 0.0001 0.0001 0.612985215556205 0 0.612985215556205 0 0.0001 0.0001
4.15 0.0001 0.0001 0.601104528783016 0 0.601104528783016 0 0.0001 0.0001
4.2 0.0001 0.0001 0.593335044380004 0 0.593335044380004 0 0.0001 0.0001
4.25 0.0001 0.0001 0.611575388682707 0 0.611575388682707 0 0.0001 0.0001
4.3 0.0001 0.0001 0.612844086742927 0 0.612844086742927 0 0.0001 0.0001
4.35 0.0001 0.0001 0.609747460186991 0 0.609747460186991 0 0.0001 0.0001
4.4 0.0001 0.0001 0.61362069750969 0 0.61362069750969 0 0.0001 0.0001
4.45 0.0001 0.0001 0.622157011728757 0 0.622157011728757 0 0.0001 0.0001
4.5 0.0001 0.0001 0.614893638512626 0 0.614893638512626 0 0.0001 0.0001
4.55 0.0001 0.0001 0.621012011068541 0 0.621012011068541 0 0.0001 0.0001
4.6 0.0001 0.0001 0.619655059396256 0 0.619655059396256 0 0.0001 0.0001
4.65 0.0001 0.0001 0.61362069750969 0 0.61362069750969 0 0.0001 0.0001
4.7 0.0001 0.0001 0.616240163387078 0 0.616240163387078 0 0.0001 0.0001
4.75 0.0001 0.0001 0.609186120568194 0 0.609186120568194 0 0.0001 0.0001
4.8 0.0001 0.0001 0.603740068928926 0 0.603740068928926 0 0.0001 0.0001
4.85 0.0001 0.0001 0.593813408662064 0 0.593813408662064 0 0.0001 0.0001
4.9 0.0001 0.0001 0.594497455306811 0 0.594497455306811 0 0.0001 0.0001
4.95 0.0001 0.0001 0.586678266401977 0 0.586678266401977 0 0.0001 0.0001
5 0.0001 0.0001 0.56813297906811 0 0.56813297906811 0 0.0001 0.0001
5.05 0.0001 0.0001 0.573257836107109 0 0.573257836107109 0 0.0001 0.0001
5.1 0.0001 0.0001 0.568852930843841 0 0.568852930843841 0 0.0001 0.0001
5.15 0.0001 0.0001 0.56676105494185 0 0.56676105494185 0 0.0001 0.0001
5.2 0.0001 0.0001 0.58337793654032 0 0.58337793654032 0 0.0001 0.0001
5.25 0.0001 0.0001 0.557057466941555 0 0.557057466941555 0 0.0001 0.0001
5.3 0.0001 0.0001 0.574314789256352 0 0.574314789256352 0 0.0001 0.0001
5.35 0.0001 0.0001 0.542188123209317 0 0.542188123209317 0 0.0001 0.0001
5.4 0.0001 0.0001 0.560918804833818 0 0.560918804833818 0 0.0001 0.0001
5.45 0.0001 0.0001 0.529358632844194 0 0.529358632844194 0 0.0001 0.0001
5.5 0.0001 0.0001 0.535056938173137 0 0.535056938173137 0 0.0001 0.0001
5.55 0.0001 0.0001 0.534318240087348 0 0.534318240087348 0 0.0001 0.0001
5.6 0.0001 0.0001 0.532169524020692 0 0.532169524020692 0 0.0001 0.0001
5.65 0.0001 0.0001 0.537526648786745 0 0.537526648786745 0 0.0001 0.0001
5.7 0.0001 0.0001 0.527229861422823 0 0.527229861422823 0 0.0001 0.0001
5.75 0.0001 0.0001 0.540132114764635 0 0.540132114764635 0 0.0001 0.0001
5.8 0.0001 0.0001 0.519696748914659 0 0.519696748914659 0 0.0001 0.0001
