# GHZ S RI R 50
0.5 1.1294569568247E-06 3.10986422454052E-06 0.52678408447448 -0.570257755127714 0.52678408447448 -0.570257755127714 3.43228597243659E-06 3.62954093804396E-06
0.55 1.56018062246773E-06 3.25083207754505E-06 0.479342337253818 -0.613416605762486 0.479342337253818 -0.613416605762486 3.60265084833613E-06 3.65250385851757E-06
0.6 2.02017062076754E-06 3.32432781538344E-06 0.414877229306531 -0.632071147956288 0.414877229306531 -0.632071147956288 3.78824511986284E-06 3.6509556599357E-06
0.65 2.49725798889628E-06 3.32556439953039E-06 0.37962146762048 -0.697572241527067 0.37962146762048 -0.697572241527067 3.98533684870998E-06 3.62170880878894E-06
0.7 2.97867997471979E-06 3.25180655854926E-06 0.315100378735632 -0.71338985246172 0.315100378735632 -0.71338985246172 4.18955635952883E-06 3.56215750256042E-06
0.75 3.45139833393211E-06 3.10243437776812E-06 0.262617908313839 -0.758107235130381 0.262617908313839 -0.758107235130381 4.39600014294562E-06 3.47041201227137E-06
0.8 3.90247269131521E-06 2.87893339471543E-06 0.198980764986371 -0.77593325033781 0.198980764986371 -0.77593325033781 4.599363378856E-06 3.34541588831196E-06
0.85 4.31939589266406E-06 2.58487595255257E-06 0.13509838364236 -0.793724933043034 0.13509838364236 -0.793724933043034 4.79408749845011E-06 3.18707065845414E-06
0.9 4.69044639558935E-06 2.22582771653282E-06 0.0690322904439126 -0.799240664426071 0.0690322904439126 -0.799240664426071 4.97454334055164E-06 2.9962698715276E-06
0.95 5.00500343780729E-06 1.80920984085375E-06 0.00299494844023735 -0.803177379383482 0.00299494844023735 -0.803177379383482 5.13524706157882E-06 2.77492721210899E-06
1 5.25384690491622E-06 1.34409475037591E-06 -0.0621731312055166 -0.788395775645899 -0.0621731312055165 -0.788395775645899 5.27105889889656E-06 2.52596083470935E-06
1.05 5.42940487500407E-06 8.40966096697639E-07 -0.126107664023126 -0.775903944996556 -0.126107664023126 -0.775903944996556 5.37738200742952E-06 2.25319745333577E-06
1.1 5.52598796502985E-06 3.1142590210859E-07 -0.185406876928432 -0.746178524547569 -0.185406876928432 -0.746178524547569 5.45035913476919E-06 1.96126794097691E-06
1.15 5.53995206001195E-06 -2.32103042598703E-07 -0.249740118354113 -0.738828892992835 -0.249740118354113 -0.738828892992835 5.48700926158775E-06 1.65546069304204E-06
1.2 5.46979550308677E-06 -7.76752642454529E-07 -0.298885256534027 -0.690725309096198 -0.298885256534027 -0.690725309096198 5.4853575119802E-06 1.34148640215172E-06
1.25 5.31621907906992E-06 -1.30952154190111E-06 -0.362114627981854 -0.677579644581979 -0.362114627981853 -0.677579644581979 5.44448808293025E-06 1.0253177535285E-06
1.3 5.08210453823743E-06 -1.8176859496626E-06 -0.411940139488168 -0.638140450024849 -0.411940139488168 -0.638140450024849 5.36457758803119E-06 7.12919476307663E-07
1.35 4.77246567481959E-06 -2.28910519811843E-06 -0.464515128108565 -0.603925038991751 -0.464515128108565 -0.603925038991751 5.24685104881511E-06 4.10048153723687E-07
1.4 4.39427437082362E-06 -2.7125745213002E-06 -0.502892301951255 -0.552891376186031 -0.502892301951255 -0.552891376186031 5.09350985409421E-06 1.22032143945529E-07
1.45 3.95634008351094E-06 -3.0781433685948E-06 -0.545569868426798 -0.508550251931976 -0.545569868426798 -0.508550251931976 4.90758064995615E-06 -1.46387894946822E-07
1.5 3.46899693151667E-06 -3.3773827012018E-06 -0.586326816520778 -0.46248632628691 -0.586326816520778 -0.46248632628691 4.6927549970828E-06 -3.91240561028361E-07
1.55 2.94390076603711E-06 -3.60361115621438E-06 -0.616066290185351 -0.40843098661536 -0.616066290185351 -0.40843098661536 4.45323166884992E-06 -6.09395598875259E-07
1.6 2.39366297959099E-06 -3.75209770004989E-06 -0.654570180098209 -0.360152308361731 -0.654570180098209 -0.360152308361731 4.19345176156403E-06 -7.98613610857227E-07
1.65 1.83155379577612E-06 -3.8201593107827E-06 -0.680506204515701 -0.304364826046666 -0.680506204515701 -0.304364826046666 3.91792215149604E-06 -9.57547259767356E-07
1.7 1.27112990213501E-06 -3.80724870786692E-06 -0.70414089118598 -0.247611314389385 -0.70414089118598 -0.247611314389385 3.63103097763678E-06 -1.08570776722709E-06
1.75 7.25903908606505E-07 -3.71498460845932E-06 -0.721713920652695 -0.188683147253972 -0.721713920652695 -0.188683147253972 3.33685504506792E-06 -1.18328377633591E-06
1.8 2.08947715689999E-07 -3.54709883276193E-06 -0.725207995209895 -0.126941169738708 -0.725207995209895 -0.126941169738708 3.03902917859652E-06 -1.25105602122719E-06
1.85 -2.67413917734875E-07 -3.30937242333462E-06 -0.726212837367894 -0.0661651210465921 -0.726212837367894 -0.0661651210465921 2.7406724754212E-06 -1.29026754440857E-06
1.9 -6.9196254521889E-07 -3.00946016490537E-06 -0.70979917277909 -0.00598740192600825 -0.70979917277909 -0.00598740192600825 2.44436037030343E-06 -1.30239822684217E-06
1.95 -1.054879544784E-06 -2.65672106435103E-06 -0.709254275589089 0.0525703883719369 -0.709254275589089 0.0525703883719369 2.15211861355837E-06 -1.28904009820915E-06
2 -1.34802742325315E-06 -2.26194376660034E-06 -0.691986559917241 0.109119285184578 -0.691986559917241 0.109119285184578 1.8654880347409E-06 -1.25171490387165E-06
2.05 -1.56488582026073E-06 -1.83697050666814E-06 -0.685717504610837 0.166945222421056 -0.685717504610837 0.166945222421056 1.58561897000113E-06 -1.19176828513123E-06
2.1 -1.70157264547233E-06 -1.39473180769302E-06 -0.668137643275169 0.222320632425872 -0.668137643275169 0.222320632425872 1.31337065783034E-06 -1.11027979362203E-06
2.15 -1.75611381906929E-06 -9.48444310684991E-07 -0.653743981189205 0.279196784851544 -0.653743981189205 0.279196784851544 1.04949404241918E-06 -1.00801073686615E-06
2.2 -1.72879079275646E-06 -5.11412904692638E-07 -0.628649363335482 0.332110111817856 -0.628649363335482 0.332110111817856 7.94731662409108E-07 -8.85385583700077E-07
2.25 -1.62210095493576E-06 -9.6689752758251E-08 -0.586789056058541 0.374803734507384 -0.586789056058534 0.374803734507394 5.49982296374622E-07 -7.4256241905656E-07
2.3 -1.44070068271429E-06 2.83278798699923E-07 -0.5679972733807 0.432514848821724 -0.5679972733807 0.432514848821724 3.16415060898462E-07 -5.79518281946024E-07
2.35 -1.19128311017574E-06 6.17018956443051E-07 -0.517835060462437 0.466398503854683 -0.517835060462437 0.466398503854683 9.55600903433025E-08 -3.96153774610933E-07
2.4 -8.82396587029418E-07 8.94324059615456E-07 -0.478002599992475 0.507743985624436 -0.478002599992475 0.507743985624436 -1.10657450125224E-07 -1.92429505660794E-07
2.45 -5.24215201999321E-07 1.10653756541808E-06 -0.43293132398442 0.543247845053274 -0.43293132398442 0.543247845053274 -2.99914958191784E-07 3.14579869017228E-08
2.5 -1.28256313812832E-07 1.24680175729284E-06 -0.381396129841634 0.569003683645786 -0.381396129841634 0.569003683645786 -4.69531174477752E-07 2.74959567307265E-07
2.55 2.9292451153623E-07 1.31023792464787E-06 -0.333466370970417 0.598754454490329 -0.333466370970417 0.598754454490329 -6.16569177989242E-07 5.36994449410812E-07
2.6 7.26063320293018E-07 1.29410022482245E-06 -0.276560604761776 0.609765060902499 -0.276560604761776 0.609765060902499 -7.37931901401108E-07 8.1583877105273E-07
2.65 1.1575715338731E-06 1.19783398852927E-06 -0.226446594038409 0.633164909654522 -0.226446594038409 0.633164909654522 -8.30561791710367E-07 1.10911161369704E-06
2.7 1.57386493332863E-06 1.02312839233253E-06 -0.171888415104552 0.643195466323764 -0.171888415104552 0.643195466323764 -8.91585497284488E-07 1.41364877915128E-06
2.75 1.96176403301983E-06 7.73848272777322E-07 -0.115356493849162 0.638203450046881 -0.115356493849162 0.638203450046881 -9.18530503291597E-07 1.72562409412245E-06
2.8 2.3088347870351E-06 4.55955482926374E-07 -0.064242925352106 0.663561370699285 -0.064242925352106 0.663561370699285 -9.09511165090326E-07 2.04053839819393E-06
2.85 2.60373546587878E-06 7.73328368138084E-08 -0.00922365967534337 0.648603080186546 -0.00922365967534338 0.648603080186547 -8.63382780051242E-07 2.35339892444901E-06
2.9 2.83651481732858E-06 -3.52397730203073E-07 0.0440159194178299 0.645700956978676 0.0440159194178299 0.645700956978676 -7.79878608639621E-07 2.65884163476584E-06
2.95 2.99888772876336E-06 -8.22154600800067E-07 0.0977159088537681 0.645099742613441 0.0977159088537681 0.645099742613441 -6.59702244973637E-07 2.95134069748576E-06
3 3.08445847096714E-06 -1.31969261975521E-06 0.149616431852995 0.631630431592353 0.149616431852995 0.631630431592353 -5.04576773135464E-07 3.22541529209529E-06
3.05 3.0888856951684E-06 -1.83192598867005E-06 0.203449532923681 0.62473230411511 0.203449532923681 0.62473230411511 -3.1722502195772E-07 3.47583713207426E-06
3.1 3.00998126122129E-06 -2.34529661156138E-06 0.24334645427151 0.580328927594373 0.24334645427151 0.580328927594373 -1.01307366973798E-07 3.69786557949609E-06
3.15 2.84777108605251E-06 -2.84610657485417E-06 0.298596518510574 0.574579233034747 0.298596518510574 0.574579233034747 1.38668800779487E-07 3.8874320316687E-06
3.2 2.6044708620605E-06 -3.3208898887106E-06 0.338017750883941 0.537396705954164 0.338017750883941 0.537396705954164 3.97491621004331E-07 4.04131127148965E-06
3.25 2.2844419045543E-06 -3.75673972126024E-06 0.371436961375041 0.495097567447268 0.371436961375041 0.495097567447268 6.69477930405043E-07 4.1572253296271E-06
3.3 1.89409038620137E-06 -4.1416560467853E-06 0.434582729748562 0.489717122611036 0.434582729748562 0.489717122611036 9.48652505351484E-07 4.2339569430941E-06
3.35 1.44169110733388E-06 -4.46485014801604E-06 0.4419918738791 0.422470204698268 0.4419918738791 0.422470204698268 1.22895508121252E-06 4.27134334039328E-06
3.4 9.37185305049394E-07 -4.71705658499234E-06 0.497577581174451 0.402926258885348 0.497577581174451 0.402926258885348 1.50449154769579E-06 4.27028227533808E-06
3.45 3.91918343870372E-07 -4.89077659824732E-06 0.50715166379679 0.34587407054763 0.50715166379679 0.34587407054763 1.76968904369004E-06 4.23266937566478E-06
3.5 -1.81670440350507E-07 -4.98045643554859E-06 0.547344487893064 0.310787537238338 0.547344487893064 0.310787537238338 2.01952916534122E-06 4.16124312915973E-06
3.55 -7.70360064664453E-07 -4.98266714025451E-06 0.559940987324299 0.259719677308243 0.559940987324299 0.259719677308243 2.24966851704969E-06 4.05947867716491E-06
3.6 -1.36049246361489E-06 -4.89616567394965E-06 0.572716699384765 0.210481697616484 0.572716699384764 0.210481697616485 2.45655048946263E-06 3.93139287168765E-06
3.65 -1.93835659805963E-06 -4.72196513800228E-06 0.613656596623002 0.169895955236867 0.613656596623002 0.169895955236867 2.63744818451831E-06 3.78136107875289E-06
3.7 -2.49051807996668E-06 -4.46327717681375E-06 0.590835630708676 0.112405281882054 0.590835630708676 0.112405281882054 2.79049023537772E-06 3.6139333616239E-06
3.75 -3.00417001946625E-06 -4.12546246971619E-06 0.625386197663774 0.0664871268498958 0.625386197663774 0.0664871268498958 2.91463577360885E-06 3.43364757773761E-06
3.8 -3.46747583393826E-06 -3.71585187491315E-06 0.616494115426854 0.0146977607234174 0.616494115426854 0.0146977607234174 3.00958223046414E-06 3.24489328067933E-06
3.85 -3.86987133608009E-06 -3.24359647039189E-06 0.609271069586712 -0.0355226634356227 0.609271069586712 -0.0355226634356227 3.07568369361767E-06 3.05174215954396E-06
3.9 -4.20230811442779E-06 -2.71941808090627E-06 0.599936366753172 -0.0847316928082024 0.599936366753172 -0.0847316928082024 3.11383112751245E-06 2.85788790859873E-06
3.95 -4.45751495990519E-06 -2.15532515990429E-06 0.56723700824368 -0.128257752235132 0.56723700824368 -0.128257752235132 3.12527134193534E-06 2.66661220824313E-06
4 -4.63015983747031E-06 -1.56432895100912E-06 0.569439149888871 -0.178915654971327 0.569439149888872 -0.178915654971327 3.11152000407787E-06 2.48067217023732E-06
4.05 -4.71698910207753E-06 -9.60126470961387E-07 0.520731658001777 -0.211912086273946 0.520731658001777 -0.211912086273946 3.07422967254604E-06 2.30243005294234E-06
4.1 -4.71690897051665E-06 -3.56743540393972E-07 0.519060878689557 -0.262708401127521 0.519060878689557 -0.262708401127521 3.01503620592379E-06 2.13384394600247E-06
4.15 -4.63102760012584E-06 2.31811952952226E-07 0.48589724988256 -0.298293053926303 0.48589724988256 -0.298293053926303 2.93553382669481E-06 1.9765348425043E-06
4.2 -4.46259668306951E-06 7.91919633525033E-07 0.453615317482197 -0.332560504788993 0.453615317482197 -0.332560504788993 2.8371445565009E-06 1.83197584551872E-06
4.25 -4.21696340307222E-06 1.31066367673498E-06 0.437648773825797 -0.37972768373031 0.437648773825797 -0.37972768373031 2.7211772624888E-06 1.70146088674482E-06
4.3 -3.90141284105598E-06 1.77619359123101E-06 0.405671299394698 -0.414933672986084 0.405671299394698 -0.414933672986084 2.58878685629392E-06 1.5863498828098E-06
4.35 -3.52497184515263E-06 2.17801126518619E-06 0.368228831547378 -0.44426580845407 0.368228831547378 -0.44426580845407 2.44104101513447E-06 1.48807557515665E-06
4.4 -3.09820809756928E-06 2.50723190548609E-06 0.33250275050623 -0.475673965934644 0.33250275050623 -0.475673965934644 2.27902655546775E-06 1.40822963769542E-06
4.45 -2.63290071612064E-06 2.75681113360226E-06 0.296314338176915 -0.507999539719675 0.296314338176914 -0.507999539719675 2.10391903895632E-06 1.34863082077796E-06
4.5 -2.14177638690366E-06 2.92173149286861E-06 0.250597885283275 -0.524073294510088 0.250597885283275 -0.524073294510088 1.91712008301967E-06 1.31127221586153E-06
4.55 -1.63816127303385E-06 2.99907927725604E-06 0.208764202462887 -0.547928729016079 0.208764202462887 -0.547928729016079 1.72039201818391E-06 1.29832185661481E-06
4.6 -1.13562377296628E-06 2.98817261738017E-06 0.162730903578808 -0.56163615007297 0.162730903578808 -0.56163615007297 1.51592514212808E-06 1.31206242457836E-06
4.65 -6.47654814043007E-07 2.89051111126978E-06 0.114984171519849 -0.567172365148438 0.114984171519849 -0.567172365148438 1.30647431528209E-06 1.35474020969197E-06
4.7 -1.87297154508371E-07 2.7097622652456E-06 0.0683957294148831 -0.576806375131823 0.0683957294148831 -0.576806375131823 1.09538543308206E-06 1.42849637305485E-06
4.75 2.3318294312295E-07 2.45163765219511E-06 0.0206741442062358 -0.573495056510652 0.0206741442062358 -0.573495056510652 8.86640569090517E-07 1.53516745066773E-06
4.8 6.02605054909916E-07 2.12376327847517E-06 -0.0261110292931981 -0.567808083217762 -0.0261110292931981 -0.567808083217762 6.84850653616563E-07 1.67610539021995E-06
4.85 9.11147989659127E-07 1.73541890760831E-06 -0.0712874352090521 -0.554170875135784 -0.0712874352090521 -0.554170875135784 4.95203609539343E-07 1.8520448022175E-06
4.9 1.15059690548341E-06 1.29734603024944E-06 -0.116492135527236 -0.546781899016266 -0.116492135527236 -0.546781899016266 3.23385804809345E-07 2.06287344003388E-06
4.95 1.31454591910806E-06 8.21432174540225E-07 -0.158661357595815 -0.52805462735616 -0.158661357595815 -0.52805462735616 1.75418075810159E-07 2.30752533885621E-06
5 1.39855182370118E-06 3.20408682751322E-07 -0.1948806057917 -0.496771749577402 -0.1948806057917 -0.496771749577402 5.74540469321309E-08 2.58385990606512E-06
5.05 1.40022711780135E-06 -1.9247520502233E-07 -0.236871385909242 -0.483184228067977 -0.236871385909242 -0.483184228067977 -2.44194333086598E-08 2.88855962414908E-06
5.1 1.31929146257619E-06 -7.03800351670719E-07 -0.273345095673298 -0.458346674998769 -0.273345095673298 -0.458346674998769 -6.44035705407879E-08 3.21708368372364E-06
5.15 1.15754319331295E-06 -1.2003396241664E-06 -0.308614678439344 -0.432577664111279 -0.308614678439344 -0.432577664111279 -5.72793136792798E-08 3.56372546149896E-06
5.2 9.18814066809961E-07 -1.66938158478144E-06 -0.352819948081147 -0.417517436230415 -0.35281994808114 -0.417517436230421 1.39982088809129E-09 3.92166166318991E-06
5.25 6.0884029588062E-07 -2.09904018506491E-06 -0.368167422195235 -0.369551841621483 -0.368167422195235 -0.369551841621483 1.15014924797262E-07 4.28305151050767E-06
5.3 2.35077743606684E-07 -2.47857740924985E-06 -0.409218613048073 -0.348457748624616 -0.409218613048073 -0.348457748624616 2.85673621679437E-07 4.6392800555558E-06
5.35 -1.93498680558775E-07 -2.79864291015169E-06 -0.41168734829595 -0.296082565955137 -0.41168734829595 -0.296082565955137 5.14033220934243E-07 4.98113181372371E-06
5.4 -6.66652036833031E-07 -3.05148311660973E-06 -0.449257432681911 -0.27028980826135 -0.449257432681911 -0.27028980826135 7.99199506060573E-07 5.29908489180897E-06
5.45 -1.17317633665453E-06 -3.23112747899064E-06 -0.443146094464969 -0.219428774740166 -0.443146094464969 -0.219428774740166 1.13858228192905E-06 5.58359204028158E-06
5.5 -1.70116723367318E-06 -3.33350418710774E-06 -0.464266649679785 -0.184321907717138 -0.464266649679785 -0.184321907717138 1.52794290295381E-06 5.82538248734161E-06
5.55 -2.23833979094598E-06 -3.35652041948371E-06 -0.476832706244236 -0.145472943423769 -0.476832706244236 -0.145472943423769 1.96137567410396E-06 6.01583066130186E-06
5.6 -2.77236992586299E-06 -3.30010961680519E-06 -0.484879786529661 -0.1055345706945 -0.48487978652966 -0.1055345706945 2.43145595202396E-06 6.14719619815484E-06
5.65 -3.29118331029458E-06 -3.16619607880294E-06 -0.49654413457137 -0.0661903987762636 -0.49654413457137 -0.0661903987762636 2.92939362753592E-06 6.21297197325835E-06
5.7 -3.7833122544407E-06 -2.95859410975659E-06 -0.490429305121645 -0.0249099360819208 -0.490429305121645 -0.0249099360819208 3.44522346128986E-06 6.20803397569666E-06
5.75 -4.23813895656553E-06 -2.68291780163999E-06 -0.502558300526399 0.0155891539715542 -0.502558300526399 0.0155891539715542 3.96813849888744E-06 6.12894039313006E-06
5.8 -4.64619667449085E-06 -2.34636238480064E-06 -0.480446350069147 0.054403381402939 -0.480446350069147 0.054403381402939 4.48672623968081E-06 5.97399790343478E-06
