# GHZ S RI R 50
0.5 5.29904407607636E-06 -3.40111290682917E-06 0.0443537488627084 -0.316321590904308 0.0444920319443425 -0.316121311471934 5.42531920506065E-06 -1.16966775316754E-06
0.55 4.78593911137616E-06 -4.30807634865029E-06 0.000529822187896198 -0.30473356904392 0.000951765237730463 -0.304854753653034 5.44484949435703E-06 -1.69346417239929E-06
0.6 4.0722703792602E-06 -5.141500685228E-06 -0.03688279850726 -0.256012805686995 -0.0372091136055949 -0.255968152561675 5.31392160275253E-06 -2.33019968672215E-06
0.65 3.26342507439653E-06 -5.88855899955159E-06 -0.0794849238809757 -0.275948895721394 -0.0792042104336699 -0.275897842535209 5.07443867810027E-06 -2.93545480714659E-06
0.7 2.3856510005028E-06 -6.45324033287154E-06 -0.152097446646236 -0.334654548102278 -0.152170915391885 -0.33474584233769 4.80083078018794E-06 -3.51027605170875E-06
0.75 1.3757186692053E-06 -6.72375110308227E-06 -0.281609994591049 -0.447644878349623 -0.28134163046524 -0.447593295922992 4.41609398054435E-06 -4.01107735841632E-06
0.8 2.25284220486033E-07 -6.8057754896999E-06 -0.439997628580457 -0.512975197140413 -0.440348210866688 -0.51273131669003 3.86513051877941E-06 -4.55900026102215E-06
0.85 -8.17867987391608E-07 -6.7526717704328E-06 -0.819733307576425 -0.725714399588092 -0.818508828500912 -0.726133206095742 3.32887487806316E-06 -5.02870301149313E-06
0.9 -1.71490365000486E-06 -6.57091704339661E-06 -1.57331012250124 -1.03680693782427 -1.57440562021462 -1.03815378506151 2.77758614717888E-06 -5.41236500882932E-06
0.95 -2.47811228321075E-06 -6.09726863708661E-06 -2.60097236635486 -1.22402793453181 -2.6001936685709 -1.22092028956332 2.17535744377792E-06 -5.61572891909857E-06
1 -3.10991219220093E-06 -5.51076598849924E-06 -4.33180907865746 -1.35079821406064 -4.33108652401206 -1.35786092983212 1.51745115242633E-06 -5.71900893555868E-06
1.05 -3.56241810575345E-06 -4.79189295047375E-06 -6.57509542441398 -1.04229798939833 -6.57851066235339 -1.03144589592061 7.59757952113699E-07 -5.63166710594652E-06
1.1 -3.84895191562587E-06 -3.98857722063896E-06 -8.51317817219936 -0.17518181878568 -8.50696018947156 -0.179755928829861 8.44851182161687E-08 -5.40731626641165E-06
1.15 -3.97616042556132E-06 -3.2069131004441E-06 -11.9597724042316 1.51690767582485 -11.9601849646101 1.52088687101365 -5.34035325423329E-07 -5.05950458288161E-06
1.2 -3.99248045007111E-06 -2.53790523262789E-06 -15.8962430663602 4.27508452175986 -15.8898583234742 4.26829629285094 -1.11983086722951E-06 -4.70439555736973E-06
1.25 -3.82619721940728E-06 -1.98605081631866E-06 -17.0084851246346 7.32163645157104 -17.0224833710316 7.3036514826136 -1.63591982254633E-06 -4.20632368283755E-06
1.3 -3.54595665988743E-06 -1.54098366610422E-06 -17.6461734760443 10.7193581611733 -17.6285068347613 10.744611000467 -1.99532805728782E-06 -3.64184033941632E-06
1.35 -3.22565143014554E-06 -1.23978446159E-06 -18.0382734914041 14.8065552454004 -18.0560860155599 14.7600989633838 -2.21447459091316E-06 -3.05499827957398E-06
1.4 -2.85693767016363E-06 -1.09772670924962E-06 -18.0998146684207 19.7852017725796 -18.1115093962252 19.8217756796138 -2.30953802657588E-06 -2.46042047154546E-06
1.45 -2.46695413820363E-06 -1.07360022587554E-06 -16.6854189451053 24.1792083300102 -16.6244054563254 24.1769367993732 -2.20458923811217E-06 -1.84687805964552E-06
1.5 -2.08129809974448E-06 -1.14811513847697E-06 -13.846819372706 28.1185722768887 -13.9225791818957 28.1023223246022 -1.87183892902141E-06 -1.29140325661662E-06
1.55 -1.88487797806648E-06 -1.33056283015873E-06 -10.192341139943 30.7752559942681 -10.1344268759617 30.7900699087275 -1.53654303551837E-06 -8.79103434642364E-07
1.6 -1.69151255768321E-06 -1.64895887159141E-06 -5.86952746962907 32.6542506104408 -5.95263249578506 32.6369405850669 -9.67208939578207E-07 -5.79657854945484E-07
1.65 -1.72823968389804E-06 -1.94433151622865E-06 -1.25516283789336 35.2172892955657 -1.17643792741933 35.2448797569701 -4.30585603335736E-07 -3.94678720987084E-07
1.7 -1.88561336911892E-06 -2.30993400637335E-06 3.89563314567037 37.6252685674937 3.849300276767 37.5899108884575 1.68758104397982E-07 -4.20318412872908E-07
1.75 -2.17853942429326E-06 -2.66108323391058E-06 9.55623379098768 38.0560197061832 9.60093904223575 38.1005949216951 7.56745677225843E-07 -6.26185481147559E-07
1.8 -2.49723245057404E-06 -2.91135660804375E-06 14.834054262254 36.6949799743851 14.8719281028575 36.6098912078852 1.22937584977093E-06 -9.52840529784496E-07
1.85 -2.95147784680827E-06 -3.02865148090697E-06 20.7631449317592 35.5440849196772 20.7034250569044 35.6098412259368 1.56165946838611E-06 -1.4826897830632E-06
1.9 -3.44325647098789E-06 -3.08705850103298E-06 27.3457707794946 34.7557606433938 27.4734930849335 34.6551966836231 1.7961502191632E-06 -2.09179156437729E-06
1.95 -4.01578668957902E-06 -3.04384013456686E-06 33.42029548415 32.0016292133453 33.3495083910099 31.9990065130208 1.85506635617166E-06 -2.7670502561392E-06
2 -4.50513286643136E-06 -2.80229245811354E-06 38.8072841500382 27.5768219933972 38.848856361634 27.5790603635276 1.71078828853836E-06 -3.42792639597177E-06
2.05 -5.0149851399381E-06 -2.37859407482655E-06 43.2343114027609 22.8513863169742 43.210649271705 22.7758020764047 1.4044413466571E-06 -4.06101323930371E-06
2.1 -5.39183062790367E-06 -1.77301368528278E-06 44.9831943146291 15.551682323958 44.9502705910818 15.532338235187 8.5835692168235E-07 -4.54068619538941E-06
2.15 -5.81862613889224E-06 -1.08423511186458E-06 43.9581707626212 9.07992737289317 43.9067795408664 9.09657167486239 1.58052507730817E-07 -5.03592964279685E-06
2.2 -6.02197590702587E-06 -3.58262721755977E-07 42.1374903670524 2.30903025115581 42.1271982510668 2.30229240390995 -6.59532636948316E-07 -5.36197657960196E-06
2.25 -6.17113301144935E-06 2.55505964313947E-07 39.4875809918254 -3.35630531484463 39.4072226944263 -3.35399029135218 -1.35211544484929E-06 -5.54801637373215E-06
2.3 -5.93850902257461E-06 9.08222091891627E-07 37.2882212662002 -8.40582608894257 37.2988609273768 -8.2387308827808 -2.12426190776938E-06 -5.38598992589105E-06
2.35 -5.58471521567573E-06 1.5253000376975E-06 35.4109790307837 -13.6436341070562 35.3882233429705 -13.7256511702138 -2.84180558504624E-06 -4.99521443433612E-06
2.4 -5.08008139021414E-06 2.15803332763885E-06 34.1855209305411 -18.7797399434069 34.1411716149752 -18.6415385952369 -3.46659099476705E-06 -4.47082404540819E-06
2.45 -4.5277461412937E-06 2.68644008308393E-06 31.6955892169342 -24.0783212944302 31.7644370655607 -24.0353774931852 -3.98727614416157E-06 -3.86259907650276E-06
2.5 -3.84024036008164E-06 2.99909441745337E-06 28.8213951721521 -28.7498878981058 28.8192020875259 -28.6600570809995 -4.30280133206264E-06 -3.20278359684198E-06
2.55 -3.10005512367119E-06 3.15160320801969E-06 24.1454871162628 -32.4376032893264 24.2845548396819 -32.3888449295851 -4.45983560602855E-06 -2.47494444483104E-06
2.6 -2.36579544208708E-06 3.11726610272528E-06 19.3140112731411 -35.0485132828651 19.2981693198308 -35.0037611188397 -4.37016032403847E-06 -1.77567240678004E-06
2.65 -1.68939123733965E-06 2.86819481012012E-06 13.2279978738726 -35.2577386400845 13.4499346203325 -35.1985027023626 -4.19836166048138E-06 -1.19373766799913E-06
2.7 -1.13987027340834E-06 2.43425752064156E-06 8.76455709609668 -38.6341622590743 8.68330485930812 -38.70659989916 -3.8132147389047E-06 -7.84648110811464E-07
2.75 -6.82301475302524E-07 1.96626596858106E-06 3.13682448105386 -39.3038577777167 3.18311295998621 -39.2323110399618 -3.33832182465981E-06 -5.31320035383572E-07
2.8 -3.73621081043348E-07 1.35241242969739E-06 -2.40107573114586 -39.0227944683724 -2.33917748635368 -39.0914561202716 -2.77263639971057E-06 -3.79292077428465E-07
2.85 -2.82460874812778E-07 6.6345000851609E-07 -7.65215729033074 -37.7576974250217 -7.70471524744405 -37.7359918469526 -2.30689344721424E-06 -4.52619050637509E-07
2.9 -3.42225539958665E-07 -9.71706138706552E-08 -12.7458056976164 -35.591196695107 -12.6743210992888 -35.6364952103994 -1.91541084887812E-06 -6.75131412541291E-07
2.95 -6.05170267610695E-07 -7.50254436974551E-07 -16.4106101794758 -31.4611110233443 -16.5020505049111 -31.4148654315203 -1.65202771502176E-06 -1.07517000292977E-06
3 -1.0904435094034E-06 -1.27498423715746E-06 -21.4693555110019 -29.548731980337 -21.3355037290705 -29.5947582552775 -1.54860627720541E-06 -1.50561418490927E-06
3.05 -1.80708209000034E-06 -1.71118426833582E-06 -24.2307061216839 -25.4263874870386 -24.3539945213196 -25.4240942805897 -1.68636482031617E-06 -2.07527354996877E-06
3.1 -2.36392868018474E-06 -2.0387019872458E-06 -27.6009657579277 -21.7021821001773 -27.5057329805946 -21.6039668118835 -1.94608514104599E-06 -2.54812999668384E-06
3.15 -3.06161679904589E-06 -2.12130620142402E-06 -32.4182988196195 -18.334960838747 -32.4024556879909 -18.5847829860531 -2.23954859737403E-06 -3.00434114976978E-06
3.2 -3.82836096615771E-06 -1.67967559016615E-06 -33.9729656112106 -14.2247889872526 -34.017581887021 -13.9855843020998 -2.90321073792448E-06 -2.92387239807075E-06
3.25 -4.72641486253588E-06 -1.3019391476563E-06 -35.4786721760505 -8.28249213715088 -35.4180546124939 -8.58314806739403 -3.6889053667721E-06 -3.05398004580908E-06
3.3 -5.77499765049303E-06 -6.13754543934299E-07 -36.7685487201746 -4.09638917542352 -36.8496945223406 -3.80787466511299 -4.81082927007392E-06 -3.09497809698227E-06
3.35 -6.04378308015766E-06 -3.18381899297054E-07 -35.8991634365732 1.4183847495675 -35.7872425362812 1.04100444387446 -5.20791215411704E-06 -3.07465584809097E-06
3.4 -6.30510146221296E-06 4.07123800335966E-07 -33.1135829795469 6.24074504184962 -33.2858183626006 6.41778740498378 -5.70266062677765E-06 -2.61807699947882E-06
3.45 -5.85287839137292E-06 1.31551559785508E-06 -34.2084242075616 10.872583034305 -33.9723047327116 10.7406928999547 -5.82254351046E-06 -1.47413379101084E-06
3.5 -5.75367130997245E-06 2.38072953730574E-06 -29.1620450294553 15.101542264589 -29.5515455245913 14.9093695821372 -6.23258059073447E-06 -5.30924055586108E-07
3.55 -5.18378567074295E-06 3.46349386706545E-06 -27.4206854817432 18.1090826598352 -27.141467345939 18.3667142114489 -6.48341965029258E-06 6.11081680301415E-07
3.6 -4.75393545845965E-06 4.20185476798045E-06 -24.6248006691742 23.1116476587132 -24.979665609505 22.8082103726811 -6.4464238235009E-06 1.25652875016849E-06
3.65 -4.09243706465964E-06 4.787636167651E-06 -20.5864284925133 24.6037371505523 -20.381848631543 24.8762848188296 -6.04280727279962E-06 2.11188753909861E-06
3.7 -3.44752739594626E-06 4.69787603284719E-06 -16.6891676278222 27.2523078157993 -16.8573444659631 27.0485089913738 -5.61719970120343E-06 2.39949615127843E-06
3.75 -2.42162859352957E-06 4.88203492293941E-06 -12.6279421109371 29.5898655584195 -12.5147945780033 29.7554995937208 -4.8528314128764E-06 2.77772756853511E-06
3.8 -1.63255399426788E-06 4.47607077772458E-06 -8.34504895451238 29.839185324129 -8.46586523945906 29.6925784531923 -3.88798420994736E-06 2.91209199909618E-06
3.85 -7.49207918938394E-07 3.94435476254355E-06 -3.33574811869094 28.8107195977951 -3.49251256051548 28.9315014772327 -2.83138283109155E-06 3.13811161063465E-06
3.9 -1.68333840329269E-07 3.20261389121449E-06 0.279980866995146 28.9108420513985 0.370516735702777 28.8570315187115 -2.06579831910088E-06 2.99830245785845E-06
3.95 3.3564944689363E-07 2.65428086667557E-06 4.43469909335355 26.9016463175423 4.36298282857067 27.0093313394031 -1.27430541464753E-06 2.51590006959736E-06
4 -7.67917964368605E-09 2.0552058595187E-06 7.52004250481454 24.3541552246313 7.64877622649414 24.3463026555701 -1.2335902061868E-06 1.68612440401057E-06
4.05 -2.5665147729947E-07 9.39249937450092E-07 11.4294109299132 24.3430261200674 11.4738186710028 24.311023353565 -9.97614531169229E-07 8.55882047948197E-07
4.1 -6.55289996261197E-07 1.82956808564207E-07 14.187220120653 21.5672045717684 14.1939156442661 21.5459313961747 -1.00310167979124E-06 -1.53442171517481E-07
4.15 -1.06832520928788E-06 -3.10349166262776E-07 16.9926834227782 19.2762209484359 17.0363650074047 19.2481524890601 -1.35483073488905E-06 -5.86361227231134E-07
4.2 -2.12533671007678E-06 -3.75049436741345E-07 20.0930672404731 17.4083963657624 19.9907014925917 17.4060864593985 -2.08766206077516E-06 -1.14689891481333E-06
4.25 -3.24587468408748E-06 -5.0549649573464E-07 21.4644059643208 13.5021873719902 21.4963992642321 13.5594548933359 -3.03316282217094E-06 -1.75840485918346E-06
4.3 -4.30572875413675E-06 -4.21082088196589E-07 22.7876953414865 10.39253718407 22.738941719856 10.3350552014991 -3.79323190126837E-06 -2.05268855937768E-06
4.35 -4.94427446181945E-06 -6.57609306503494E-08 25.3984189580389 7.64056705597422 25.3926685723121 7.87013306419779 -4.66720174067932E-06 -1.99592202698402E-06
4.4 -5.78703260790882E-06 9.08943340808437E-07 26.50664318526 3.75915481966741 26.5309918121568 3.52885389733542 -5.69823413832742E-06 -1.46218368640879E-06
4.45 -6.3147746829796E-06 1.99996667777241E-06 26.0242215466977 0.179511271824311 25.9888057385168 0.4531401599646 -6.58952809387743E-06 -7.7443748889113E-07
4.5 -6.55134432769336E-06 2.95003534897465E-06 26.362058785776 -3.48803549315512 26.4776680477124 -3.62406596676589 -7.11526198568964E-06 -9.71706138706547E-08
4.55 -6.40952699165859E-06 4.17941119874559E-06 25.7085773477254 -7.12615172697955 25.6258427785293 -7.14368887118376 -7.43709456607887E-06 9.23453171958383E-07
4.6 -5.99772214443117E-06 5.45097303908211E-06 23.6508986277824 -10.6752938752729 23.7591601542731 -10.6618361990387 -7.58545971090744E-06 2.11334417906786E-06
4.65 -5.20953849971377E-06 6.51663952687273E-06 22.3638263731438 -13.6041859117126 22.3174470435871 -13.7001563599369 -7.19554688962556E-06 3.31832484488785E-06
4.7 -4.97525988097105E-06 7.09723076276939E-06 19.3957123731491 -15.9564775635169 19.3904251485004 -16.0348473143397 -7.29056789888141E-06 3.90967824599417E-06
4.75 -3.14258052549175E-06 7.38831834031263E-06 16.4570001624259 -18.9536410858643 16.403422366483 -18.9834070021743 -6.10752168541382E-06 4.80425317700889E-06
4.8 -1.79366120329342E-06 7.56778204137778E-06 14.0786597235674 -20.3014035350278 14.1248486859722 -20.3296639127274 -5.13933693847757E-06 5.27271141954498E-06
4.85 -6.66462283403945E-07 8.07719590868019E-06 11.0553063751769 -22.9647224432482 10.8815773711941 -23.0860960991269 -4.65532234675538E-06 6.10842678209373E-06
4.9 5.33116086607786E-07 7.13576808234405E-06 6.96899101296186 -22.1268695861549 6.87722279172385 -22.1037238672065 -3.56011293764678E-06 5.93873529674458E-06
4.95 1.59724108161542E-06 6.27803341462914E-06 3.99945989355633 -23.1785068415187 4.0234427410563 -23.191256522642 -2.65326263291066E-06 5.62135748907682E-06
5 2.45218974861245E-06 5.18879198675375E-06 0.693263221603645 -24.0653835510583 0.571278391900651 -24.0903620407848 -1.87960296147883E-06 5.05742568894492E-06
5.05 2.78897056635598E-06 4.12220626014759E-06 -2.77359583061849 -24.7228009667106 -2.85130694222563 -24.6419858589196 -1.30462615342481E-06 4.390737131371E-06
5.1 2.65723657302092E-06 2.72485012343798E-06 -6.67540472532676 -24.5067988228494 -6.49715701415202 -24.5315647276932 -1.06085816167855E-06 3.36563028854923E-06
5.15 2.15755249502764E-06 1.12226331455679E-06 -9.63815004351465 -23.3539992504221 -9.69650162792374 -23.4269965613107 -1.10366640621159E-06 2.46570963026874E-06
5.2 1.55938258455069E-06 6.36396103067893E-10 -13.201319168582 -22.3776086072782 -13.3238202105355 -22.2462213336909 -1.60296864654303E-06 1.76236465715811E-06
5.25 4.55447477762255E-07 -8.87192736219138E-07 -16.6629219040824 -20.3460056553205 -16.4419324332486 -20.477385074874 -2.18152341490987E-06 7.89046314990444E-07
5.3 -9.88591848641288E-07 -1.2186278266969E-06 -19.6201619664998 -18.2292029673555 -19.7594205654785 -18.2623651838522 -2.70749772302766E-06 3.54614050765053E-07
5.35 -2.53381815543263E-06 -9.39971186366901E-07 -21.2900832463699 -15.1087799652155 -21.2288758194439 -15.0261582306114 -3.79400971872767E-06 6.85851151344079E-07
5.4 -3.92222232029241E-06 -8.98831713837468E-07 -23.8733616426093 -12.0994641897698 -23.8900854393917 -12.2227662751584 -5.05516294724512E-06 6.57213326706023E-07
5.45 -5.37693895909187E-06 -1.44348778311422E-07 -25.5409578032681 -8.58499307027695 -25.4859402251343 -8.50098583635929 -6.08831666523679E-06 1.39509339500981E-06
5.5 -6.67068981022203E-06 1.10396339105969E-06 -26.2123753431888 -4.84820608721643 -26.2883769233974 -5.0929085537748 -6.9722142838556E-06 2.19235629079765E-06
5.55 -7.18492614577213E-06 2.42729958991468E-06 -25.8931726612232 -1.7250150082942 -25.8580330257107 -1.35400474386076 -7.33552574802924E-06 3.0954730717291E-06
5.6 -7.80405470124346E-06 4.52520055688143E-06 -23.6708296688027 2.80363638296594 -23.6555279569876 2.31828394444188 -8.10159109263112E-06 4.87417189553261E-06
5.65 -7.36222610008685E-06 5.45163771945642E-06 -21.289505178632 5.16041088097052 -21.4147626808205 5.50224343618877 -7.83057120553794E-06 5.41198317116747E-06
5.7 -6.21964053663875E-06 6.85808724937208E-06 -21.0285005707476 7.78064541488463 -20.785262172708 7.72900987119812 -6.78152172710522E-06 6.54140240634989E-06
5.75 -5.1821451830106E-06 9.4246727330449E-06 -18.8460079423131 11.4773916464883 -19.099283338837 11.3371322986084 -5.87310164531485E-06 9.04784138721496E-06
5.8 -4.61319292473228E-06 9.8601797995777E-06 -15.2167454341734 11.7286090825093 -14.9705433063723 11.9184982651662 -5.38178971161082E-06 9.33446004990112E-06
