# GHZ S RI R 50
0.5 5.29904407607636E-06 -3.40111290682917E-06 0.107443546006807 -0.766264730191696 0.10777852613869 -0.765779568667399 5.42531920506065E-06 -1.16966775316754E-06
0.55 4.78593911137616E-06 -4.30807634865029E-06 0.0013543475976596 -0.778969221352669 0.00243293126015462 -0.779278997137785 5.44484949435703E-06 -1.69346417239929E-06
0.6 4.0722703792602E-06 -5.141500685228E-06 -0.107516189981011 -0.746296988510687 -0.108467423551298 -0.746166821221341 5.31392160275253E-06 -2.33019968672215E-06
0.65 3.26342507439653E-06 -5.88855899955159E-06 -0.21952539267407 -0.762129303689427 -0.218750104396246 -0.761988302475646 5.07443867810027E-06 -2.93545480714659E-06
0.7 2.3856510005028E-06 -6.45324033287154E-06 -0.320827748375853 -0.705905769747181 -0.320982720157182 -0.706098341842459 4.80083078018794E-06 -3.51027605170875E-06
0.75 1.3757186692053E-06 -6.72375110308227E-06 -0.427314927345713 -0.679256213709432 -0.426907711695967 -0.67917794254963 4.41609398054435E-06 -4.01107735841632E-06
0.8 2.25284220486033E-07 -6.8057754896999E-06 -0.522577053486912 -0.609251163235499 -0.522993433590446 -0.608961510930838 3.86513051877941E-06 -4.55900026102215E-06
0.85 -8.17867987391608E-07 -6.7526717704328E-06 -0.602382826282756 -0.533292824699832 -0.601483015137577 -0.533600585584271 3.32887487806316E-06 -5.02870301149313E-06
0.9 -1.71490365000486E-06 -6.57091704339661E-06 -0.672998872870113 -0.443504361003116 -0.673467482787378 -0.444080488150351 2.77758614717888E-06 -5.41236500882932E-06
0.95 -2.47811228321075E-06 -6.09726863708661E-06 -0.724996213121475 -0.341186099771654 -0.724779158549177 -0.34031987340838 2.17535744377792E-06 -5.61572891909857E-06
1 -3.10991219220093E-06 -5.51076598849924E-06 -0.758087450223467 -0.236396192738257 -0.757960999680787 -0.237632202011434 1.51745115242633E-06 -5.71900893555868E-06
1.05 -3.56241810575345E-06 -4.79189295047375E-06 -0.776429557788243 -0.12308125049976 -0.77683285105045 -0.121799765502797 7.59757952113699E-07 -5.63166710594652E-06
1.1 -3.84895191562587E-06 -3.98857722063896E-06 -0.769292897501213 -0.0158302958351395 -0.768731009819254 -0.0162436350485567 8.44851182161687E-08 -5.40731626641165E-06
1.15 -3.97616042556132E-06 -3.2069131004441E-06 -0.773878738531879 0.0981542590410257 -0.773905433998521 0.0984117400740255 -5.34035325423329E-07 -5.05950458288161E-06
1.2 -3.99248045007111E-06 -2.53790523262789E-06 -0.725762450413911 0.195184220905944 -0.725470947156011 0.194874295999389 -1.11983086722951E-06 -4.70439555736973E-06
1.25 -3.82619721940728E-06 -1.98605081631866E-06 -0.706180359266846 0.303989204323847 -0.706761556627884 0.303242481041515 -1.63591982254633E-06 -4.20632368283755E-06
1.3 -3.54595665988743E-06 -1.54098366610422E-06 -0.649831178027349 0.394746949021484 -0.64918059310976 0.395676900340905 -1.99532805728782E-06 -3.64184033941632E-06
1.35 -3.22565143014554E-06 -1.23978446159E-06 -0.588633489819382 0.483174528341464 -0.589214756549889 0.481658544928723 -2.21447459091316E-06 -3.05499827957398E-06
1.4 -2.85693767016363E-06 -1.09772670924962E-06 -0.506727096251293 0.553911629849853 -0.507054504877867 0.554935562417647 -2.30953802657588E-06 -2.46042047154546E-06
1.45 -2.46695413820363E-06 -1.07360022587554E-06 -0.423776739857568 0.61410421351359 -0.422227117552754 0.614046521114558 -2.20458923811217E-06 -1.84687805964552E-06
1.5 -2.08129809974448E-06 -1.14811513847697E-06 -0.329192571931482 0.668487461107201 -0.33099367626923 0.668101136750469 -1.87183892902141E-06 -1.29140325661662E-06
1.55 -1.88487797806648E-06 -1.33056283015873E-06 -0.230926594579808 0.697271114310242 -0.229614438366121 0.697606751311744 -1.53654303551837E-06 -8.79103434642364E-07
1.6 -1.69151255768321E-06 -1.64895887159141E-06 -0.13243511087792 0.736783211699052 -0.134310223211993 0.736392642757761 -9.67208939578207E-07 -5.79657854945484E-07
1.65 -1.72823968389804E-06 -1.94433151622865E-06 -0.0265185682400732 0.744056516987324 -0.024855300457143 0.744639436996935 -4.30585603335736E-07 -3.94678720987084E-07
1.7 -1.88561336911892E-06 -2.30993400637335E-06 0.0771397189689367 0.745040031978621 0.0762222546306422 0.74433989381821 1.68758104397982E-07 -4.20318412872908E-07
1.75 -2.17853942429326E-06 -2.66108323391058E-06 0.182657187453928 0.727400111514459 0.183511680514269 0.728252119080791 7.56745677225843E-07 -6.26185481147559E-07
1.8 -2.49723245057404E-06 -2.91135660804375E-06 0.277242536334589 0.685814487326789 0.277950383255195 0.684224212340533 1.22937584977093E-06 -9.52840529784496E-07
1.85 -2.95147784680827E-06 -3.02865148090697E-06 0.369694624192379 0.632874121903493 0.36863129217963 0.634044934562694 1.56165946838611E-06 -1.4826897830632E-06
1.9 -3.44325647098789E-06 -3.08705850103298E-06 0.44462120268601 0.565101939241021 0.446697869147965 0.563466846593582 1.7961502191632E-06 -2.09179156437729E-06
1.95 -4.01578668957902E-06 -3.04384013456686E-06 0.519709057008232 0.497647800543309 0.518608268014859 0.497607015712035 1.85506635617166E-06 -2.7670502561392E-06
2 -4.50513286643136E-06 -2.80229245811354E-06 0.572286169737468 0.406671947748698 0.572899229946724 0.406704956713289 1.71078828853836E-06 -3.42792639597177E-06
2.05 -5.0149851399381E-06 -2.37859407482655E-06 0.627449165911107 0.331636675114996 0.627105763092537 0.330539739205469 1.4044413466571E-06 -4.06101323930371E-06
2.1 -5.39183062790367E-06 -1.77301368528278E-06 0.666116654221824 0.230291217753441 0.665629115688646 0.23000476811625 8.5835692168235E-07 -4.54068619538941E-06
2.15 -5.81862613889224E-06 -1.08423511186458E-06 0.693489055904797 0.143245957515279 0.692678302198757 0.143508539898908 1.58052507730817E-07 -5.03592964279685E-06
2.2 -6.02197590702587E-06 -3.58262721755977E-07 0.712391397101356 0.0390372865645641 0.712217394928416 0.0389233741229088 -6.59532636948316E-07 -5.36197657960196E-06
2.25 -6.17113301144935E-06 2.55505964313947E-07 0.694161510836362 -0.0590012836862044 0.692748873350608 -0.0589605873415619 -1.35211544484929E-06 -5.54801637373215E-06
2.3 -5.93850902257461E-06 9.08222091891627E-07 0.701651837700949 -0.158172289329535 0.701852044027868 -0.155028061621878 -2.12426190776938E-06 -5.38598992589105E-06
2.35 -5.58471521567573E-06 1.5253000376975E-06 0.649887126443244 -0.250397543551949 0.649469498098365 -0.25190277822644 -2.84180558504624E-06 -4.99521443433612E-06
2.4 -5.08008139021414E-06 2.15803332763885E-06 0.61240989926697 -0.33642601703714 0.611615412035564 -0.333950235729512 -3.46659099476705E-06 -4.47082404540819E-06
2.45 -4.5277461412937E-06 2.68644008308393E-06 0.552457443847002 -0.419687665163854 0.553657469068374 -0.4189391502048 -3.98727614416157E-06 -3.86259907650276E-06
2.5 -3.84024036008164E-06 2.99909441745337E-06 0.483019873784174 -0.481821478138226 0.48298311971821 -0.480315996891343 -4.30280133206264E-06 -3.20278359684198E-06
2.55 -3.10005512367119E-06 3.15160320801969E-06 0.40910611531298 -0.549602574090202 0.411462392319092 -0.548776442770228 -4.45983560602855E-06 -2.47494444483104E-06
2.6 -2.36579544208708E-06 3.11726610272528E-06 0.321234721168309 -0.582934287060397 0.320971234449656 -0.582189959601484 -4.37016032403847E-06 -1.77567240678004E-06
2.65 -1.68939123733965E-06 2.86819481012012E-06 0.23768080868307 -0.633511428729787 0.241668570540764 -0.632447076760949 -4.19836166048138E-06 -1.19373766799913E-06
2.7 -1.13987027340834E-06 2.43425752064156E-06 0.148569607001825 -0.654894735779825 0.147192285506245 -0.656122639437896 -3.8132147389047E-06 -7.84648110811464E-07
2.75 -6.82301475302524E-07 1.96626596858106E-06 0.0516999613848949 -0.647791402311 0.0524628706862671 -0.646612195886961 -3.33832182465981E-06 -5.31320035383572E-07
2.8 -3.73621081043348E-07 1.35241242969739E-06 -0.0408560012505975 -0.664000439020215 -0.0398027588501872 -0.665168765574631 -2.77263639971057E-06 -3.79292077428465E-07
2.85 -2.82460874812778E-07 6.6345000851609E-07 -0.130191877010682 -0.64239995505274 -0.131086084856759 -0.642030661813826 -2.30689344721424E-06 -4.52619050637509E-07
2.9 -3.42225539958665E-07 -9.71706138706552E-08 -0.218105839612494 -0.609035475839039 -0.216882597339114 -0.609810622655604 -1.91541084887812E-06 -6.75131412541291E-07
2.95 -6.05170267610695E-07 -7.50254436974551E-07 -0.303825855395152 -0.582470661590889 -0.30551878056912 -0.581614471215241 -1.65202771502176E-06 -1.07517000292977E-06
3 -1.0904435094034E-06 -1.27498423715746E-06 -0.382489050854112 -0.526427840058354 -0.380104403536691 -0.5272478249064 -1.54860627720541E-06 -1.50561418490927E-06
3.05 -1.80708209000034E-06 -1.71118426833582E-06 -0.455424164601456 -0.477897392753022 -0.45774141099647 -0.477854291176619 -1.68636482031617E-06 -2.07527354996877E-06
3.1 -2.36392868018474E-06 -2.0387019872458E-06 -0.502370672687297 -0.395005736975591 -0.500637321947679 -0.393218100960205 -1.94608514104599E-06 -2.54812999668384E-06
3.15 -3.06161679904589E-06 -2.12130620142402E-06 -0.566161353831343 -0.320206384322283 -0.565884665381352 -0.324569341364627 -2.23954859737403E-06 -3.00434114976978E-06
3.2 -3.82836096615771E-06 -1.67967559016615E-06 -0.591811581015247 -0.247796879333262 -0.592588799849437 -0.243629915974025 -2.90321073792448E-06 -2.92387239807075E-06
3.25 -4.72641486253588E-06 -1.3019391476563E-06 -0.607599429716474 -0.141844020379127 -0.606561307521116 -0.146992983419517 -3.6889053667721E-06 -3.05398004580908E-06
3.3 -5.77499765049303E-06 -6.13754543934299E-07 -0.650543719292119 -0.0724771671062935 -0.651979427085421 -0.06737249724196 -4.81082927007392E-06 -3.09497809698227E-06
3.35 -6.04378308015766E-06 -3.18381899297054E-07 -0.619561365495873 0.0244790214622463 -0.617629792189576 0.0179660491496873 -5.20791215411704E-06 -3.07465584809097E-06
3.4 -6.30510146221296E-06 4.07123800335966E-07 -0.631620438951025 0.119038224439475 -0.634905718840986 0.122415194403275 -5.70266062677765E-06 -2.61807699947882E-06
3.45 -5.85287839137292E-06 1.31551559785508E-06 -0.60018214193715 0.190757987983448 -0.596039457921405 0.188443993545866 -5.82254351046E-06 -1.47413379101084E-06
3.5 -5.75367130997245E-06 2.38072953730574E-06 -0.559909680469925 0.289948791157431 -0.567388068818691 0.286259086093263 -6.23258059073447E-06 -5.30924055586108E-07
3.55 -5.18378567074295E-06 3.46349386706545E-06 -0.520329330514693 0.343634256076528 -0.515030944164459 0.348523019811478 -6.48341965029258E-06 6.11081680301415E-07
3.6 -4.75393545845965E-06 4.20185476798045E-06 -0.455069494563997 0.427106231635721 -0.461627444461921 0.421498671426742 -6.4464238235009E-06 1.25652875016849E-06
3.65 -4.09243706465964E-06 4.787636167651E-06 -0.407221789528534 0.486688493595732 -0.403174978926291 0.492079780833734 -6.04280727279962E-06 2.11188753909861E-06
3.7 -3.44752739594626E-06 4.69787603284719E-06 -0.317566495769123 0.518565100889589 -0.320766615172855 0.514687155628449 -5.61719970120343E-06 2.39949615127843E-06
3.75 -2.42162859352957E-06 4.88203492293941E-06 -0.249765576522208 0.585252115149651 -0.247527653783333 0.588528158067435 -4.8528314128764E-06 2.77772756853511E-06
3.8 -1.63255399426788E-06 4.47607077772458E-06 -0.16889970410102 0.603930498111183 -0.171344966542176 0.600963246839759 -3.88798420994736E-06 2.91209199909618E-06
3.85 -7.49207918938394E-07 3.94435476254355E-06 -0.0713991842267766 0.616671823853484 -0.0747546094159034 0.619257069307992 -2.83138283109155E-06 3.13811161063465E-06
3.9 -1.68333840329269E-07 3.20261389121449E-06 0.00593578762511481 0.61292980596176 0.00785521053022742 0.611788985528376 -2.06579831910088E-06 2.99830245785845E-06
3.95 3.3564944689363E-07 2.65428086667557E-06 0.0966082370717328 0.586042157620149 0.0950459254550488 0.588388034961996 -1.27430541464753E-06 2.51590006959736E-06
4 -7.67917964368605E-09 2.0552058595187E-06 0.177611178243177 0.575205552600886 0.180651659460205 0.575020087685985 -1.2335902061868E-06 1.68612440401057E-06
4.05 -2.5665147729947E-07 9.39249937450092E-07 0.243991022762605 0.519666313215422 0.244939023515527 0.518983129473229 -9.97614531169229E-07 8.55882047948197E-07
4.1 -6.55289996261197E-07 1.82956808564207E-07 0.328584677058694 0.499509621265193 0.328739749472135 0.499016921534518 -1.00310167979124E-06 -1.53442171517481E-07
4.15 -1.06832520928788E-06 -3.10349166262776E-07 0.378365880420807 0.429212039610194 0.379338512041969 0.428587056075837 -1.35483073488905E-06 -5.86361227231134E-07
4.2 -2.12533671007678E-06 -3.75049436741345E-07 0.440601770112379 0.381732174673807 0.438357088940726 0.381681522933057 -2.08766206077516E-06 -1.14689891481333E-06
4.25 -3.24587468408748E-06 -5.0549649573464E-07 0.498446870604771 0.313548068978704 0.499189819664141 0.314877936520788 -3.03316282217094E-06 -1.75840485918346E-06
4.3 -4.30572875413675E-06 -4.21082088196589E-07 0.527716173342127 0.240669794461779 0.526587139701038 0.239338629926539 -3.79323190126837E-06 -2.05268855937768E-06
4.35 -4.94427446181945E-06 -6.57609306503494E-08 0.558800367158374 0.16810304937604 0.558673850714151 0.17315381926429 -4.66720174067932E-06 -1.99592202698402E-06
4.4 -5.78703260790882E-06 9.08943340808437E-07 0.583182833881521 0.0827066085060559 0.583718537370473 0.0776396694903383 -5.69823413832742E-06 -1.46218368640879E-06
4.45 -6.3147746829796E-06 1.99996667777241E-06 0.596249115062709 0.0041128391401436 0.595437692356012 0.0103820365536564 -6.58952809387743E-06 -7.7443748889113E-07
4.5 -6.55134432769336E-06 2.95003534897465E-06 0.586852993382469 -0.0776481111288185 0.589426602749684 -0.0806763226686846 -7.11526198568964E-06 -9.71706138706547E-08
4.55 -6.40952699165859E-06 4.17941119874559E-06 0.572635205006308 -0.158728555839207 0.570792367639157 -0.159119179794425 -7.43709456607887E-06 9.23453171958383E-07
4.6 -5.99772214443117E-06 5.45097303908211E-06 0.53938348705977 -0.243461245445809 0.541852504435895 -0.243154329059707 -7.58545971090744E-06 2.11334417906786E-06
4.65 -5.20953849971377E-06 6.51663952687273E-06 0.501817857453136 -0.30526186855072 0.500777160060843 -0.3074153320906 -7.19554688962556E-06 3.31832484488785E-06
4.7 -4.97525988097105E-06 7.09723076276939E-06 0.463292996549015 -0.381142190735046 0.463166703989929 -0.38301415893085 -7.29056789888141E-06 3.90967824599417E-06
4.75 -3.14258052549175E-06 7.38831834031263E-06 0.376574296490582 -0.433703225824857 0.375348312373453 -0.434384338961103 -6.10752168541382E-06 4.80425317700889E-06
4.8 -1.79366120329342E-06 7.56778204137778E-06 0.324422758213877 -0.467817069221543 0.325487117384184 -0.468468289569323 -5.13933693847757E-06 5.27271141954498E-06
4.85 -6.66462283403945E-07 8.07719590868019E-06 0.248010908174243 -0.515182616911266 0.244113531964868 -0.51790547140316 -4.65532234675538E-06 6.10842678209373E-06
4.9 5.33116086607786E-07 7.13576808234405E-06 0.16839139875999 -0.534650498596201 0.166174007589985 -0.534091229688871 -3.56011293764678E-06 5.93873529674458E-06
4.95 1.59724108161542E-06 6.27803341462914E-06 0.0939401709262493 -0.544421735048671 0.0945034851870262 -0.544721202290711 -2.65326263291066E-06 5.62135748907682E-06
5 2.45218974861245E-06 5.18879198675375E-06 0.0156134242651387 -0.541991889627149 0.0128661259220103 -0.542554446164765 -1.87960296147883E-06 5.05742568894492E-06
5.05 2.78897056635598E-06 4.12220626014759E-06 -0.0603591584153094 -0.538019073848656 -0.0620503122757042 -0.53626037063759 -1.30462615342481E-06 4.390737131371E-06
5.1 2.65723657302092E-06 2.72485012343798E-06 -0.143030152542946 -0.525093431514726 -0.139210938822012 -0.525624076665607 -1.06085816167855E-06 3.36563028854923E-06
5.15 2.15755249502764E-06 1.12226331455679E-06 -0.20407682218582 -0.494494268177859 -0.20531235035896 -0.496039902886489 -1.10366640621159E-06 2.46570963026874E-06
5.2 1.55938258455069E-06 6.36396103067893E-10 -0.280845410489717 -0.476062171880986 -0.283451502727431 -0.473267033583629 -1.60296864654303E-06 1.76236465715811E-06
5.25 4.55447477762255E-07 -8.87192736219138E-07 -0.334080524536975 -0.407923909185245 -0.329649832323551 -0.410557979347155 -2.18152341490987E-06 7.89046314990444E-07
5.3 -9.88591848641288E-07 -1.2186278266969E-06 -0.396052344218181 -0.367974463247418 -0.398863416556535 -0.368643875335117 -2.70749772302766E-06 3.54614050765053E-07
5.35 -2.53381815543263E-06 -9.39971186366901E-07 -0.422063075824723 -0.299522461715368 -0.420849675455511 -0.2978845355958 -3.79400971872767E-06 6.85851151344079E-07
5.4 -3.92222232029241E-06 -8.98831713837468E-07 -0.476665343226099 -0.241582871202138 -0.476999257421036 -0.244044771278553 -5.05516294724512E-06 6.57213326706023E-07
5.45 -5.37693895909187E-06 -1.44348778311422E-07 -0.485777258474157 -0.16328261570383 -0.4847308494679 -0.161684836791275 -6.08831666523679E-06 1.39509339500981E-06
5.5 -6.67068981022203E-06 1.10396339105969E-06 -0.501656424135679 -0.0927857051237369 -0.503110953931508 -0.097468858128516 -6.9722142838556E-06 2.19235629079765E-06
5.55 -7.18492614577213E-06 2.42729958991468E-06 -0.508786134442595 -0.0338955650359458 -0.508095660565484 -0.0266054240883939 -7.33552574802924E-06 3.0954730717291E-06
5.6 -7.80405470124346E-06 4.52520055688143E-06 -0.504909428149987 0.0598028232499817 -0.50458303576449 0.0494500377492113 -8.10159109263112E-06 4.87417189553261E-06
5.65 -7.36222610008685E-06 5.45163771945642E-06 -0.488276212861409 0.118354365713398 -0.491149001979235 0.126194318032357 -7.83057120553794E-06 5.41198317116747E-06
5.7 -6.21964053663875E-06 6.85808724937208E-06 -0.48317928474602 0.178778637772018 -0.477590310164017 0.177592189647389 -6.78152172710522E-06 6.54140240634989E-06
5.75 -5.1821451830106E-06 9.4246727330449E-06 -0.43518044286382 0.265028880117687 -0.441028922794591 0.261790097383806 -5.87310164531485E-06 9.04784138721496E-06
5.8 -4.61319292473228E-06 9.8601797995777E-06 -0.385453306262523 0.297095799379091 -0.379216793692847 0.301905856404439 -5.38178971161082E-06 9.33446004990112E-06
