# GHZ S RI R 50
0.5 5.29904407607636E-06 -3.40111290682917E-06 0.122132242992203 -0.871021421967943 0.122513018537921 -0.870469933606118 5.42531920506065E-06 -1.16966775316754E-06
0.55 4.78593911137616E-06 -4.30807634865029E-06 0.00150082529847807 -0.863217623128748 0.00269606177247853 -0.863560902310519 5.44484949435703E-06 -1.69346417239929E-06
0.6 4.0722703792602E-06 -5.141500685228E-06 -0.126597131699385 -0.878742616884285 -0.127717181076095 -0.878589348753457 5.31392160275253E-06 -2.33019968672215E-06
0.65 3.26342507439653E-06 -5.88855899955159E-06 -0.242345389926763 -0.841353799792304 -0.241489509257532 -0.841198141288668 5.07443867810027E-06 -2.93545480714659E-06
0.7 2.3856510005028E-06 -6.45324033287154E-06 -0.364268756620913 -0.801487459669769 -0.364444712031197 -0.801706106585635 4.80083078018794E-06 -3.51027605170875E-06
0.75 1.3757186692053E-06 -6.72375110308227E-06 -0.472767990462926 -0.751508020465331 -0.472317459690197 -0.751421423680238 4.41609398054435E-06 -4.01107735841632E-06
0.8 2.25284220486033E-07 -6.8057754896999E-06 -0.576833315934149 -0.672506315347948 -0.577292926462794 -0.672186590059111 3.86513051877941E-06 -4.55900026102215E-06
0.85 -8.17867987391608E-07 -6.7526717704328E-06 -0.656406059916235 -0.581119890158524 -0.655425551404529 -0.581455251826779 3.32887487806316E-06 -5.02870301149313E-06
0.9 -1.71490365000486E-06 -6.57091704339661E-06 -0.734030890489721 -0.483724288652741 -0.734541997073593 -0.484352662844687 2.77758614717888E-06 -5.41236500882932E-06
0.95 -2.47811228321075E-06 -6.09726863708661E-06 -0.794485065947734 -0.373887830131487 -0.794247207303695 -0.372938578401758 2.17535744377792E-06 -5.61572891909857E-06
1 -3.10991219220093E-06 -5.51076598849924E-06 -0.83170499004374 -0.259352523339877 -0.831566259944317 -0.260708560931502 1.51745115242633E-06 -5.71900893555868E-06
1.05 -3.56241810575345E-06 -4.79189295047375E-06 -0.86576905752792 -0.137243536359028 -0.866218755538546 -0.135814597897157 7.59757952113699E-07 -5.63166710594652E-06
1.1 -3.84895191562587E-06 -3.98857722063896E-06 -0.879511905858677 -0.0180983520132503 -0.87886951476467 -0.0185709116333111 8.44851182161687E-08 -5.40731626641165E-06
1.15 -3.97616042556132E-06 -3.2069131004441E-06 -0.869706898810891 0.110308543167367 -0.869736899934258 0.110597907662815 -5.34035325423329E-07 -5.05950458288161E-06
1.2 -3.99248045007111E-06 -2.53790523262789E-06 -0.841384476152749 0.226279236913635 -0.841046533185591 0.225919937524421 -1.11983086722951E-06 -4.70439555736973E-06
1.25 -3.82619721940728E-06 -1.98605081631866E-06 -0.799494783670687 0.34415823091064 -0.800152780246682 0.343312835876304 -1.63591982254633E-06 -4.20632368283755E-06
1.3 -3.54595665988743E-06 -1.54098366610422E-06 -0.74114049695657 0.450213778381621 -0.74039849681032 0.451274399364925 -1.99532805728782E-06 -3.64184033941632E-06
1.35 -3.22565143014554E-06 -1.23978446159E-06 -0.669876846683084 0.549862410210947 -0.670538340008298 0.548137190348818 -2.21447459091316E-06 -3.05499827957398E-06
1.4 -2.85693767016363E-06 -1.09772670924962E-06 -0.584620618372563 0.639058305668313 -0.584998355886787 0.640239636004472 -2.30953802657588E-06 -2.46042047154546E-06
1.45 -2.46695413820363E-06 -1.07360022587554E-06 -0.48790707483642 0.707036895325687 -0.486122947453456 0.706970472308553 -2.20458923811217E-06 -1.84687805964552E-06
1.5 -2.08129809974448E-06 -1.14811513847697E-06 -0.380058129865713 0.771779547808152 -0.3821375338519 0.771333530111946 -1.87183892902141E-06 -1.29140325661662E-06
1.55 -1.88487797806648E-06 -1.33056283015873E-06 -0.270566454796447 0.816961657336053 -0.269029059523623 0.817354908333237 -1.53654303551837E-06 -8.79103434642364E-07
1.6 -1.69151255768321E-06 -1.64895887159141E-06 -0.150748548604097 0.838667322156595 -0.15288295586934 0.83822274442612 -9.67208939578207E-07 -5.79657854945484E-07
1.65 -1.72823968389804E-06 -1.94433151622865E-06 -0.0302447551126847 0.848605661608547 -0.0283477776316183 0.849270489090233 -4.30585603335736E-07 -3.94678720987084E-07
1.7 -1.88561336911892E-06 -2.30993400637335E-06 0.087463741660929 0.844752738991299 0.0864234881450973 0.84395889758239 1.68758104397982E-07 -4.20318412872908E-07
1.75 -2.17853942429326E-06 -2.66108323391058E-06 0.206983995527197 0.824277344499061 0.207952292423941 0.825242824876576 7.56745677225843E-07 -6.26185481147559E-07
1.8 -2.49723245057404E-06 -2.91135660804375E-06 0.315834714633113 0.781279906611097 0.316641093889087 0.779468265247861 1.22937584977093E-06 -9.52840529784496E-07
1.85 -2.95147784680827E-06 -3.02865148090697E-06 0.426032897116302 0.729318680934282 0.42480752247371 0.730667915347061 1.56165946838611E-06 -1.4826897830632E-06
1.9 -3.44325647098789E-06 -3.08705850103298E-06 0.51938591629309 0.660125938076266 0.521811781966301 0.658215898501491 1.7961502191632E-06 -2.09179156437729E-06
1.95 -4.01578668957902E-06 -3.04384013456686E-06 0.607869405201761 0.582065808623063 0.606581884921652 0.582018105295993 1.85506635617166E-06 -2.7670502561392E-06
2 -4.50513286643136E-06 -2.80229245811354E-06 0.678052389168977 0.481830420444203 0.678778751191288 0.481869529911613 1.71078828853836E-06 -3.42792639597177E-06
2.05 -5.0149851399381E-06 -2.37859407482655E-06 0.737782834068087 0.389953257316024 0.737379045652264 0.388663430939497 1.4044413466571E-06 -4.06101323930371E-06
2.1 -5.39183062790367E-06 -1.77301368528278E-06 0.787227563857747 0.27216193016772 0.786651382840011 0.271823399298353 8.5835692168235E-07 -4.54068619538941E-06
2.15 -5.81862613889224E-06 -1.08423511186458E-06 0.804154713305053 0.166104873490059 0.803214581072986 0.166409358268338 1.58052507730817E-07 -5.03592964279685E-06
2.2 -6.02197590702587E-06 -3.58262721755977E-07 0.827882430970414 0.0453659095703003 0.827680220019363 0.0452335299409292 -6.59532636948316E-07 -5.36197657960196E-06
2.25 -6.17113301144935E-06 2.55505964313947E-07 0.815099317855032 -0.0692805713575977 0.81344056865468 -0.0692327848378333 -1.35211544484929E-06 -5.54801637373215E-06
2.3 -5.93850902257461E-06 9.08222091891627E-07 0.808205249577202 -0.182192460284354 0.808435859397799 -0.17857074763051 -2.12426190776938E-06 -5.38598992589105E-06
2.35 -5.58471521567573E-06 1.5253000376975E-06 0.764342369179754 -0.294496450057011 0.763851189980208 -0.296266779996563 -2.84180558504624E-06 -4.99521443433612E-06
2.4 -5.08008139021414E-06 2.15803332763885E-06 0.720762531912702 -0.395949294959532 0.719827477418701 -0.393035477913328 -3.46659099476705E-06 -4.47082404540819E-06
2.45 -4.5277461412937E-06 2.68644008308393E-06 0.651251639550569 -0.494739066476954 0.652666261439774 -0.493856696984532 -3.98727614416157E-06 -3.86259907650276E-06
2.5 -3.84024036008164E-06 2.99909441745337E-06 0.573079667319591 -0.571657828974273 0.573036060401867 -0.56987164844849 -4.30280133206264E-06 -3.20278359684198E-06
2.55 -3.10005512367119E-06 3.15160320801969E-06 0.483655322436189 -0.649753695272916 0.486440971128505 -0.648777022485634 -4.45983560602855E-06 -2.47494444483104E-06
2.6 -2.36579544208708E-06 3.11726610272528E-06 0.388886153877965 -0.705699159897897 0.388567177348148 -0.704798078465387 -4.37016032403847E-06 -1.77567240678004E-06
2.65 -1.68939123733965E-06 2.86819481012012E-06 0.280539563187018 -0.747746612250978 0.285246400797719 -0.746490335658561 -4.19836166048138E-06 -1.19373766799913E-06
2.7 -1.13987027340834E-06 2.43425752064156E-06 0.176982356976692 -0.780138120096915 0.175341633752598 -0.781600850516219 -3.8132147389047E-06 -7.84648110811464E-07
2.75 -6.82301475302524E-07 1.96626596858106E-06 0.0641785969864498 -0.804146506622954 0.0651256469895526 -0.802682679342914 -3.33832182465981E-06 -5.31320035383572E-07
2.8 -3.73621081043348E-07 1.35241242969739E-06 -0.0491763009745908 -0.79922372324778 -0.0479085664020348 -0.80062997879208 -2.77263639971057E-06 -3.79292077428465E-07
2.85 -2.82460874812778E-07 6.6345000851609E-07 -0.159251630801939 -0.785788198297867 -0.160345432205171 -0.785336476179011 -2.30689344721424E-06 -4.52619050637509E-07
2.9 -3.42225539958665E-07 -9.71706138706552E-08 -0.267557601210497 -0.747123833351284 -0.266057009713514 -0.748074731425332 -1.91541084887812E-06 -6.75131412541291E-07
2.95 -6.05170267610695E-07 -7.50254436974551E-07 -0.368574028341669 -0.706600686943435 -0.370627731935258 -0.705562034273901 -1.65202771502176E-06 -1.07517000292977E-06
3 -1.0904435094034E-06 -1.27498423715746E-06 -0.469319941145385 -0.645935046668076 -0.466393942254266 -0.646941180673129 -1.54860627720541E-06 -1.50561418490927E-06
3.05 -1.80708209000034E-06 -1.71118426833582E-06 -0.541148015775392 -0.567851348113785 -0.543901434206366 -0.567800133588162 -1.68636482031617E-06 -2.07527354996877E-06
3.1 -2.36392868018474E-06 -2.0387019872458E-06 -0.621618997051705 -0.488768718792779 -0.619474198784449 -0.486556749489249 -1.94608514104599E-06 -2.54812999668384E-06
3.15 -3.06161679904589E-06 -2.12130620142402E-06 -0.686578534151507 -0.388311262303924 -0.686242996677735 -0.3936021791608 -2.23954859737403E-06 -3.00434114976978E-06
3.2 -3.82836096615771E-06 -1.67967559016615E-06 -0.726161901238766 -0.304050577565563 -0.727115560687852 -0.298937649511426 -2.90321073792448E-06 -2.92387239807075E-06
3.25 -4.72641486253588E-06 -1.3019391476563E-06 -0.759569220085853 -0.177321351311159 -0.758271447856788 -0.183758147742429 -3.6889053667721E-06 -3.05398004580908E-06
3.3 -5.77499765049303E-06 -6.13754543934299E-07 -0.783748077087892 -0.0873174833109538 -0.785477758259029 -0.081167588889264 -4.81082927007392E-06 -3.09497809698227E-06
3.35 -6.04378308015766E-06 -3.18381899297054E-07 -0.77935320955363 0.0307924364006537 -0.776923461768202 0.0225996952805482 -5.20791215411704E-06 -3.07465584809097E-06
3.4 -6.30510146221296E-06 4.07123800335966E-07 -0.761738971387856 0.143560988607263 -0.765701043495998 0.147633639629932 -5.70266062677765E-06 -2.61807699947882E-06
3.45 -5.85287839137292E-06 1.31551559785508E-06 -0.747968087978184 0.237729311768636 -0.742805329498976 0.234845530539352 -5.82254351046E-06 -1.47413379101084E-06
3.5 -5.75367130997245E-06 2.38072953730574E-06 -0.681189548923236 0.35275347640641 -0.690287802023082 0.348264558611291 -6.23258059073447E-06 -5.30924055586108E-07
3.55 -5.18378567074295E-06 3.46349386706545E-06 -0.641325203142668 0.423541968827829 -0.634794745405391 0.429567551495506 -6.48341965029258E-06 6.11081680301415E-07
3.6 -4.75393545845965E-06 4.20185476798045E-06 -0.563803443033753 0.529158659971498 -0.571928344341926 0.522211233719887 -6.4464238235009E-06 1.25652875016849E-06
3.65 -4.09243706465964E-06 4.787636167651E-06 -0.492641516076849 0.588777328491552 -0.487745837698065 0.595299503843735 -6.04280727279962E-06 2.11188753909861E-06
3.7 -3.44752739594626E-06 4.69787603284719E-06 -0.401730381128101 0.655999163625757 -0.405778620488501 0.651093455849568 -5.61719970120343E-06 2.39949615127843E-06
3.75 -2.42162859352957E-06 4.88203492293941E-06 -0.300215134595843 0.703465805691327 -0.29752517913592 0.707403568769807 -4.8528314128764E-06 2.77772756853511E-06
3.8 -1.63255399426788E-06 4.47607077772458E-06 -0.203202426051212 0.726585893300974 -0.206144309596951 0.723016007490539 -3.88798420994736E-06 2.91209199909618E-06
3.85 -7.49207918938394E-07 3.94435476254355E-06 -0.0871250920122061 0.752495843985015 -0.0912195607587147 0.755650498348889 -2.83138283109155E-06 3.13811161063465E-06
3.9 -1.68333840329269E-07 3.20261389121449E-06 0.00726320586946941 0.749999097912148 0.00961186869079774 0.748603156178535 -2.06579831910088E-06 2.99830245785845E-06
3.95 3.3564944689363E-07 2.65428086667557E-06 0.123684180840057 0.750289482553827 0.121684007372623 0.75329282808804 -1.27430541464753E-06 2.51590006959736E-06
4 -7.67917964368605E-09 2.0552058595187E-06 0.221447251972129 0.717171577839409 0.225238151941622 0.716940338476277 -1.2335902061868E-06 1.68612440401057E-06
4.05 -2.5665147729947E-07 9.39249937450092E-07 0.320312470814693 0.682220185400632 0.321557010306616 0.681323298826673 -9.97614531169229E-07 8.55882047948197E-07
4.1 -6.55289996261197E-07 1.82956808564207E-07 0.419032113151743 0.637006491026946 0.419229871372478 0.636378168942233 -1.00310167979124E-06 -1.53442171517481E-07
4.15 -1.06832520928788E-06 -3.10349166262776E-07 0.490921402746767 0.556893175269644 0.492183370869489 0.556082272888491 -1.35483073488905E-06 -5.86361227231134E-07
4.2 -2.12533671007678E-06 -3.75049436741345E-07 0.5695032903478 0.493410930811525 0.566601910009015 0.49334546050483 -2.08766206077516E-06 -1.14689891481333E-06
4.25 -3.24587468408748E-06 -5.0549649573464E-07 0.635943999291389 0.400040655716177 0.636891891682631 0.401737368712318 -3.03316282217094E-06 -1.75840485918346E-06
4.3 -4.30572875413675E-06 -4.21082088196589E-07 0.681318849770056 0.310721701968358 0.679861187601343 0.30900307453979 -3.79323190126837E-06 -2.05268855937768E-06
4.35 -4.94427446181945E-06 -6.57609306503494E-08 0.719708584371394 0.21650881925898 0.719545637143148 0.223013973263698 -4.66720174067932E-06 -1.99592202698402E-06
4.4 -5.78703260790882E-06 9.08943340808437E-07 0.736130364010284 0.104397527307856 0.736806562933526 0.0980017154880317 -5.69823413832742E-06 -1.46218368640879E-06
4.45 -6.3147746829796E-06 1.99996667777241E-06 0.742638991165237 0.00512261508269058 0.741628349597666 0.0129310131582117 -6.58952809387743E-06 -7.7443748889113E-07
4.5 -6.55134432769336E-06 2.95003534897465E-06 0.737189811200466 -0.0975395832152136 0.740422713860783 -0.101343545567833 -7.11526198568964E-06 -9.71706138706547E-08
4.55 -6.40952699165859E-06 4.17941119874559E-06 0.717510142451131 -0.198886390001112 0.71520107292439 -0.199375840609987 -7.43709456607887E-06 9.23453171958383E-07
4.6 -5.99772214443117E-06 5.45097303908211E-06 0.673980989112669 -0.304214450298857 0.677066123925319 -0.303830946141902 -7.58545971090744E-06 2.11334417906786E-06
4.65 -5.20953849971377E-06 6.51663952687273E-06 0.618509125851908 -0.376246577655635 0.617226427707903 -0.378900801358166 -7.19554688962556E-06 3.31832484488785E-06
4.7 -4.97525988097105E-06 7.09723076276939E-06 0.568271315954458 -0.467505824409446 0.56811640655742 -0.469801964946813 -7.29056789888141E-06 3.90967824599417E-06
4.75 -3.14258052549175E-06 7.38831834031263E-06 0.477749975467023 -0.550227956153073 0.47619460143502 -0.551092066601301 -6.10752168541382E-06 4.80425317700889E-06
4.8 -1.79366120329342E-06 7.56778204137778E-06 0.407109570720361 -0.587051313153818 0.408445206997241 -0.587868512408545 -5.13933693847757E-06 5.27271141954498E-06
4.85 -6.66462283403945E-07 8.07719590868019E-06 0.321603511958974 -0.668053434095222 0.316549662168304 -0.671584244790577 -4.65532234675538E-06 6.10842678209373E-06
4.9 5.33116086607786E-07 7.13576808234405E-06 0.21718003784227 -0.68955668978682 0.214320194039326 -0.688835381909146 -3.56011293764678E-06 5.93873529674458E-06
4.95 1.59724108161542E-06 6.27803341462914E-06 0.125719123949882 -0.72859377319345 0.126473001387777 -0.728994546993943 -2.65326263291066E-06 5.62135748907682E-06
5 2.45218974861245E-06 5.18879198675375E-06 0.0208280283910019 -0.723007475692054 0.017163181595223 -0.723757916039926 -1.87960296147883E-06 5.05742568894492E-06
5.05 2.78897056635598E-06 4.12220626014759E-06 -0.0819583442018788 -0.730546177238945 -0.0842546679715855 -0.72815813196287 -1.30462615342481E-06 4.390737131371E-06
5.1 2.65723657302092E-06 2.72485012343798E-06 -0.191768645971225 -0.704022575517623 -0.186648009301847 -0.704734041598492 -1.06085816167855E-06 3.36563028854923E-06
5.15 2.15755249502764E-06 1.12226331455679E-06 -0.280830118339015 -0.680473570506243 -0.282530328678228 -0.682600518454003 -1.10366640621159E-06 2.46570963026874E-06
5.2 1.55938258455069E-06 6.36396103067893E-10 -0.376805584881827 -0.638724645002863 -0.380302135201718 -0.634974454750066 -1.60296864654303E-06 1.76236465715811E-06
5.25 4.55447477762255E-07 -8.87192736219138E-07 -0.463661631310764 -0.566146935519916 -0.457512389350732 -0.569802692675922 -2.18152341490987E-06 7.89046314990444E-07
5.3 -9.88591848641288E-07 -1.2186278266969E-06 -0.52759732896716 -0.490193649328612 -0.531342072001509 -0.491085400216101 -2.70749772302766E-06 3.54614050765053E-07
5.35 -2.53381815543263E-06 -9.39971186366901E-07 -0.588745173157206 -0.417810544650249 -0.587052573990399 -0.4155257650708 -3.79400971872767E-06 6.85851151344079E-07
5.4 -3.92222232029241E-06 -8.98831713837468E-07 -0.643448180204165 -0.326111518390334 -0.643898929318046 -0.329434825080291 -5.05516294724512E-06 6.57213326706023E-07
5.45 -5.37693895909187E-06 -1.44348778311422E-07 -0.686178615918657 -0.230642825065869 -0.684700523910288 -0.228385902363878 -6.08831666523679E-06 1.39509339500981E-06
5.5 -6.67068981022203E-06 1.10396339105969E-06 -0.712043257117873 -0.131698573987394 -0.714107793887599 -0.138345767880803 -6.9722142838556E-06 2.19235629079765E-06
5.55 -7.18492614577213E-06 2.42729958991468E-06 -0.724494790994006 -0.0482661744177544 -0.723511578808336 -0.0378852524850059 -7.33552574802924E-06 3.0954730717291E-06
5.6 -7.80405470124346E-06 4.52520055688143E-06 -0.728389170730945 0.0862723617462016 -0.727918312660665 0.071337293345337 -8.10159109263112E-06 4.87417189553261E-06
5.65 -7.36222610008685E-06 5.45163771945642E-06 -0.69625057599444 0.16876573777064 -0.70034698910102 0.179945007155597 -7.83057120553794E-06 5.41198317116747E-06
5.7 -6.21964053663875E-06 6.85808724937208E-06 -0.682823259825494 0.252647859882523 -0.674924986940779 0.250971185402369 -6.78152172710522E-06 6.54140240634989E-06
5.75 -5.1821451830106E-06 9.4246727330449E-06 -0.619468703155562 0.377262120477804 -0.627793871111881 0.372651792571623 -5.87310164531485E-06 9.04784138721496E-06
5.8 -4.61319292473228E-06 9.8601797995777E-06 -0.560946929620478 0.432360998744004 -0.551870985736587 0.439361033964432 -5.38178971161082E-06 9.33446004990112E-06
