# GHZ S RI R 50
0.5 5.29904407607636E-06 -3.40111290682917E-06 0.121529114389056 -0.866720035858324 0.121908009541706 -0.866171270924786 5.42531920506065E-06 -1.16966775316754E-06
0.55 4.78593911137616E-06 -4.30807634865029E-06 0.00150341937120542 -0.864709635087899 0.00270072172878546 -0.865053507603993 5.44484949435703E-06 -1.69346417239929E-06
0.6 4.0722703792602E-06 -5.141500685228E-06 -0.124014899602109 -0.860818692699722 -0.125112103062705 -0.860668550815765 5.31392160275253E-06 -2.33019968672215E-06
0.65 3.26342507439653E-06 -5.88855899955159E-06 -0.240593983426936 -0.835273417928816 -0.239744288123837 -0.835118884354006 5.07443867810027E-06 -2.93545480714659E-06
0.7 2.3856510005028E-06 -6.45324033287154E-06 -0.364226821044523 -0.801395190327479 -0.364402756198359 -0.801613812072138 4.80083078018794E-06 -3.51027605170875E-06
0.75 1.3757186692053E-06 -6.72375110308227E-06 -0.470541642630019 -0.74796903667936 -0.470093233486144 -0.747882847693797 4.41609398054435E-06 -4.01107735841632E-06
0.8 2.25284220486033E-07 -6.8057754896999E-06 -0.564547301456312 -0.658182554742302 -0.564997122707096 -0.657869639305495 3.86513051877941E-06 -4.55900026102215E-06
0.85 -8.17867987391608E-07 -6.7526717704328E-06 -0.655726268300784 -0.580518066907605 -0.654746775229832 -0.580853081266376 3.32887487806316E-06 -5.02870301149313E-06
0.9 -1.71490365000486E-06 -6.57091704339661E-06 -0.728726120825787 -0.480228460390744 -0.72923353369222 -0.480852293383683 2.77758614717888E-06 -5.41236500882932E-06
0.95 -2.47811228321075E-06 -6.09726863708661E-06 -0.787291818183995 -0.370502659140545 -0.787056113106124 -0.369562001912054 2.17535744377792E-06 -5.61572891909857E-06
1 -3.10991219220093E-06 -5.51076598849924E-06 -0.831130666977184 -0.259173430827139 -0.830992032676027 -0.260528532024637 1.51745115242633E-06 -5.71900893555868E-06
1.05 -3.56241810575345E-06 -4.79189295047375E-06 -0.865669387919182 -0.137227736522511 -0.866119034159391 -0.13579896256379 7.59757952113699E-07 -5.63166710594652E-06
1.1 -3.84895191562587E-06 -3.98857722063896E-06 -0.871247856907426 -0.0179282967064623 -0.870611501833411 -0.0183964160730069 8.44851182161687E-08 -5.40731626641165E-06
1.15 -3.97616042556132E-06 -3.2069131004441E-06 -0.861039182750035 0.109209180689538 -0.861068884874717 0.109495661306189 -5.34035325423329E-07 -5.05950458288161E-06
1.2 -3.99248045007111E-06 -2.53790523262789E-06 -0.840609889177085 0.226070921981824 -0.840272257323607 0.225711953367227 -1.11983086722951E-06 -4.70439555736973E-06
1.25 -3.82619721940728E-06 -1.98605081631866E-06 -0.794265382467034 0.341907132462308 -0.794919075164935 0.341067267057308 -1.63591982254633E-06 -4.20632368283755E-06
1.3 -3.54595665988743E-06 -1.54098366610422E-06 -0.739010390072183 0.448919822009361 -0.738270522503529 0.449977394669078 -1.99532805728782E-06 -3.64184033941632E-06
1.35 -3.22565143014554E-06 -1.23978446159E-06 -0.664806056502392 0.54570009750491 -0.665462542498462 0.543987937099873 -2.21447459091316E-06 -3.05499827957398E-06
1.4 -2.85693767016363E-06 -1.09772670924962E-06 -0.583679080261821 0.638029095047162 -0.584056209425512 0.639208522837469 -2.30953802657588E-06 -2.46042047154546E-06
1.45 -2.46695413820363E-06 -1.07360022587554E-06 -0.489144433505926 0.708829979044314 -0.487355781479647 0.708763387574825 -2.20458923811217E-06 -1.84687805964552E-06
1.5 -2.08129809974448E-06 -1.14811513847697E-06 -0.378486180576538 0.768587408984532 -0.380556983989915 0.76814323605139 -1.87183892902141E-06 -1.29140325661662E-06
1.55 -1.88487797806648E-06 -1.33056283015873E-06 -0.270130704464226 0.815645931357147 -0.268595785183858 0.816038549019157 -1.53654303551837E-06 -8.79103434642364E-07
1.6 -1.69151255768321E-06 -1.64895887159141E-06 -0.149435279249052 0.831361141742492 -0.15155109229446 0.830920437019848 -9.67208939578207E-07 -5.79657854945484E-07
1.65 -1.72823968389804E-06 -1.94433151622865E-06 -0.0301821430014262 0.846848894463259 -0.0282890926067143 0.847512345631858 -4.30585603335736E-07 -3.94678720987084E-07
1.7 -1.88561336911892E-06 -2.30993400637335E-06 0.0870017628203508 0.840290799866314 0.0859670038683695 0.839501151485588 1.68758104397982E-07 -4.20318412872908E-07
1.75 -2.17853942429326E-06 -2.66108323391058E-06 0.206722032395695 0.823234122418818 0.2076891037963 0.824198380864838 7.56745677225843E-07 -6.26185481147559E-07
1.8 -2.49723245057404E-06 -2.91135660804375E-06 0.317621478709645 0.785699822491688 0.31843241987544 0.783877932173674 1.22937584977093E-06 -9.52840529784496E-07
1.85 -2.95147784680827E-06 -3.02865148090697E-06 0.423392475450188 0.724798586688801 0.422174695305057 0.726139458959126 1.56165946838611E-06 -1.4826897830632E-06
1.9 -3.44325647098789E-06 -3.08705850103298E-06 0.521422982087973 0.662714995512338 0.523858362166235 0.660797464636467 1.7961502191632E-06 -2.09179156437729E-06
1.95 -4.01578668957902E-06 -3.04384013456686E-06 0.604658671271275 0.578991367919962 0.60337795160494 0.578943916559333 1.85506635617166E-06 -2.7670502561392E-06
2 -4.50513286643136E-06 -2.80229245811354E-06 0.678286620615522 0.481996867518459 0.679013233557717 0.482035990496134 1.71078828853836E-06 -3.42792639597177E-06
2.05 -5.0149851399381E-06 -2.37859407482655E-06 0.730766359036896 0.38624471712378 0.730366410736629 0.384967157276301 1.4044413466571E-06 -4.06101323930371E-06
2.1 -5.39183062790367E-06 -1.77301368528278E-06 0.781898341617994 0.270319500509952 0.78132606112005 0.269983261361963 8.5835692168235E-07 -4.54068619538941E-06
2.15 -5.81862613889224E-06 -1.08423511186458E-06 0.804247300367456 0.166123998121219 0.803307059892436 0.166428517956622 1.58052507730817E-07 -5.03592964279685E-06
2.2 -6.02197590702587E-06 -3.58262721755977E-07 0.828263772719718 0.0453868061549687 0.828061468625638 0.045254365548486 -6.59532636948316E-07 -5.36197657960196E-06
2.25 -6.17113301144935E-06 2.55505964313947E-07 0.810607335799178 -0.0688987687029511 0.808957727904038 -0.0688512455329216 -1.35211544484929E-06 -5.54801637373215E-06
2.3 -5.93850902257461E-06 9.08222091891627E-07 0.808298303001672 -0.182213437174013 0.808528939373735 -0.178591307531087 -2.12426190776938E-06 -5.38598992589105E-06
2.35 -5.58471521567573E-06 1.5253000376975E-06 0.760655367455693 -0.293075870794533 0.760166557585165 -0.294837661092947 -2.84180558504624E-06 -4.99521443433612E-06
2.4 -5.08008139021414E-06 2.15803332763885E-06 0.716872964678414 -0.393812569844219 0.715942956169964 -0.390914477099443 -3.46659099476705E-06 -4.47082404540819E-06
2.45 -4.5277461412937E-06 2.68644008308393E-06 0.645578159914685 -0.490429070389006 0.646980458105963 -0.489554387795229 -3.98727614416157E-06 -3.86259907650276E-06
2.5 -3.84024036008164E-06 2.99909441745337E-06 0.563138215258685 -0.561741042136291 0.563095364808353 -0.559985847229231 -4.30280133206264E-06 -3.20278359684198E-06
2.55 -3.10005512367119E-06 3.15160320801969E-06 0.476909497521594 -0.640691198774698 0.479656293135115 -0.639728148216545 -4.45983560602855E-06 -2.47494444483104E-06
2.6 -2.36579544208708E-06 3.11726610272528E-06 0.384567412828698 -0.697862079817024 0.384251978664736 -0.696971005265274 -4.37016032403847E-06 -1.77567240678004E-06
2.65 -1.68939123733965E-06 2.86819481012012E-06 0.281089172141923 -0.749211533025161 0.285805230983565 -0.747952795243823 -4.19836166048138E-06 -1.19373766799913E-06
2.7 -1.13987027340834E-06 2.43425752064156E-06 0.176047545561971 -0.776017471958966 0.174415488550851 -0.777472476313842 -3.8132147389047E-06 -7.84648110811464E-07
2.75 -6.82301475302524E-07 1.96626596858106E-06 0.0627899617815928 -0.786747152299343 0.0637165204209572 -0.785314997916349 -3.33832182465981E-06 -5.31320035383572E-07
2.8 -3.73621081043348E-07 1.35241242969739E-06 -0.0491480009663812 -0.798763785483431 -0.0478809959505039 -0.800169231754917 -2.77263639971057E-06 -3.79292077428465E-07
2.85 -2.82460874812778E-07 6.6345000851609E-07 -0.1557700245623 -0.768609064367171 -0.156839912955843 -0.768167217930842 -2.30689344721424E-06 -4.52619050637509E-07
2.9 -3.42225539958665E-07 -9.71706138706552E-08 -0.266512322317334 -0.74420501224492 -0.265017593246281 -0.745152195404192 -1.91541084887812E-06 -6.75131412541291E-07
2.95 -6.05170267610695E-07 -7.50254436974551E-07 -0.366500633192012 -0.702625739376879 -0.368542783776593 -0.70159292959708 -1.65202771502176E-06 -1.07517000292977E-06
3 -1.0904435094034E-06 -1.27498423715746E-06 -0.468671999370571 -0.645043270581316 -0.465750040105191 -0.646048015520625 -1.54860627720541E-06 -1.50561418490927E-06
3.05 -1.80708209000034E-06 -1.71118426833582E-06 -0.544209439329788 -0.571063839783038 -0.54697843460812 -0.57101233552272 -1.68636482031617E-06 -2.07527354996877E-06
3.1 -2.36392868018474E-06 -2.0387019872458E-06 -0.619119208300182 -0.48680317631237 -0.616983035159584 -0.484600102258196 -1.94608514104599E-06 -2.54812999668384E-06
3.15 -3.06161679904589E-06 -2.12130620142402E-06 -0.68776523766219 -0.388982431464176 -0.687429120235101 -0.394282493304906 -2.23954859737403E-06 -3.00434114976978E-06
3.2 -3.82836096615771E-06 -1.67967559016615E-06 -0.726747354465969 -0.304295712144457 -0.727701782783542 -0.299178661896324 -2.90321073792448E-06 -2.92387239807075E-06
3.25 -4.72641486253588E-06 -1.3019391476563E-06 -0.770047220434057 -0.179767439345865 -0.768731545876266 -0.186293029205652 -3.6889053667721E-06 -3.05398004580908E-06
3.3 -5.77499765049303E-06 -6.13754543934299E-07 -0.779428870555057 -0.08683627990469 -0.781149019517526 -0.0807202773226602 -4.81082927007392E-06 -3.09497809698227E-06
3.35 -6.04378308015766E-06 -3.18381899297054E-07 -0.787923998311029 0.0311310703659476 -0.785467529836255 0.0228482311329149 -5.20791215411704E-06 -3.07465584809097E-06
3.4 -6.30510146221296E-06 4.07123800335966E-07 -0.761651277995977 0.143544461489044 -0.765612893979967 0.147616643657426 -5.70266062677765E-06 -2.61807699947882E-06
3.45 -5.85287839137292E-06 1.31551559785508E-06 -0.736771925974351 0.234170796465108 -0.731686447637503 0.231330181892724 -5.82254351046E-06 -1.47413379101084E-06
3.5 -5.75367130997245E-06 2.38072953730574E-06 -0.68291708237665 0.353648078257338 -0.692038409137303 0.349147776324467 -6.23258059073447E-06 -5.30924055586108E-07
3.55 -5.18378567074295E-06 3.46349386706545E-06 -0.63238026377567 0.41763458017075 -0.625940890168897 0.423576120497117 -6.48341965029258E-06 6.11081680301415E-07
3.6 -4.75393545845965E-06 4.20185476798045E-06 -0.561639603002066 0.527127784307811 -0.569733321480618 0.520207021815043 -6.4464238235009E-06 1.25652875016849E-06
3.65 -4.09243706465964E-06 4.787636167651E-06 -0.48220422144482 0.576303263173097 -0.477412264810946 0.582687257183328 -6.04280727279962E-06 2.11188753909861E-06
3.7 -3.44752739594626E-06 4.69787603284719E-06 -0.394352571189936 0.643951687566726 -0.39832646431717 0.63913607349837 -5.61719970120343E-06 2.39949615127843E-06
3.75 -2.42162859352957E-06 4.88203492293941E-06 -0.296232417190409 0.694133479683758 -0.293578147247955 0.698019003565263 -4.8528314128764E-06 2.77772756853511E-06
3.8 -1.63255399426788E-06 4.47607077772458E-06 -0.197869514750743 0.70751713415058 -0.200734190537152 0.704040937597452 -3.88798420994736E-06 2.91209199909618E-06
3.85 -7.49207918938394E-07 3.94435476254355E-06 -0.0874567329571236 0.755360213215302 -0.0915667872651813 0.758526875745021 -2.83138283109155E-06 3.13811161063465E-06
3.9 -1.68333840329269E-07 3.20261389121449E-06 0.00709869233922435 0.733011420363755 0.00939415732766236 0.731647097078902 -2.06579831910088E-06 2.99830245785845E-06
3.95 3.3564944689363E-07 2.65428086667557E-06 0.123840916408853 0.751240267431979 0.121838208273493 0.754247418877889 -1.27430541464753E-06 2.51590006959736E-06
4 -7.67917964368605E-09 2.0552058595187E-06 0.216506178931223 0.70116958586431 0.220212493910507 0.700943506062081 -1.2335902061868E-06 1.68612440401057E-06
4.05 -2.5665147729947E-07 9.39249937450092E-07 0.317193184791984 0.675576548069504 0.31842560463514 0.674688395609914 -9.97614531169229E-07 8.55882047948197E-07
4.1 -6.55289996261197E-07 1.82956808564207E-07 0.406160146503149 0.617438715550828 0.406351829921639 0.616829694471134 -1.00310167979124E-06 -1.53442171517481E-07
4.15 -1.06832520928788E-06 -3.10349166262776E-07 0.488103550200091 0.553696649627494 0.489358274719114 0.552890401766039 -1.35483073488905E-06 -5.86361227231134E-07
4.2 -2.12533671007678E-06 -3.75049436741345E-07 0.565647976154199 0.49007073208559 0.562766237023798 0.490005704987226 -2.08766206077516E-06 -1.14689891481333E-06
4.25 -3.24587468408748E-06 -5.0549649573464E-07 0.633167877534792 0.398294335963032 0.63411163203859 0.399983642203438 -3.03316282217094E-06 -1.75840485918346E-06
4.3 -4.30572875413675E-06 -4.21082088196589E-07 0.681554209606978 0.310829039977762 0.680096043892634 0.309109818853788 -3.79323190126837E-06 -2.05268855937768E-06
4.35 -4.94427446181945E-06 -6.57609306503494E-08 0.709017056273555 0.213292503412812 0.708856529684589 0.219701021031174 -4.66720174067932E-06 -1.99592202698402E-06
4.4 -5.78703260790882E-06 9.08943340808437E-07 0.732242162503901 0.103846105110394 0.732914789780325 0.0974840756290904 -5.69823413832742E-06 -1.46218368640879E-06
4.45 -6.3147746829796E-06 1.99996667777241E-06 0.739908041696112 0.00510377739290183 0.738901116619441 0.0128834611929368 -6.58952809387743E-06 -7.7443748889113E-07
4.5 -6.55134432769336E-06 2.95003534897465E-06 0.730767667857359 -0.0966898520123162 0.733972406584882 -0.100460675557089 -7.11526198568964E-06 -9.71706138706547E-08
4.55 -6.40952699165859E-06 4.17941119874559E-06 0.718088620374211 -0.199046738097968 0.715777689207244 -0.199536583316417 -7.43709456607887E-06 9.23453171958383E-07
4.6 -5.99772214443117E-06 5.45097303908211E-06 0.668725134280102 -0.301842117822766 0.671786210519919 -0.301461604317193 -7.58545971090744E-06 2.11334417906786E-06
4.65 -5.20953849971377E-06 6.51663952687273E-06 0.625095124880867 -0.380252920475033 0.623798768330902 -0.382935406840146 -7.19554688962556E-06 3.31832484488785E-06
4.7 -4.97525988097105E-06 7.09723076276939E-06 0.565465008000035 -0.465197129113826 0.565310863595811 -0.467481930564962 -7.29056789888141E-06 3.90967824599417E-06
4.75 -3.14258052549175E-06 7.38831834031263E-06 0.476212371163512 -0.548457086625626 0.474662002992164 -0.549318415995859 -6.10752168541382E-06 4.80425317700889E-06
4.8 -1.79366120329342E-06 7.56778204137778E-06 0.410829208015635 -0.592415023849153 0.412177047598126 -0.593239689606868 -5.13933693847757E-06 5.27271141954498E-06
4.85 -6.66462283403945E-07 8.07719590868019E-06 0.318325025590882 -0.6612431724053 0.313322695690477 -0.664737989355864 -4.65532234675538E-06 6.10842678209373E-06
4.9 5.33116086607786E-07 7.13576808234405E-06 0.218107150797694 -0.692500316406248 0.215235098698507 -0.691775929360319 -3.56011293764678E-06 5.93873529674458E-06
4.95 1.59724108161542E-06 6.27803341462914E-06 0.124265721594723 -0.720170711747874 0.125010883674053 -0.720566852318614 -2.65326263291066E-06 5.62135748907682E-06
5 2.45218974861245E-06 5.18879198675375E-06 0.0207944846159699 -0.72184306398415 0.0171355400973598 -0.722592295739364 -1.87960296147883E-06 5.05742568894492E-06
5.05 2.78897056635598E-06 4.12220626014759E-06 -0.081441014654558 -0.725934894192072 -0.0837228437910721 -0.723561922504826 -1.30462615342481E-06 4.390737131371E-06
5.1 2.65723657302092E-06 2.72485012343798E-06 -0.19292015483962 -0.708250004016963 -0.187768770398588 -0.70896574222218 -1.06085816167855E-06 3.36563028854923E-06
5.15 2.15755249502764E-06 1.12226331455679E-06 -0.282646546202315 -0.684874918769803 -0.284357753614961 -0.687015623958199 -1.10366640621159E-06 2.46570963026874E-06
5.2 1.55938258455069E-06 6.36396103067893E-10 -0.372406567364827 -0.631267852920579 -0.375862297201362 -0.627561444271017 -1.60296864654303E-06 1.76236465715811E-06
5.25 4.55447477762255E-07 -8.87192736219138E-07 -0.460257801728819 -0.56199074152689 -0.454153702541613 -0.565619661063582 -2.18152341490987E-06 7.89046314990444E-07
5.3 -9.88591848641288E-07 -1.2186278266969E-06 -0.521437892947184 -0.48447088263768 -0.52513891797186 -0.485352222777738 -2.70749772302766E-06 3.54614050765053E-07
5.35 -2.53381815543263E-06 -9.39971186366901E-07 -0.586917906238892 -0.416513801303263 -0.585230560330378 -0.414236112910853 -3.79400971872767E-06 6.85851151344079E-07
5.4 -3.92222232029241E-06 -8.98831713837468E-07 -0.634035502913214 -0.321340998280235 -0.634479658246774 -0.324615690001072 -5.05516294724512E-06 6.57213326706023E-07
5.45 -5.37693895909187E-06 -1.44348778311422E-07 -0.688552690418209 -0.231440814447628 -0.687069484434465 -0.22917608313355 -6.08831666523679E-06 1.39509339500981E-06
5.5 -6.67068981022203E-06 1.10396339105969E-06 -0.701788711434662 -0.129801906853948 -0.703823515619452 -0.136353370673708 -6.9722142838556E-06 2.19235629079765E-06
5.55 -7.18492614577213E-06 2.42729958991468E-06 -0.716119116693641 -0.0477081831641622 -0.715147271139088 -0.0374472720612044 -7.33552574802924E-06 3.0954730717291E-06
5.6 -7.80405470124346E-06 4.52520055688143E-06 -0.720134272590313 0.0852946295294363 -0.719668750795702 0.0705288215642379 -8.10159109263112E-06 4.87417189553261E-06
5.65 -7.36222610008685E-06 5.45163771945642E-06 -0.676418640880851 0.163958630564899 -0.680398372146541 0.174819470705121 -7.83057120553794E-06 5.41198317116747E-06
5.7 -6.21964053663875E-06 6.85808724937208E-06 -0.66781828597649 0.24709594805762 -0.660093576860118 0.245456118333947 -6.78152172710522E-06 6.54140240634989E-06
5.75 -5.1821451830106E-06 9.4246727330449E-06 -0.595688711028795 0.362779887220514 -0.603694294755197 0.358346539298555 -5.87310164531485E-06 9.04784138721496E-06
5.8 -4.61319292473228E-06 9.8601797995777E-06 -0.562628561679959 0.433657150088034 -0.553525409521276 0.440678170330437 -5.38178971161082E-06 9.33446004990112E-06
