# GHZ S RI R 50
0.5 5.29904407607636E-06 -3.40111290682917E-06 0.107951910589536 -0.769890279275853 0.10828847566571 -0.769402822230373 5.42531920506065E-06 -1.16966775316754E-06
0.55 4.78593911137616E-06 -4.30807634865029E-06 0.00134983331203081 -0.776372775973877 0.0024248218599958 -0.776681519220244 5.44484949435703E-06 -1.69346417239929E-06
0.6 4.0722703792602E-06 -5.141500685228E-06 -0.108411128701858 -0.752508983861225 -0.109370280109959 -0.752377733090895 5.31392160275253E-06 -2.33019968672215E-06
0.65 3.26342507439653E-06 -5.88855899955159E-06 -0.218315596391464 -0.75792923741355 -0.217544580698533 -0.757789013252219 5.07443867810027E-06 -2.93545480714659E-06
0.7 2.3856510005028E-06 -6.45324033287154E-06 -0.319868831136335 -0.703795898591982 -0.320023339724834 -0.703987895111416 4.80083078018794E-06 -3.51027605170875E-06
0.75 1.3757186692053E-06 -6.72375110308227E-06 -0.423641077774065 -0.673416293336707 -0.423237363169905 -0.673338695114938 4.41609398054435E-06 -4.01107735841632E-06
0.8 2.25284220486033E-07 -6.8057754896999E-06 -0.524022983953694 -0.610936914289753 -0.524440516148912 -0.610646460539469 3.86513051877941E-06 -4.55900026102215E-06
0.85 -8.17867987391608E-07 -6.7526717704328E-06 -0.602105482605184 -0.533047290818766 -0.601206085742951 -0.533354910006709 3.32887487806316E-06 -5.02870301149313E-06
0.9 -1.71490365000486E-06 -6.57091704339661E-06 -0.670910110817316 -0.442127872695546 -0.671377266327074 -0.44270221173797 2.77758614717888E-06 -5.41236500882932E-06
0.95 -2.47811228321075E-06 -6.09726863708661E-06 -0.724745851538955 -0.341068278615728 -0.724528871921705 -0.340202351384778 2.17535744377792E-06 -5.61572891909857E-06
1 -3.10991219220093E-06 -5.51076598849924E-06 -0.756256825174236 -0.235825344623251 -0.756130679983571 -0.237058369188614 1.51745115242633E-06 -5.71900893555868E-06
1.05 -3.56241810575345E-06 -4.79189295047375E-06 -0.772773214088464 -0.122501639187553 -0.773174608171585 -0.121226188929412 7.59757952113699E-07 -5.63166710594652E-06
1.1 -3.84895191562587E-06 -3.98857722063896E-06 -0.771421471710421 -0.0158740970447285 -0.770858029328513 -0.0162885799359207 8.44851182161687E-08 -5.40731626641165E-06
1.15 -3.97616042556132E-06 -3.2069131004441E-06 -0.767490334899841 0.0973439912384145 -0.76751680999421 0.0975993467539598 -5.34035325423329E-07 -5.05950458288161E-06
1.2 -3.99248045007111E-06 -2.53790523262789E-06 -0.724009883581249 0.194712891214495 -0.723719084243675 0.194403714712754 -1.11983086722951E-06 -4.70439555736973E-06
1.25 -3.82619721940728E-06 -1.98605081631866E-06 -0.700270182561101 0.301445052690887 -0.700846515755274 0.300704578897784 -1.63591982254633E-06 -4.20632368283755E-06
1.3 -3.54595665988743E-06 -1.54098366610422E-06 -0.649831178027349 0.394746949021484 -0.64918059310976 0.395676900340905 -1.99532805728782E-06 -3.64184033941632E-06
1.35 -3.22565143014554E-06 -1.23978446159E-06 -0.58680656952857 0.481674917182573 -0.587386032202728 0.480163638872252 -2.21447459091316E-06 -3.05499827957398E-06
1.4 -2.85693767016363E-06 -1.09772670924962E-06 -0.504631234497094 0.551620609281194 -0.504957288936722 0.552640306786124 -2.30953802657588E-06 -2.46042047154546E-06
1.45 -2.46695413820363E-06 -1.07360022587554E-06 -0.423142955959248 0.613185783298316 -0.421595651208874 0.613128177181777 -2.20458923811217E-06 -1.84687805964552E-06
1.5 -2.08129809974448E-06 -1.14811513847697E-06 -0.333196190211225 0.676617561380622 -0.335019199460764 0.676226538572623 -1.87183892902141E-06 -1.29140325661662E-06
1.55 -1.88487797806648E-06 -1.33056283015873E-06 -0.23113938381153 0.697913620579329 -0.229826018500584 0.698249566856338 -1.53654303551837E-06 -8.79103434642364E-07
1.6 -1.69151255768321E-06 -1.64895887159141E-06 -0.132176162721619 0.735342591813598 -0.134047608679921 0.734952786545223 -9.67208939578207E-07 -5.79657854945484E-07
1.65 -1.72823968389804E-06 -1.94433151622865E-06 -0.0263117705005393 0.738254197480271 -0.0246614732526181 0.738832571748979 -4.30585603335736E-07 -3.94678720987084E-07
1.7 -1.88561336911892E-06 -2.30993400637335E-06 0.0765293548739968 0.739144940696324 0.0756191499255208 0.738450342343425 1.68758104397982E-07 -4.20318412872908E-07
1.75 -2.17853942429326E-06 -2.66108323391058E-06 0.181378901000134 0.722309560619647 0.182227414077321 0.723155605597013 7.56745677225843E-07 -6.26185481147559E-07
1.8 -2.49723245057404E-06 -2.91135660804375E-06 0.275905185756279 0.682506285009189 0.276609618195468 0.68092368112276 1.22937584977093E-06 -9.52840529784496E-07
1.85 -2.95147784680827E-06 -3.02865148090697E-06 0.366853895826649 0.628011125926866 0.365798734442341 0.62917294207783 1.56165946838611E-06 -1.4826897830632E-06
1.9 -3.44325647098789E-06 -3.08705850103298E-06 0.446416428978883 0.567383624984638 0.448501480300155 0.565741930399879 1.7961502191632E-06 -2.09179156437729E-06
1.95 -4.01578668957902E-06 -3.04384013456686E-06 0.517976772673502 0.495989050368632 0.516879652809046 0.495948401480581 1.85506635617166E-06 -2.7670502561392E-06
2 -4.50513286643136E-06 -2.80229245811354E-06 0.578047131751991 0.410765741670762 0.578666363378215 0.410799082922592 1.71078828853836E-06 -3.42792639597177E-06
2.05 -5.0149851399381E-06 -2.37859407482655E-06 0.624494397147221 0.330074939532534 0.624152611473077 0.328983169287634 1.4044413466571E-06 -4.06101323930371E-06
2.1 -5.39183062790367E-06 -1.77301368528278E-06 0.666883990990721 0.230556502997123 0.66639589083483 0.230269723382687 8.5835692168235E-07 -4.54068619538941E-06
2.15 -5.81862613889224E-06 -1.08423511186458E-06 0.695167742820203 0.143592704320464 0.694355026571818 0.14385592232135 1.58052507730817E-07 -5.03592964279685E-06
2.2 -6.02197590702587E-06 -3.58262721755977E-07 0.713129933472523 0.0390777565310416 0.712955750911479 0.0389637259963245 -6.59532636948316E-07 -5.36197657960196E-06
2.25 -6.17113301144935E-06 2.55505964313947E-07 0.694241433734356 -0.0590080768510571 0.692828633603338 -0.0589673758208051 -1.35211544484929E-06 -5.54801637373215E-06
2.3 -5.93850902257461E-06 9.08222091891627E-07 0.692821995396439 -0.15618179162586 0.693019682254014 -0.153077132024971 -2.12426190776938E-06 -5.38598992589105E-06
2.35 -5.58471521567573E-06 1.5253000376975E-06 0.657715284047602 -0.253413684901596 0.657292625197624 -0.254937050746538 -2.84180558504624E-06 -4.99521443433612E-06
2.4 -5.08008139021414E-06 2.15803332763885E-06 0.608404198254574 -0.334225494088939 0.607614907670562 -0.33176590657521 -3.46659099476705E-06 -4.47082404540819E-06
2.45 -4.5277461412937E-06 2.68644008308393E-06 0.553986051053018 -0.42084890861598 0.555189396651771 -0.420098322573672 -3.98727614416157E-06 -3.86259907650276E-06
2.5 -3.84024036008164E-06 2.99909441745337E-06 0.484412119376747 -0.483210269502212 0.484375259371692 -0.48170044889013 -4.30280133206264E-06 -3.20278359684198E-06
2.55 -3.10005512367119E-06 3.15160320801969E-06 0.40591581412061 -0.545316650018625 0.408253716350446 -0.544496961055869 -4.45983560602855E-06 -2.47494444483104E-06
2.6 -2.36579544208708E-06 3.11726610272528E-06 0.318839765142818 -0.578588237610376 0.318578242841654 -0.577849459462964 -4.37016032403847E-06 -1.77567240678004E-06
2.65 -1.68939123733965E-06 2.86819481012012E-06 0.237216075374896 -0.632272734433556 0.241196040028556 -0.631210463574313 -4.19836166048138E-06 -1.19373766799913E-06
2.7 -1.13987027340834E-06 2.43425752064156E-06 0.147038131267937 -0.648143991691999 0.145675007389829 -0.649359237952006 -3.8132147389047E-06 -7.84648110811464E-07
2.75 -6.82301475302524E-07 1.96626596858106E-06 0.052076311811953 -0.652507006817729 0.052844774719821 -0.651319216347795 -3.33832182465981E-06 -5.31320035383572E-07
2.8 -3.73621081043348E-07 1.35241242969739E-06 -0.0408371906983319 -0.663694725916136 -0.0397844332223052 -0.664862514560158 -2.77263639971057E-06 -3.79292077428465E-07
2.85 -2.82460874812778E-07 6.6345000851609E-07 -0.129787805231003 -0.640406161745019 -0.130679237756806 -0.640038014668061 -2.30689344721424E-06 -4.52619050637509E-07
2.9 -3.42225539958665E-07 -9.71706138706552E-08 -0.216330270651375 -0.604077403698277 -0.215116986621279 -0.604846240153642 -1.91541084887812E-06 -6.75131412541291E-07
2.95 -6.05170267610695E-07 -7.50254436974551E-07 -0.305931875613367 -0.586508155332928 -0.307636535584031 -0.585646030129122 -1.65202771502176E-06 -1.07517000292977E-06
3 -1.0904435094034E-06 -1.27498423715746E-06 -0.3815214917639 -0.525096167842242 -0.379142876742524 -0.525914078424915 -1.54860627720541E-06 -1.50561418490927E-06
3.05 -1.80708209000034E-06 -1.71118426833582E-06 -0.45021096729832 -0.472426946534483 -0.452501688393195 -0.472384338337745 -1.68636482031617E-06 -2.07527354996877E-06
3.1 -2.36392868018474E-06 -2.0387019872458E-06 -0.506493968843284 -0.39824781643089 -0.504746391320874 -0.396445508076708 -1.94608514104599E-06 -2.54812999668384E-06
3.15 -3.06161679904589E-06 -2.12130620142402E-06 -0.567205222729806 -0.320796769878311 -0.566928024131134 -0.325167771191305 -2.23954859737403E-06 -3.00434114976978E-06
3.2 -3.82836096615771E-06 -1.67967559016615E-06 -0.594201111033715 -0.248797397235656 -0.594981468008142 -0.244613609122811 -2.90321073792448E-06 -2.92387239807075E-06
3.25 -4.72641486253588E-06 -1.3019391476563E-06 -0.609280610551269 -0.142236491861042 -0.608239615951736 -0.147399701685677 -3.6889053667721E-06 -3.05398004580908E-06
3.3 -5.77499765049303E-06 -6.13754543934299E-07 -0.651293116732378 -0.0725606575803324 -0.652730478397224 -0.0674501073632781 -4.81082927007392E-06 -3.09497809698227E-06
3.35 -6.04378308015766E-06 -3.18381899297054E-07 -0.604483329391774 0.0238832845587591 -0.602598764071565 0.0175288160476681 -5.20791215411704E-06 -3.07465584809097E-06
3.4 -6.30510146221296E-06 4.07123800335966E-07 -0.618879611067334 0.116637026764995 -0.622098621433627 0.119945877664838 -5.70266062677765E-06 -2.61807699947882E-06
3.45 -5.85287839137292E-06 1.31551559785508E-06 -0.597699743016418 0.189968998457763 -0.593574193456384 0.187664574876915 -5.82254351046E-06 -1.47413379101084E-06
3.5 -5.75367130997245E-06 2.38072953730574E-06 -0.540278861745932 0.279782986998312 -0.547495052652606 0.276222645532928 -6.23258059073447E-06 -5.30924055586108E-07
3.55 -5.18378567074295E-06 3.46349386706545E-06 -0.520389239091236 0.343673820709782 -0.515090242706616 0.348563147316858 -6.48341965029258E-06 6.11081680301415E-07
3.6 -4.75393545845965E-06 4.20185476798045E-06 -0.446732679953202 0.419281700405224 -0.453170489052459 0.413776869978047 -6.4464238235009E-06 1.25652875016849E-06
3.65 -4.09243706465964E-06 4.787636167651E-06 -0.40330258724425 0.482004484279719 -0.399294724138836 0.487343884448311 -6.04280727279962E-06 2.11188753909861E-06
3.7 -3.44752739594626E-06 4.69787603284719E-06 -0.317859120058579 0.5190429370159 -0.321062188238958 0.515161418389837 -5.61719970120343E-06 2.39949615127843E-06
3.75 -2.42162859352957E-06 4.88203492293941E-06 -0.244333255924755 0.572523070722875 -0.242144007282443 0.575727860765591 -4.8528314128764E-06 2.77772756853511E-06
3.8 -1.63255399426788E-06 4.47607077772458E-06 -0.165283267063965 0.590999293567035 -0.167676172174452 0.588095576316901 -3.88798420994736E-06 2.91209199909618E-06
3.85 -7.49207918938394E-07 3.94435476254355E-06 -0.0691581312896748 0.597315941611394 -0.0724082375517472 0.599820042274379 -2.83138283109155E-06 3.13811161063465E-06
3.9 -1.68333840329269E-07 3.20261389121449E-06 0.00595906817539062 0.615333757057122 0.00788601918364053 0.614188462250811 -2.06579831910088E-06 2.99830245785845E-06
3.95 3.3564944689363E-07 2.65428086667557E-06 0.093975394405515 0.570070881841263 0.0924556601177112 0.572352827512866 -1.27430541464753E-06 2.51590006959736E-06
4 -7.67917964368605E-09 2.0552058595187E-06 0.172432964731525 0.558435565520584 0.175384801410097 0.558255507793101 -1.2335902061868E-06 1.68612440401057E-06
4.05 -2.5665147729947E-07 9.39249937450092E-07 0.247413758918556 0.526956256341744 0.248375058342947 0.526263488813766 -9.97614531169229E-07 8.55882047948197E-07
4.1 -6.55289996261197E-07 1.82956808564207E-07 0.3173564336622 0.482440609841225 0.317506207012953 0.481964746417546 -1.00310167979124E-06 -1.53442171517481E-07
4.15 -1.06832520928788E-06 -3.10349166262776E-07 0.372316228375163 0.422349413702819 0.373273308692201 0.421734422964093 -1.35483073488905E-06 -5.86361227231134E-07
4.2 -2.12533671007678E-06 -3.75049436741345E-07 0.43545796390963 0.377275641674915 0.433239488272583 0.377225581268008 -2.08766206077516E-06 -1.14689891481333E-06
4.25 -3.24587468408748E-06 -5.0549649573464E-07 0.476287159983611 0.299608500121623 0.476997079371951 0.300879245053786 -3.03316282217094E-06 -1.75840485918346E-06
4.3 -4.30572875413675E-06 -4.21082088196589E-07 0.51068182831861 0.232901125387953 0.5095892391709 0.231612930003786 -3.79323190126837E-06 -2.05268855937768E-06
4.35 -4.94427446181945E-06 -6.57609306503494E-08 0.554953612488491 0.166945836123842 0.554827966977345 0.171961836756744 -4.66720174067932E-06 -1.99592202698402E-06
4.4 -5.78703260790882E-06 9.08943340808437E-07 0.568728159351775 0.0806566560075277 0.569250584981491 0.0757153053151955 -5.69823413832742E-06 -1.46218368640879E-06
4.45 -6.3147746829796E-06 1.99996667777241E-06 0.569020283228991 0.00392501864284303 0.568245915658929 0.00990792142246445 -6.58952809387743E-06 -7.7443748889113E-07
4.5 -6.55134432769336E-06 2.95003534897465E-06 0.58335016379535 -0.0771846422462995 0.585908411708949 -0.0801947788864931 -7.11526198568964E-06 -9.71706138706547E-08
4.55 -6.40952699165859E-06 4.17941119874559E-06 0.556516499148874 -0.154260617297567 0.554725534515366 -0.154640245853655 -7.43709456607887E-06 9.23453171958383E-07
4.6 -5.99772214443117E-06 5.45097303908211E-06 0.524865040248475 -0.236908061621283 0.527267599717912 -0.236609406424731 -7.58545971090744E-06 2.11334417906786E-06
4.65 -5.20953849971377E-06 6.51663952687273E-06 0.485675405950444 -0.29544222017529 0.484668185659323 -0.297526411208744 -7.19554688962556E-06 3.31832484488785E-06
4.7 -4.97525988097105E-06 7.09723076276939E-06 0.446278264140578 -0.367144499353505 0.446156609756715 -0.368947718316823 -7.29056789888141E-06 3.90967824599417E-06
4.75 -3.14258052549175E-06 7.38831834031263E-06 0.364292871831579 -0.41955862397079 0.363106871408791 -0.420217523589691 -6.10752168541382E-06 4.80425317700889E-06
4.8 -1.79366120329342E-06 7.56778204137778E-06 0.312688070290676 -0.450895669062427 0.313713930550578 -0.451523334134392 -5.13933693847757E-06 5.27271141954498E-06
4.85 -6.66462283403945E-07 8.07719590868019E-06 0.241863750286167 -0.502413384659914 0.238062973807363 -0.505068750924813 -4.65532234675538E-06 6.10842678209373E-06
4.9 5.33116086607786E-07 7.13576808234405E-06 0.16062750162549 -0.509999765218029 0.15851234606299 -0.50946628210676 -3.56011293764678E-06 5.93873529674458E-06
4.95 1.59724108161542E-06 6.27803341462914E-06 0.0924168892432644 -0.535593694300591 0.0929710691125798 -0.535888305548014 -2.65326263291066E-06 5.62135748907682E-06
5 2.45218974861245E-06 5.18879198675375E-06 0.0153761696125493 -0.533756021870266 0.0126706179934508 -0.534310030048879 -1.87960296147883E-06 5.05742568894492E-06
5.05 2.78897056635598E-06 4.12220626014759E-06 -0.0587412488949699 -0.523597630532388 -0.0603870718726464 -0.521886068844553 -1.30462615342481E-06 4.390737131371E-06
5.1 2.65723657302092E-06 2.72485012343798E-06 -0.139485030528315 -0.512078551430319 -0.135760479215272 -0.512596044097106 -1.06085816167855E-06 3.36563028854923E-06
5.15 2.15755249502764E-06 1.12226331455679E-06 -0.194846981825006 -0.472129635556995 -0.196026630414775 -0.473605365405955 -1.10366640621159E-06 2.46570963026874E-06
5.2 1.55938258455069E-06 6.36396103067893E-10 -0.275053598483938 -0.466244448323426 -0.277605945865062 -0.46350695353721 -1.60296864654303E-06 1.76236465715811E-06
5.25 4.55447477762255E-07 -8.87192736219138E-07 -0.328511939957935 -0.401124474248835 -0.324155100251682 -0.403714638701175 -2.18152341490987E-06 7.89046314990444E-07
5.3 -9.88591848641288E-07 -1.2186278266969E-06 -0.395095959381685 -0.367085880710272 -0.397900243559337 -0.367753676305659 -2.70749772302766E-06 3.54614050765053E-07
5.35 -2.53381815543263E-06 -9.39971186366901E-07 -0.430157361476084 -0.305266675087707 -0.428920690629636 -0.303597336976314 -3.79400971872767E-06 6.85851151344079E-07
5.4 -3.92222232029241E-06 -8.98831713837468E-07 -0.474857800919271 -0.240666775105561 -0.475190448892439 -0.243119339515756 -5.05516294724512E-06 6.57213326706023E-07
5.45 -5.37693895909187E-06 -1.44348778311422E-07 -0.499271964115975 -0.167818544047348 -0.498196486269475 -0.166176379450347 -6.08831666523679E-06 1.39509339500981E-06
5.5 -6.67068981022203E-06 1.10396339105969E-06 -0.497343421895448 -0.0919879779646568 -0.498785446339076 -0.0966308674575398 -6.9722142838556E-06 2.19235629079765E-06
5.55 -7.18492614577213E-06 2.42729958991468E-06 -0.506623425814946 -0.0337514843977763 -0.505935886950624 -0.0264923318157806 -7.33552574802924E-06 3.0954730717291E-06
5.6 -7.80405470124346E-06 4.52520055688143E-06 -0.491375479165936 0.0581998261304131 -0.491057835632506 0.0481245440054929 -8.10159109263112E-06 4.87417189553261E-06
5.65 -7.36222610008685E-06 5.45163771945642E-06 -0.484635883902436 0.117471978217184 -0.487487255025399 0.125253480001975 -7.83057120553794E-06 5.41198317116747E-06
5.7 -6.21964053663875E-06 6.85808724937208E-06 -0.463936248743631 0.171658622755411 -0.458569859943952 0.170519425961081 -6.78152172710522E-06 6.54140240634989E-06
5.75 -5.1821451830106E-06 9.4246727330449E-06 -0.416264495188794 0.25350889453266 -0.421858759788516 0.250410891665452 -5.87310164531485E-06 9.04784138721496E-06
5.8 -4.61319292473228E-06 9.8601797995777E-06 -0.387901782442343 0.298983011075257 -0.381625654302574 0.303823622540945 -5.38178971161082E-06 9.33446004990112E-06
