# GHZ S RI R 50
0.5 5.29904407607636E-06 -3.40111290682917E-06 0.000802472822717689 -0.00572306707884511 0.000804974717545034 -0.00571944351137785 5.42531920506065E-06 -1.16966775316754E-06
0.55 4.78593911137616E-06 -4.30807634865029E-06 1.13888570472634E-05 -0.00655043736300358 2.04587850088123E-05 -0.00655304230145475 5.44484949435703E-06 -1.69346417239929E-06
0.6 4.0722703792602E-06 -5.141500685228E-06 -0.000975043218321426 -0.00676802086857399 -0.000983669768815002 -0.00676684040698262 5.31392160275253E-06 -2.33019968672215E-06
0.65 3.26342507439653E-06 -5.88855899955159E-06 -0.00209379791339622 -0.0072690668098348 -0.00208640333840598 -0.00726772196291935 5.07443867810027E-06 -2.93545480714659E-06
0.7 2.3856510005028E-06 -6.45324033287154E-06 -0.00344883107784163 -0.00758833912919433 -0.0034504969920225 -0.00759040923887244 4.80083078018794E-06 -3.51027605170875E-06
0.75 1.3757186692053E-06 -6.72375110308227E-06 -0.00458509210578103 -0.0072884238391282 -0.00458072267906197 -0.00728758398904586 4.41609398054435E-06 -4.01107735841632E-06
0.8 2.25284220486033E-07 -6.8057754896999E-06 -0.00594361042546861 -0.00692941173243859 -0.00594834618856386 -0.00692611732743886 3.86513051877941E-06 -4.55900026102215E-06
0.85 -8.17867987391608E-07 -6.7526717704328E-06 -0.00729327487277434 -0.00645677630322821 -0.00728238052165899 -0.00646050247971825 3.32887487806316E-06 -5.02870301149313E-06
0.9 -1.71490365000486E-06 -6.57091704339661E-06 -0.00829018718943681 -0.00546320999969489 -0.00829595965665713 -0.00547030689404054 2.77758614717888E-06 -5.41236500882932E-06
0.95 -2.47811228321075E-06 -6.09726863708661E-06 -0.00971260525190924 -0.00457079063937864 -0.00970969742240516 -0.00455918600672951 2.17535744377792E-06 -5.61572891909857E-06
1 -3.10991219220093E-06 -5.51076598849924E-06 -0.0107058044690747 -0.00333841618924498 -0.0107040187189155 -0.00335587126464123 1.51745115242633E-06 -5.71900893555868E-06
1.05 -3.56241810575345E-06 -4.79189295047375E-06 -0.0117058258874607 -0.00185563219986798 -0.0117119061308796 -0.00183631191498009 7.59757952113699E-07 -5.63166710594652E-06
1.1 -3.84895191562587E-06 -3.98857722063896E-06 -0.0123407547853181 -0.000253944628521922 -0.0123317411597894 -0.000260575286223958 8.44851182161687E-08 -5.40731626641165E-06
1.15 -3.97616042556132E-06 -3.2069131004441E-06 -0.0126160358684948 0.00160014430045761 -0.0126164710671221 0.00160434184431822 -5.34035325423329E-07 -5.05950458288161E-06
1.2 -3.99248045007111E-06 -2.53790523262789E-06 -0.0128142884239717 0.00344623354524685 -0.0128091415514363 0.00344076141433115 -1.11983086722951E-06 -4.70439555736973E-06
1.25 -3.82619721940728E-06 -1.98605081631866E-06 -0.0125102398018478 0.00538527841132891 -0.0125205359227515 0.00537204993902008 -1.63591982254633E-06 -4.20632368283755E-06
1.3 -3.54595665988743E-06 -1.54098366610422E-06 -0.012103209322183 0.00735222487754972 -0.0120910920743413 0.00736954536917735 -1.99532805728782E-06 -3.64184033941632E-06
1.35 -3.22565143014554E-06 -1.23978446159E-06 -0.0112692488010582 0.00925026195143034 -0.0112803770149963 0.00922123880790907 -2.21447459091316E-06 -3.05499827957398E-06
1.4 -2.85693767016363E-06 -1.09772670924962E-06 -0.0100803155656221 0.0110189568816458 -0.0100868287011919 0.011039325958961 -2.30953802657588E-06 -2.46042047154546E-06
1.45 -2.46695413820363E-06 -1.07360022587554E-06 -0.00881022734925139 0.0127670946239437 -0.00877801103455827 0.0127658952113663 -2.20458923811217E-06 -1.84687805964552E-06
1.5 -2.08129809974448E-06 -1.14811513847697E-06 -0.00694944347782677 0.0141121526507814 -0.00698746582055282 0.0141039971226495 -1.87183892902141E-06 -1.29140325661662E-06
1.55 -1.88487797806648E-06 -1.33056283015873E-06 -0.00501907807156237 0.0151548511168077 -0.00499055898959798 0.015162146025033 -1.53654303551837E-06 -8.79103434642364E-07
1.6 -1.69151255768321E-06 -1.64895887159141E-06 -0.0028907007789148 0.0160819875471927 -0.00293162941671127 0.0160734624820848 -9.67208939578207E-07 -5.79657854945484E-07
1.65 -1.72823968389804E-06 -1.94433151622865E-06 -0.000599722126763111 0.0168269701727441 -0.000562107030686841 0.0168401530122071 -4.30585603335736E-07 -3.94678720987084E-07
1.7 -1.88561336911892E-06 -2.30993400637335E-06 0.00177655252542917 0.0171585114393591 0.0017554230267873 0.0171423870324562 1.68758104397982E-07 -4.20318412872908E-07
1.75 -2.17853942429326E-06 -2.66108323391058E-06 0.00432799515693152 0.0172354792256948 0.00434824205703075 0.0172556672329239 7.56745677225843E-07 -6.26185481147559E-07
1.8 -2.49723245057404E-06 -2.91135660804375E-06 0.00683612292251313 0.0169105080316687 0.00685357669646703 0.0168712957396792 1.22937584977093E-06 -9.52840529784496E-07
1.85 -2.95147784680827E-06 -3.02865148090697E-06 0.00936791918359218 0.0160367861456748 0.00934097476052269 0.0160664540868694 1.56165946838611E-06 -1.4826897830632E-06
1.9 -3.44325647098789E-06 -3.08705850103298E-06 0.0116048670425867 0.0147494829998721 0.0116590692219637 0.014706806148968 1.7961502191632E-06 -2.09179156437729E-06
1.95 -4.01578668957902E-06 -3.04384013456686E-06 0.0137755924387416 0.0131908289568489 0.0137464145355874 0.0131897478996579 1.85506635617166E-06 -2.7670502561392E-06
2 -4.50513286643136E-06 -2.80229245811354E-06 0.0157511856596862 0.0111929410324811 0.0157680590801657 0.0111938495470621 1.71078828853836E-06 -3.42792639597177E-06
2.05 -5.0149851399381E-06 -2.37859407482655E-06 0.0174694224154399 0.00923341918484063 0.0174598614036127 0.00920287832542556 1.4044413466571E-06 -4.06101323930371E-06
2.1 -5.39183062790367E-06 -1.77301368528278E-06 0.0189408860793981 0.00654828203574867 0.0189270230243945 0.00654013690094213 8.5835692168235E-07 -4.54068619538941E-06
2.15 -5.81862613889224E-06 -1.08423511186458E-06 0.0198856417802025 0.00410754542318544 0.0198623936011101 0.00411507491362827 1.58052507730817E-07 -5.03592964279685E-06
2.2 -6.02197590702587E-06 -3.58262721755977E-07 0.020654689290377 0.00113182588674041 0.0206496443658699 0.00112852317126929 -6.59532636948316E-07 -5.36197657960196E-06
2.25 -6.17113301144935E-06 2.55505964313947E-07 0.0207998656450038 -0.00176791532575349 0.0207575373547571 -0.00176669589988849 -1.35211544484929E-06 -5.54801637373215E-06
2.3 -5.93850902257461E-06 9.08222091891627E-07 0.0208579521595241 -0.00470197591815326 0.0208639036781613 -0.00460850769419785 -2.12426190776938E-06 -5.38598992589105E-06
2.35 -5.58471521567573E-06 1.5253000376975E-06 0.0199681547694568 -0.00769360816685416 0.0199553228989868 -0.00773985736570977 -2.84180558504624E-06 -4.99521443433612E-06
2.4 -5.08008139021414E-06 2.15803332763885E-06 0.0188123132716008 -0.0103345024840308 0.018787907815867 -0.0102584501968179 -3.46659099476705E-06 -4.47082404540819E-06
2.45 -4.5277461412937E-06 2.68644008308393E-06 0.0171158641053319 -0.0130024803242907 0.0171530424777852 -0.0129792903384145 -3.98727614416157E-06 -3.86259907650276E-06
2.5 -3.84024036008164E-06 2.99909441745337E-06 0.0152445637263088 -0.0152067412271001 0.0152434037332501 -0.0151592268160945 -4.30280133206264E-06 -3.20278359684198E-06
2.55 -3.10005512367119E-06 3.15160320801969E-06 0.0131927694006716 -0.0177234701476913 0.0132687541342705 -0.0176968292357344 -4.45983560602855E-06 -2.47494444483104E-06
2.6 -2.36579544208708E-06 3.11726610272528E-06 0.0108735781600081 -0.0197319315591006 0.0108646593126962 -0.0197067365777745 -4.37016032403847E-06 -1.77567240678004E-06
2.65 -1.68939123733965E-06 2.86819481012012E-06 0.00796331905687902 -0.0212253301438465 0.0080969260576782 -0.0211896698212329 -4.19836166048138E-06 -1.19373766799913E-06
2.7 -1.13987027340834E-06 2.43425752064156E-06 0.0050330352786127 -0.0221856163953984 0.00498637628948874 -0.022227213614066 -3.8132147389047E-06 -7.84648110811464E-07
2.75 -6.82301475302524E-07 1.96626596858106E-06 0.00184242670010289 -0.0230852817631617 0.00186961442769403 -0.0230432584938519 -3.33832182465981E-06 -5.31320035383572E-07
2.8 -3.73621081043348E-07 1.35241242969739E-06 -0.00144579213584221 -0.0234973218999782 -0.00140852051030283 -0.0235386660671204 -2.77263639971057E-06 -3.79292077428465E-07
2.85 -2.82460874812778E-07 6.6345000851609E-07 -0.0046734100524186 -0.0230597981728953 -0.00470550882872294 -0.0230465419024224 -2.30689344721424E-06 -4.52619050637509E-07
2.9 -3.42225539958665E-07 -9.71706138706552E-08 -0.00804761689343443 -0.0224720447319117 -0.00800248199378432 -0.0225006459130033 -1.91541084887812E-06 -6.75131412541291E-07
2.95 -6.05170267610695E-07 -7.50254436974551E-07 -0.0110185571686204 -0.0211238976861801 -0.0110799528414386 -0.0210928470615088 -1.65202771502176E-06 -1.07517000292977E-06
3 -1.0904435094034E-06 -1.27498423715746E-06 -0.0142501359464226 -0.019612766091112 -0.0141612927537047 -0.0196433157121601 -1.54860627720541E-06 -1.50561418490927E-06
3.05 -1.80708209000034E-06 -1.71118426833582E-06 -0.0166711696247978 -0.0174938203044327 -0.0167559943019151 -0.0174922425363932 -1.68636482031617E-06 -2.07527354996877E-06
3.1 -2.36392868018474E-06 -2.0387019872458E-06 -0.0190227928344127 -0.0149573068481415 -0.0189571576892464 -0.0148896161340278 -1.94608514104599E-06 -2.54812999668384E-06
3.15 -3.06161679904589E-06 -2.12130620142402E-06 -0.0212344111011264 -0.0120096399301923 -0.0212240336420253 -0.0121732767147004 -2.23954859737403E-06 -3.00434114976978E-06
3.2 -3.82836096615771E-06 -1.67967559016615E-06 -0.0227841829650788 -0.0095399441613143 -0.0228141051509402 -0.00937952003540794 -2.90321073792448E-06 -2.92387239807075E-06
3.25 -4.72641486253588E-06 -1.3019391476563E-06 -0.0241222246413454 -0.00563133070288346 -0.0240810102892956 -0.00583574900391485 -3.6889053667721E-06 -3.05398004580908E-06
3.3 -5.77499765049303E-06 -6.13754543934299E-07 -0.0247073682558334 -0.00275265136643441 -0.0247618958150196 -0.00255877821936939 -4.81082927007392E-06 -3.09497809698227E-06
3.35 -6.04378308015766E-06 -3.18381899297054E-07 -0.0251121749470734 0.000992188189463837 -0.025033884063406 0.000728203200652402 -5.20791215411704E-06 -3.07465584809097E-06
3.4 -6.30510146221296E-06 4.07123800335966E-07 -0.0245842053638051 0.00463325753141072 -0.0247120764561759 0.00476469742470382 -5.70266062677765E-06 -2.61807699947882E-06
3.45 -5.85287839137292E-06 1.31551559785508E-06 -0.0240482273533071 0.00764333215526723 -0.0238822373977546 0.00755061452766564 -5.82254351046E-06 -1.47413379101084E-06
3.5 -5.75367130997245E-06 2.38072953730574E-06 -0.022022568840561 0.0114043700908024 -0.0223167114995858 0.0112592452847644 -6.23258059073447E-06 -5.30924055586108E-07
3.55 -5.18378567074295E-06 3.46349386706545E-06 -0.020557879087072 0.0135767696962409 -0.0203485432308039 0.0137699216249415 -6.48341965029258E-06 6.11081680301415E-07
3.6 -4.75393545845965E-06 4.20185476798045E-06 -0.0183966066998485 0.0172661658412961 -0.018661717911368 0.0170394750150759 -6.4464238235009E-06 1.25652875016849E-06
3.65 -4.09243706465964E-06 4.787636167651E-06 -0.0159085650484346 0.0190130188457164 -0.0157504719616698 0.0192236353842367 -6.04280727279962E-06 2.11188753909861E-06
3.7 -3.44752739594626E-06 4.69787603284719E-06 -0.0132765329235974 0.0216797008711983 -0.0134103206222027 0.0215175752420108 -5.61719970120343E-06 2.39949615127843E-06
3.75 -2.42162859352957E-06 4.88203492293941E-06 -0.00993533653458188 0.0232805369040542 -0.00984631499743205 0.0234108534566518 -4.8528314128764E-06 2.77772756853511E-06
3.8 -1.63255399426788E-06 4.47607077772458E-06 -0.00701825087883225 0.0250949862327013 -0.00711985831129025 0.0249716887174438 -3.88798420994736E-06 2.91209199909618E-06
3.85 -7.49207918938394E-07 3.94435476254355E-06 -0.00287669123278475 0.0248458641145008 -0.00301188216428291 0.0249500243092442 -2.83138283109155E-06 3.13811161063465E-06
3.9 -1.68333840329269E-07 3.20261389121449E-06 0.000240673544498408 0.024851965441854 0.000318498821132349 0.0248057095252547 -2.06579831910088E-06 2.99830245785845E-06
3.95 3.3564944689363E-07 2.65428086667557E-06 0.00412775732804386 0.0250396848548539 0.00406100480859082 0.0251399166019803 -1.27430541464753E-06 2.51590006959736E-06
4 -7.67917964368605E-09 2.0552058595187E-06 0.00748118329297145 0.0242283070959103 0.00760925179354906 0.024220495104365 -1.2335902061868E-06 1.68612440401057E-06
4.05 -2.5665147729947E-07 9.39249937450092E-07 0.0109036988328684 0.023223333828971 0.0109460639764141 0.0231928030754702 -9.97614531169229E-07 8.55882047948197E-07
4.1 -6.55289996261197E-07 1.82956808564207E-07 0.0142806280263898 0.0217092019041924 0.0142873676329756 0.0216877886671375 -1.00310167979124E-06 -1.53442171517481E-07
4.15 -1.06832520928788E-06 -3.10349166262776E-07 0.0170966872216793 0.0193942011495151 0.0171406361596502 0.0193659608970015 -1.35483073488905E-06 -5.86361227231134E-07
4.2 -2.12533671007678E-06 -3.75049436741345E-07 0.0196764269517967 0.0170474241358674 0.0195761838113916 0.0170451621266235 -2.08766206077516E-06 -1.14689891481333E-06
4.25 -3.24587468408748E-06 -5.0549649573464E-07 0.0219795539019145 0.013826241249337 0.0220123150442946 0.0138848831970499 -3.03316282217094E-06 -1.75840485918346E-06
4.3 -4.30572875413675E-06 -4.21082088196589E-07 0.0238451689867427 0.0108748077259046 0.0237941529305302 0.0108146582650856 -3.79323190126837E-06 -2.05268855937768E-06
4.35 -4.94427446181945E-06 -6.57609306503494E-08 0.0247803070172954 0.00745462139773653 0.024774696576582 0.00767860054281298 -4.66720174067932E-06 -1.99592202698402E-06
4.4 -5.78703260790882E-06 9.08943340808437E-07 0.0257545954212795 0.00365249989709465 0.0257782532277549 0.00342873308368291 -5.69823413832742E-06 -1.46218368640879E-06
4.45 -6.3147746829796E-06 1.99996667777241E-06 0.0256464788903288 0.000176905658259832 0.0256115771440743 0.000446562811726717 -6.58952809387743E-06 -7.7443748889113E-07
4.5 -6.55134432769336E-06 2.95003534897465E-06 0.0254290024792972 -0.00336458028275 0.0255405198775513 -0.00349579610617327 -7.11526198568964E-06 -9.71706138706547E-08
4.55 -6.40952699165859E-06 4.17941119874559E-06 0.0250771423065772 -0.00695112446475138 0.0249964398026097 -0.00696823087460486 -7.43709456607887E-06 9.23453171958383E-07
4.6 -5.99772214443117E-06 5.45097303908211E-06 0.0238011338468884 -0.0107431054683803 0.02391008307216 -0.0107295623063061 -7.58545971090744E-06 2.11334417906786E-06
4.65 -5.20953849971377E-06 6.51663952687273E-06 0.0220569831720499 -0.0134175294834352 0.0220112401907509 -0.0135121831677458 -7.19554688962556E-06 3.31832484488785E-06
4.7 -4.97525988097105E-06 7.09723076276939E-06 0.0201166534861862 -0.0165495818781963 0.0201111697347202 -0.0166308646426944 -7.29056789888141E-06 3.90967824599417E-06
4.75 -3.14258052549175E-06 7.38831834031263E-06 0.0167687493594182 -0.0193126847955488 0.0167141566254733 -0.0193430145752857 -6.10752168541382E-06 4.80425317700889E-06
4.8 -1.79366120329342E-06 7.56778204137778E-06 0.0145281833557315 -0.0209496158531236 0.0145758471055489 -0.0209787785686791 -5.13933693847757E-06 5.27271141954498E-06
4.85 -6.66462283403945E-07 8.07719590868019E-06 0.0112582472603501 -0.0233862829990782 0.0110813291346323 -0.0235098846960736 -4.65532234675538E-06 6.10842678209373E-06
4.9 5.33116086607786E-07 7.13576808234405E-06 0.00770051736346812 -0.0244494996665183 0.00759911634576791 -0.0244239243701346 -3.56011293764678E-06 5.93873529674458E-06
4.95 1.59724108161542E-06 6.27803341462914E-06 0.00435563366716595 -0.0252426796218686 0.00438175231838025 -0.0252565647318145 -2.65326263291066E-06 5.62135748907682E-06
5 2.45218974861245E-06 5.18879198675375E-06 0.000724933485879176 -0.0251647597089209 0.000597376037185428 -0.02519087928813 -1.87960296147883E-06 5.05742568894492E-06
5.05 2.78897056635598E-06 4.12220626014759E-06 -0.00284408895523244 -0.0253511504436291 -0.00292377515600504 -0.0252682813561626 -1.30462615342481E-06 4.390737131371E-06
5.1 2.65723657302092E-06 2.72485012343798E-06 -0.00680655881876934 -0.0249882927719123 -0.00662480901027927 -0.0250135452614549 -1.06085816167855E-06 3.36563028854923E-06
5.15 2.15755249502764E-06 1.12226331455679E-06 -0.00995620162411016 -0.0241246633655571 -0.01001647876618 -0.0242000695318797 -1.10366640621159E-06 2.46570963026874E-06
5.2 1.55938258455069E-06 6.36396103067893E-10 -0.0131618619439522 -0.0223107245089377 -0.0132839968443809 -0.0221797299367995 -1.60296864654303E-06 1.76236465715811E-06
5.25 4.55447477762255E-07 -8.87192736219138E-07 -0.0163851778180258 -0.0200068704917419 -0.016167871885947 -0.0201360600278511 -2.18152341490987E-06 7.89046314990444E-07
5.3 -9.88591848641288E-07 -1.2186278266969E-06 -0.0183253630859192 -0.0170261980361878 -0.0184554315529114 -0.0170571717691811 -2.70749772302766E-06 3.54614050765053E-07
5.35 -2.53381815543263E-06 -9.39971186366901E-07 -0.0204586682279104 -0.0145187556600818 -0.0203998510581478 -0.0144393604488409 -3.79400971872767E-06 6.85851151344079E-07
5.4 -3.92222232029241E-06 -8.98831713837468E-07 -0.0225016091588265 -0.0114042344896871 -0.0225173720138649 -0.0115204516934231 -5.05516294724512E-06 6.57213326706023E-07
5.45 -5.37693895909187E-06 -1.44348778311422E-07 -0.0238307208583253 -0.00801013709056162 -0.0237793872882647 -0.00793175502842472 -6.08831666523679E-06 1.39509339500981E-06
5.5 -6.67068981022203E-06 1.10396339105969E-06 -0.0246040373781452 -0.00455073003591108 -0.0246753756561825 -0.00478041805750013 -6.9722142838556E-06 2.19235629079765E-06
5.55 -7.18492614577213E-06 2.42729958991468E-06 -0.025089110675365 -0.00167144803095421 -0.0250550622327119 -0.00131195876682062 -7.33552574802924E-06 3.0954730717291E-06
5.6 -7.80405470124346E-06 4.52520055688143E-06 -0.0252762987803176 0.00299379243899568 -0.0252599592330731 0.00247552107202037 -8.10159109263112E-06 4.87417189553261E-06
5.65 -7.36222610008685E-06 5.45163771945642E-06 -0.0239505542171519 0.00580542852219577 -0.0240914680886627 0.00618998791323129 -7.83057120553794E-06 5.41198317116747E-06
5.7 -6.21964053663875E-06 6.85808724937208E-06 -0.0231450597668587 0.00856378240314247 -0.0228773389542748 0.00850694964225694 -6.78152172710522E-06 6.54140240634989E-06
5.75 -5.1821451830106E-06 9.4246727330449E-06 -0.0209324166126396 0.0127480336581687 -0.0212137316865799 0.0125922464425088 -5.87310164531485E-06 9.04784138721496E-06
5.8 -4.61319292473228E-06 9.8601797995777E-06 -0.018538379792397 0.0142888248047981 -0.0182384346713713 0.0145201645352148 -5.38178971161082E-06 9.33446004990112E-06
