# GHZ S RI R 50
0.5 5.29904407607636E-06 -3.40111290682917E-06 0.000837780664958979 -0.00597487516983048 0.000840392640159599 -0.00597109216973839 5.42531920506065E-06 -1.16966775316754E-06
0.55 4.78593911137616E-06 -4.30807634865029E-06 1.10339278986661E-05 -0.00634629561756397 1.98211952037618E-05 -0.00634881937415616 5.44484949435703E-06 -1.69346417239929E-06
0.6 4.0722703792602E-06 -5.141500685228E-06 -0.000992484804101358 -0.00688908731395969 -0.00100126566644244 -0.00688788573625601 5.31392160275253E-06 -2.33019968672215E-06
0.65 3.26342507439653E-06 -5.88855899955159E-06 -0.00209235206847192 -0.00726404725026596 -0.00208496259970929 -0.00726270333201707 5.07443867810027E-06 -2.93545480714659E-06
0.7 2.3856510005028E-06 -6.45324033287154E-06 -0.0033133851641991 -0.0072903223509918 -0.00331498565294649 -0.0072923111612701 4.80083078018794E-06 -3.51027605170875E-06
0.75 1.3757186692053E-06 -6.72375110308227E-06 -0.00464459728789205 -0.00738301277602279 -0.00464017115488952 -0.00738216202639232 4.41609398054435E-06 -4.01107735841632E-06
0.8 2.25284220486033E-07 -6.8057754896999E-06 -0.00624741470971965 -0.00728360469277014 -0.00625239253866621 -0.0072801418961227 3.86513051877941E-06 -4.55900026102215E-06
0.85 -8.17867987391608E-07 -6.7526717704328E-06 -0.0072739880256664 -0.00643970155155042 -0.0072631224843365 -0.00644341787427826 3.32887487806316E-06 -5.02870301149313E-06
0.9 -1.71490365000486E-06 -6.57091704339661E-06 -0.00861617154191678 -0.00567803276949698 -0.00862217099243024 -0.00568540872587766 2.77758614717888E-06 -5.41236500882932E-06
0.95 -2.47811228321075E-06 -6.09726863708661E-06 -0.00947405143331618 -0.00445852626409181 -0.00947121502376731 -0.00444720665583727 2.17535744377792E-06 -5.61572891909857E-06
1 -3.10991219220093E-06 -5.51076598849924E-06 -0.0106553889480156 -0.00332269499872829 -0.0106536116072688 -0.00334006787509655 1.51745115242633E-06 -5.71900893555868E-06
1.05 -3.56241810575345E-06 -4.79189295047375E-06 -0.0116198911588868 -0.00184200964551242 -0.0116259267660645 -0.0018228311945672 7.59757952113699E-07 -5.63166710594652E-06
1.1 -3.84895191562587E-06 -3.98857722063896E-06 -0.0122967890500854 -0.000253039913818844 -0.0122878075369097 -0.000259646948837663 8.44851182161687E-08 -5.40731626641165E-06
1.15 -3.97616042556132E-06 -3.2069131004441E-06 -0.012743036147823 0.00161625227409068 -0.0127434757274102 0.00162049207284405 -5.34035325423329E-07 -5.05950458288161E-06
1.2 -3.99248045007111E-06 -2.53790523262789E-06 -0.0129283914954623 0.00347692005858074 -0.0129231987933072 0.00347139920182679 -1.11983086722951E-06 -4.70439555736973E-06
1.25 -3.82619721940728E-06 -1.98605081631866E-06 -0.0127091245118897 0.00547089224066362 -0.0127195843179866 0.00545745346536131 -1.63591982254633E-06 -4.20632368283755E-06
1.3 -3.54595665988743E-06 -1.54098366610422E-06 -0.0123055362574247 0.00747513055381164 -0.0122932164479686 0.00749274058864179 -1.99532805728782E-06 -3.64184033941632E-06
1.35 -3.22565143014554E-06 -1.23978446159E-06 -0.0113108428199043 0.00928440402928593 -0.0113220121073114 0.00925527376334684 -2.21447459091316E-06 -3.05499827957398E-06
1.4 -2.85693767016363E-06 -1.09772670924962E-06 -0.0101478520767179 0.0110927821402755 -0.0101544088492601 0.0111132876871692 -2.30953802657588E-06 -2.46042047154546E-06
1.45 -2.46695413820363E-06 -1.07360022587554E-06 -0.00878187225938694 0.0127260046382919 -0.00874975963061043 0.0127248090859386 -2.20458923811217E-06 -1.84687805964552E-06
1.5 -2.08129809974448E-06 -1.14811513847697E-06 -0.00700245016963402 0.0142197927127063 -0.00704076252674887 0.0142115749785046 -1.87183892902141E-06 -1.29140325661662E-06
1.55 -1.88487797806648E-06 -1.33056283015873E-06 -0.00506901937458725 0.0153056463427695 -0.00504021651936927 0.0153130138374773 -1.53654303551837E-06 -8.79103434642364E-07
1.6 -1.69151255768321E-06 -1.64895887159141E-06 -0.00290973299971449 0.0161878705012946 -0.0029509311094941 0.0161792893076096 -9.67208939578207E-07 -5.79657854945484E-07
1.65 -1.72823968389804E-06 -1.94433151622865E-06 -0.000596142483422507 0.0167265327384168 -0.000558751905705935 0.0167396368916659 -4.30585603335736E-07 -3.94678720987084E-07
1.7 -1.88561336911892E-06 -2.30993400637335E-06 0.00179175263709796 0.0173053189703582 0.00177044235531894 0.017289056603681 1.68758104397982E-07 -4.20318412872908E-07
1.75 -2.17853942429326E-06 -2.66108323391058E-06 0.00436452279554313 0.0173809441196298 0.0043849405764828 0.0174013025106521 7.56745677225843E-07 -6.26185481147559E-07
1.8 -2.49723245057404E-06 -2.91135660804375E-06 0.00685345969912538 0.0169533939925368 0.00687095773679184 0.016914082256059 1.22937584977093E-06 -9.52840529784496E-07
1.85 -2.95147784680827E-06 -3.02865148090697E-06 0.00937655133065836 0.0160515633756834 0.00934958207942608 0.0160812586546493 1.56165946838611E-06 -1.4826897830632E-06
1.9 -3.44325647098789E-06 -3.08705850103298E-06 0.0116369768160792 0.0147902936835722 0.0116913289687128 0.0147474987491079 1.7961502191632E-06 -2.09179156437729E-06
1.95 -4.01578668957902E-06 -3.04384013456686E-06 0.0137502402171322 0.0131665529178754 0.0137211160121888 0.0131654738502323 1.85506635617166E-06 -2.7670502561392E-06
2 -4.50513286643136E-06 -2.80229245811354E-06 0.0158475908656825 0.0112614474807736 0.0158645675600115 0.0112623615559224 1.71078828853836E-06 -3.42792639597177E-06
2.05 -5.0149851399381E-06 -2.37859407482655E-06 0.0175439970771171 0.00927283543429974 0.0175343952505906 0.00924216419998137 1.4044413466571E-06 -4.06101323930371E-06
2.1 -5.39183062790367E-06 -1.77301368528278E-06 0.0190655918699919 0.00659139557779081 0.0190516375413686 0.00658319681584818 8.5835692168235E-07 -4.54068619538941E-06
2.15 -5.81862613889224E-06 -1.08423511186458E-06 0.0199223062449171 0.00411511877464659 0.0198990152016289 0.00412266214770581 1.58052507730817E-07 -5.03592964279685E-06
2.2 -6.02197590702587E-06 -3.58262721755977E-07 0.0207524160770733 0.00113718107293836 0.0207473472827196 0.00113386273080901 -6.59532636948316E-07 -5.36197657960196E-06
2.25 -6.17113301144935E-06 2.55505964313947E-07 0.0209127203345745 -0.00177750757690936 0.0208701623819762 -0.00177628153475511 -1.35211544484929E-06 -5.54801637373215E-06
2.3 -5.93850902257461E-06 9.08222091891627E-07 0.0208940036872404 -0.00471010295832663 0.0208999654926659 -0.00461647318101063 -2.12426190776938E-06 -5.38598992589105E-06
2.35 -5.58471521567573E-06 1.5253000376975E-06 0.0201529178307002 -0.00776479624674071 0.0201399672283946 -0.00781147338416448 -2.84180558504624E-06 -4.99521443433612E-06
2.4 -5.08008139021414E-06 2.15803332763885E-06 0.0190762147220834 -0.0104794761593134 0.0190514669036069 -0.0104023570012369 -3.46659099476705E-06 -4.47082404540819E-06
2.45 -4.5277461412937E-06 2.68644008308393E-06 0.0172027876971089 -0.0130685139340951 0.017240154881395 -0.0130452061769599 -3.98727614416157E-06 -3.86259907650276E-06
2.5 -3.84024036008164E-06 2.99909441745337E-06 0.0154281907633796 -0.0153899126766192 0.0154270167977277 -0.0153418259350001 -4.30280133206264E-06 -3.20278359684198E-06
2.55 -3.10005512367119E-06 3.15160320801969E-06 0.013316373608891 -0.0178895228867315 0.0133930702500924 -0.0178626323737447 -4.45983560602855E-06 -2.47494444483104E-06
2.6 -2.36579544208708E-06 3.11726610272528E-06 0.0109262838965847 -0.0198275749592397 0.0109173218183868 -0.0198022578543559 -4.37016032403847E-06 -1.77567240678004E-06
2.65 -1.68939123733965E-06 2.86819481012012E-06 0.00793860359399958 -0.0211594538609138 0.00807179592362396 -0.0211239042159428 -4.19836166048138E-06 -1.19373766799913E-06
2.7 -1.13987027340834E-06 2.43425752064156E-06 0.00506209130836611 -0.0223136953565815 0.00501516295395835 -0.0223555327186132 -3.8132147389047E-06 -7.84648110811464E-07
2.75 -6.82301475302524E-07 1.96626596858106E-06 0.00184306316164776 -0.0230932565141214 0.00187026028116918 -0.0230512187279818 -3.33832182465981E-06 -5.31320035383572E-07
2.8 -3.73621081043348E-07 1.35241242969739E-06 -0.00145681987617947 -0.0236765470860269 -0.0014192639623263 -0.0237182066046837 -2.77263639971057E-06 -3.79292077428465E-07
2.85 -2.82460874812778E-07 6.6345000851609E-07 -0.00474333598756966 -0.0234048305868176 -0.00477591504207025 -0.0233913759692921 -2.30689344721424E-06 -4.52619050637509E-07
2.9 -3.42225539958665E-07 -9.71706138706552E-08 -0.00810993351006514 -0.0226460567176971 -0.00806444910890726 -0.0226748793716621 -1.91541084887812E-06 -6.75131412541291E-07
2.95 -6.05170267610695E-07 -7.50254436974551E-07 -0.0111975943199315 -0.0214671334119148 -0.0112599875921809 -0.0214355782551798 -1.65202771502176E-06 -1.07517000292977E-06
3 -1.0904435094034E-06 -1.27498423715746E-06 -0.0142714798128028 -0.0196421421097246 -0.0141825035506713 -0.0196727374880225 -1.54860627720541E-06 -1.50561418490927E-06
3.05 -1.80708209000034E-06 -1.71118426833582E-06 -0.0166692503959466 -0.0174918063698737 -0.0167540653078242 -0.017490228783471 -1.68636482031617E-06 -2.07527354996877E-06
3.1 -2.36392868018474E-06 -2.0387019872458E-06 -0.0193497018820723 -0.0152143500162947 -0.0192829387888184 -0.0151454960288866 -1.94608514104599E-06 -2.54812999668384E-06
3.15 -3.06161679904589E-06 -2.12130620142402E-06 -0.0212368559437832 -0.0120110226706815 -0.0212264772898641 -0.0121746782956551 -2.23954859737403E-06 -3.00434114976978E-06
3.2 -3.82836096615771E-06 -1.67967559016615E-06 -0.0228630128010947 -0.00957295092899127 -0.0228930385132054 -0.0094119717598096 -2.90321073792448E-06 -2.92387239807075E-06
3.25 -4.72641486253588E-06 -1.3019391476563E-06 -0.024247521750206 -0.005660581299236 -0.024206093320092 -0.00586606140209115 -3.6889053667721E-06 -3.05398004580908E-06
3.3 -5.77499765049303E-06 -6.13754543934299E-07 -0.0248271282854787 -0.00276599384815216 -0.0248819201472825 -0.00257118097114102 -4.81082927007392E-06 -3.09497809698227E-06
3.35 -6.04378308015766E-06 -3.18381899297054E-07 -0.025135314769594 0.000993102449525325 -0.0250569517441405 0.00072887420954978 -5.20791215411704E-06 -3.07465584809097E-06
3.4 -6.30510146221296E-06 4.07123800335966E-07 -0.0247033684058858 0.00465571557119749 -0.0248318593071191 0.00478779257182449 -5.70266062677765E-06 -2.61807699947882E-06
3.45 -5.85287839137292E-06 1.31551559785508E-06 -0.0241870592848978 0.00768745759334277 -0.0240201110588743 0.00759420470103567 -5.82254351046E-06 -1.47413379101084E-06
3.5 -5.75367130997245E-06 2.38072953730574E-06 -0.0222161079092669 0.0115045941465214 -0.022512835557205 0.0113581939524935 -6.23258059073447E-06 -5.30924055586108E-07
3.55 -5.18378567074295E-06 3.46349386706545E-06 -0.0209039475671522 0.0138053191508455 -0.0206910877801665 0.0140017225722758 -6.48341965029258E-06 6.11081680301415E-07
3.6 -4.75393545845965E-06 4.20185476798045E-06 -0.0182214411902709 0.0171017639607 -0.0184840281134139 0.0168772315985237 -6.4464238235009E-06 1.25652875016849E-06
3.65 -4.09243706465964E-06 4.787636167651E-06 -0.0159709594890408 0.0190875891587208 -0.0158122463507702 0.0192990317491863 -6.04280727279962E-06 2.11188753909861E-06
3.7 -3.44752739594626E-06 4.69787603284719E-06 -0.0134302679293163 0.0219307399758046 -0.0135656048164581 0.0217667370203096 -5.61719970120343E-06 2.39949615127843E-06
3.75 -2.42162859352957E-06 4.88203492293941E-06 -0.00998464394273698 0.0233960743024304 -0.00989518060663533 0.0235270375942126 -4.8528314128764E-06 2.77772756853511E-06
3.8 -1.63255399426788E-06 4.47607077772458E-06 -0.00691558444398678 0.0247278843987132 -0.00701570551281594 0.024606390540312 -3.88798420994736E-06 2.91209199909618E-06
3.85 -7.49207918938394E-07 3.94435476254355E-06 -0.0029120125997717 0.0251509333115333 -0.00304886346906586 0.0252563724341026 -2.83138283109155E-06 3.13811161063465E-06
3.9 -1.68333840329269E-07 3.20261389121449E-06 0.000246705228684032 0.0254747975327252 0.000326480937764934 0.0254273823649866 -2.06579831910088E-06 2.99830245785845E-06
3.95 3.3564944689363E-07 2.65428086667557E-06 0.00407252873302275 0.0247046587124716 0.00400666934937458 0.0248035493781994 -1.27430541464753E-06 2.51590006959736E-06
4 -7.67917964368605E-09 2.0552058595187E-06 0.00748204464561036 0.0242310966434239 0.00761012789146778 0.024223283752438 -1.2335902061868E-06 1.68612440401057E-06
4.05 -2.5665147729947E-07 9.39249937450092E-07 0.0109426837364876 0.0233063661508387 0.0109852003516635 0.0232757262381891 -9.97614531169229E-07 8.55882047948197E-07
4.1 -6.55289996261197E-07 1.82956808564207E-07 0.014285561232457 0.021716701291919 0.0142923031672225 0.0216952806577167 -1.00310167979124E-06 -1.53442171517481E-07
4.15 -1.06832520928788E-06 -3.10349166262776E-07 0.0169985535013774 0.0192828798691754 0.0170422501756945 0.0192548017136228 -1.35483073488905E-06 -5.86361227231134E-07
4.2 -2.12533671007678E-06 -3.75049436741345E-07 0.019556729894393 0.0169437200177175 0.0194570965602785 0.0169414717688912 -2.08766206077516E-06 -1.14689891481333E-06
4.25 -3.24587468408748E-06 -5.0549649573464E-07 0.0221395543018365 0.0139268895217808 0.0221725539293062 0.0139859583541851 -3.03316282217094E-06 -1.75840485918346E-06
4.3 -4.30572875413675E-06 -4.21082088196589E-07 0.023771161605557 0.0108410559818452 0.0237203038860172 0.0107810932047137 -3.79323190126837E-06 -2.05268855937768E-06
4.35 -4.94427446181945E-06 -6.57609306503494E-08 0.0251019050676317 0.00755136724135476 0.025096221814794 0.00777825318077893 -4.66720174067932E-06 -1.99592202698402E-06
4.4 -5.78703260790882E-06 9.08943340808437E-07 0.0255920297506273 0.00362944493988737 0.0256155382265808 0.00340709056575091 -5.69823413832742E-06 -1.46218368640879E-06
4.45 -6.3147746829796E-06 1.99996667777241E-06 0.0258123620197007 0.000178049895810773 0.0257772345266325 0.000449451209661853 -6.58952809387743E-06 -7.7443748889113E-07
4.5 -6.55134432769336E-06 2.95003534897465E-06 0.0258154276691245 -0.0034157092476203 0.025928639712374 -0.00354891905800849 -7.11526198568964E-06 -9.71706138706547E-08
4.55 -6.40952699165859E-06 4.17941119874559E-06 0.0251147028727782 -0.00696153586519876 0.025033879492528 -0.00697866789704824 -7.43709456607887E-06 9.23453171958383E-07
4.6 -5.99772214443117E-06 5.45097303908211E-06 0.0237901755431264 -0.0107381592244817 0.0238990746069765 -0.0107246222978282 -7.58545971090744E-06 2.11334417906786E-06
4.65 -5.20953849971377E-06 6.51663952687273E-06 0.0219784019589033 -0.013369727581606 0.0219328219436335 -0.0134640440483885 -7.19554688962556E-06 3.31832484488785E-06
4.7 -4.97525988097105E-06 7.09723076276939E-06 0.0200542181625549 -0.0164982175445988 0.0200487514308082 -0.0165792480347458 -7.29056789888141E-06 3.90967824599417E-06
4.75 -3.14258052549175E-06 7.38831834031263E-06 0.0164645806364105 -0.0189623715702628 0.0164109781612986 -0.0189921511974406 -6.10752168541382E-06 4.80425317700889E-06
4.8 -1.79366120329342E-06 7.56778204137778E-06 0.0143767695819159 -0.0207312774471001 0.0144239365766981 -0.0207601362267326 -5.13933693847757E-06 5.27271141954498E-06
4.85 -6.66462283403945E-07 8.07719590868019E-06 0.0112155553413486 -0.0232976008733038 0.0110393080993056 -0.0234207338655786 -4.65532234675538E-06 6.10842678209373E-06
4.9 5.33116086607786E-07 7.13576808234405E-06 0.00768723051718846 -0.0244073133135305 0.00758600446172406 -0.0243817821460041 -3.56011293764678E-06 5.93873529674458E-06
4.95 1.59724108161542E-06 6.27803341462914E-06 0.00440911418445793 -0.0255526211062019 0.00443555353274748 -0.0255666767040536 -2.65326263291066E-06 5.62135748907682E-06
5 2.45218974861245E-06 5.18879198675375E-06 0.000732990187827703 -0.0254444335997402 0.00060401510239147 -0.025470843464429 -1.87960296147883E-06 5.05742568894492E-06
5.05 2.78897056635598E-06 4.12220626014759E-06 -0.00288265836687069 -0.0256949438243405 -0.00296342521242194 -0.0256109509281616 -1.30462615342481E-06 4.390737131371E-06
5.1 2.65723657302092E-06 2.72485012343798E-06 -0.00685137284146923 -0.0251528143678212 -0.00666842640186787 -0.0251782331184173 -1.06085816167855E-06 3.36563028854923E-06
5.15 2.15755249502764E-06 1.12226331455679E-06 -0.00997915303920529 -0.0241802764581639 -0.0100395691344382 -0.0242558564536524 -1.10366640621159E-06 2.46570963026874E-06
5.2 1.55938258455069E-06 6.36396103067893E-10 -0.0132165265013094 -0.0224033866174443 -0.0133391686590166 -0.0222718479915596 -1.60296864654303E-06 1.76236465715811E-06
5.25 4.55447477762255E-07 -8.87192736219138E-07 -0.0162705097278196 -0.0198668567759451 -0.0160547245638702 -0.0199951422072869 -2.18152341490987E-06 7.89046314990444E-07
5.3 -9.88591848641288E-07 -1.2186278266969E-06 -0.018346473089415 -0.0170458114593095 -0.0184766913894981 -0.0170768208726661 -2.70749772302766E-06 3.54614050765053E-07
5.35 -2.53381815543263E-06 -9.39971186366901E-07 -0.0203412369852612 -0.0144354190762978 -0.0202827574217033 -0.0143564795876979 -3.79400971872767E-06 6.85851151344079E-07
5.4 -3.92222232029241E-06 -8.98831713837468E-07 -0.0222312343574376 -0.0112672035061082 -0.0222468078091861 -0.0113820242673429 -5.05516294724512E-06 6.57213326706023E-07
5.45 -5.37693895909187E-06 -1.44348778311422E-07 -0.0235932179453233 -0.00793030606472469 -0.0235423959784365 -0.00785270517778577 -6.08831666523679E-06 1.39509339500981E-06
5.5 -6.67068981022203E-06 1.10396339105969E-06 -0.0244177913364135 -0.00451628221569557 -0.024488589602594 -0.00474423155983925 -6.9722142838556E-06 2.19235629079765E-06
5.55 -7.18492614577213E-06 2.42729958991468E-06 -0.0250544727205834 -0.00166914043456049 -0.0250204712851132 -0.00131014748028167 -7.33552574802924E-06 3.0954730717291E-06
5.6 -7.80405470124346E-06 4.52520055688143E-06 -0.0250618704289482 0.00296839497148608 -0.0250456694962299 0.0024545202954879 -8.10159109263112E-06 4.87417189553261E-06
5.65 -7.36222610008685E-06 5.45163771945642E-06 -0.0239229959894323 0.00579874862160666 -0.0240637477212061 0.00618286552704566 -7.83057120553794E-06 5.41198317116747E-06
5.7 -6.21964053663875E-06 6.85808724937208E-06 -0.0233269686977331 0.00863108957438716 -0.0230571437295635 0.00857381013559821 -6.78152172710522E-06 6.54140240634989E-06
5.75 -5.1821451830106E-06 9.4246727330449E-06 -0.0210072580271604 0.0127936127658748 -0.0212895789103413 0.0126372685511927 -5.87310164531485E-06 9.04784138721496E-06
5.8 -4.61319292473228E-06 9.8601797995777E-06 -0.0191766073176708 0.0147807513591337 -0.0188663358771687 0.0150200555063599 -5.38178971161082E-06 9.33446004990112E-06
