# GHZ S RI R 50
0.5 0.0001 0.0001 0.783880750947337 0 0.783880750947337 0 0.0001 0.0001
0.55 0.0001 0.0001 0.787227034551169 0 0.787227034551169 0 0.0001 0.0001
0.6 0.0001 0.0001 0.767361489361819 0 0.767361489361819 0 0.0001 0.0001
0.65 0.0001 0.0001 0.803063708474057 0 0.803063708474057 0 0.0001 0.0001
0.7 0.0001 0.0001 0.783519843629333 0 0.783519843629333 0 0.0001 0.0001
0.75 0.0001 0.0001 0.809002753932544 0 0.809002753932544 0 0.0001 0.0001
0.8 0.0001 0.0001 0.810494365480887 0 0.810494365480887 0 0.0001 0.0001
0.85 0.0001 0.0001 0.815455000061117 0 0.815455000061117 0 0.0001 0.0001
0.9 0.0001 0.0001 0.808257977894676 0 0.808257977894676 0 0.0001 0.0001
0.95 0.0001 0.0001 0.815548888192006 0 0.815548888192006 0 0.0001 0.0001
1 0.0001 0.0001 0.802139679228185 0 0.802139679228185 0 0.0001 0.0001
1.05 0.0001 0.0001 0.796159350417319 0 0.796159350417319 0 0.0001 0.0001
1.1 0.0001 0.0001 0.785687782702954 0 0.785687782702954 0 0.0001 0.0001
1.15 0.0001 0.0001 0.790041673009072 0 0.790041673009072 0 0.0001 0.0001
1.2 0.0001 0.0001 0.763484105183097 0 0.763484105183097 0 0.0001 0.0001
1.25 0.0001 0.0001 0.773837906767921 0 0.773837906767921 0 0.0001 0.0001
1.3 0.0001 0.0001 0.772769548356585 0 0.772769548356585 0 0.0001 0.0001
1.35 0.0001 0.0001 0.771169775676706 0 0.771169775676706 0 0.0001 0.0001
1.4 0.0001 0.0001 0.770016444356872 0 0.770016444356872 0 0.0001 0.0001
1.45 0.0001 0.0001 0.763659924136158 0 0.763659924136158 0 0.0001 0.0001
1.5 0.0001 0.0001 0.768245455679267 0 0.768245455679267 0 0.0001 0.0001
1.55 0.0001 0.0001 0.750585205590237 0 0.750585205590237 0 0.0001 0.0001
1.6 0.0001 0.0001 0.761991277487391 0 0.761991277487391 0 0.0001 0.0001
1.65 0.0001 0.0001 0.760238746181399 0 0.760238746181399 0 0.0001 0.0001
1.7 0.0001 0.0001 0.761289780685584 0 0.761289780685584 0 0.0001 0.0001
1.75 0.0001 0.0001 0.765861080281708 0 0.765861080281708 0 0.0001 0.0001
1.8 0.0001 0.0001 0.757704732865862 0 0.757704732865862 0 0.0001 0.0001
1.85 0.0001 0.0001 0.74079833915274 0 0.74079833915274 0 0.0001 0.0001
1.9 0.0001 0.0001 0.738244125843045 0 0.738244125843045 0 0.0001 0.0001
1.95 0.0001 0.0001 0.733330925274151 0 0.733330925274151 0 0.0001 0.0001
2 0.0001 0.0001 0.727863598106723 0 0.727863598106723 0 0.0001 0.0001
2.05 0.0001 0.0001 0.7211074791829 0 0.7211074791829 0 0.0001 0.0001
2.1 0.0001 0.0001 0.727026096368617 0 0.727026096368617 0 0.0001 0.0001
2.15 0.0001 0.0001 0.731139083483417 0 0.731139083483417 0 0.0001 0.0001
2.2 0.0001 0.0001 0.731054912831036 0 0.731054912831036 0 0.0001 0.0001
2.25 0.0001 0.0001 0.71994612744084 0 0.71994612744084 0 0.0001 0.0001
2.3 0.0001 0.0001 0.734344759558867 0 0.734344759558867 0 0.0001 0.0001
2.35 0.0001 0.0001 0.726273168760684 0 0.726273168760684 0 0.0001 0.0001
2.4 0.0001 0.0001 0.717629032054771 0 0.717629032054771 0 0.0001 0.0001
2.45 0.0001 0.0001 0.713592045072779 0 0.713592045072779 0 0.0001 0.0001
2.5 0.0001 0.0001 0.699841996002273 0 0.699841996002273 0 0.0001 0.0001
2.55 0.0001 0.0001 0.70412538223409 0 0.70412538223409 0 0.0001 0.0001
2.6 0.0001 0.0001 0.686198872298894 0 0.686198872298894 0 0.0001 0.0001
2.65 0.0001 0.0001 0.688493746547515 0 0.688493746547515 0 0.0001 0.0001
2.7 0.0001 0.0001 0.687701544944209 0 0.687701544944209 0 0.0001 0.0001
2.75 0.0001 0.0001 0.670424690224632 0 0.670424690224632 0 0.0001 0.0001
2.8 0.0001 0.0001 0.682574406281196 0 0.682574406281196 0 0.0001 0.0001
2.85 0.0001 0.0001 0.675693902741645 0 0.675693902741645 0 0.0001 0.0001
2.9 0.0001 0.0001 0.661835410937161 0 0.661835410937161 0 0.0001 0.0001
2.95 0.0001 0.0001 0.68233869414167 0 0.68233869414167 0 0.0001 0.0001
3 0.0001 0.0001 0.673907050439862 0 0.673907050439862 0 0.0001 0.0001
3.05 0.0001 0.0001 0.677485492849846 0 0.677485492849846 0 0.0001 0.0001
3.1 0.0001 0.0001 0.658491237184813 0 0.658491237184813 0 0.0001 0.0001
3.15 0.0001 0.0001 0.673441692688718 0 0.673441692688718 0 0.0001 0.0001
3.2 0.0001 0.0001 0.66443117303846 0 0.66443117303846 0 0.0001 0.0001
3.25 0.0001 0.0001 0.6347460398327 0 0.6347460398327 0 0.0001 0.0001
3.3 0.0001 0.0001 0.680455924994638 0 0.680455924994638 0 0.0001 0.0001
3.35 0.0001 0.0001 0.627913759680094 0 0.627913759680094 0 0.0001 0.0001
3.4 0.0001 0.0001 0.654176592039539 0 0.654176592039539 0 0.0001 0.0001
3.45 0.0001 0.0001 0.647187320320809 0 0.647187320320809 0 0.0001 0.0001
3.5 0.0001 0.0001 0.639307795346733 0 0.639307795346733 0 0.0001 0.0001
3.55 0.0001 0.0001 0.645929322275919 0 0.645929322275919 0 0.0001 0.0001
3.6 0.0001 0.0001 0.633607048682303 0 0.633607048682303 0 0.0001 0.0001
3.65 0.0001 0.0001 0.66288776001569 0 0.66288776001569 0 0.0001 0.0001
3.7 0.0001 0.0001 0.623146270307512 0 0.623146270307512 0 0.0001 0.0001
3.75 0.0001 0.0001 0.64873898949265 0 0.64873898949265 0 0.0001 0.0001
3.8 0.0001 0.0001 0.644169265515177 0 0.644169265515177 0 0.0001 0.0001
3.85 0.0001 0.0001 0.621012011068541 0 0.621012011068541 0 0.0001 0.0001
3.9 0.0001 0.0001 0.629941180548559 0 0.629941180548559 0 0.0001 0.0001
3.95 0.0001 0.0001 0.610239056644663 0 0.610239056644663 0 0.0001 0.0001
4 0.0001 0.0001 0.616453041959877 0 0.616453041959877 0 0.0001 0.0001
4.05 0.0001 0.0001 0.590744925867226 0 0.590744925867226 0 0.0001 0.0001
4.1 0.0001 0.0001 0.613055792149821 0 0.613055792149821 0 0.0001 0.0001
4.15 0.0001 0.0001 0.589114890329541 0 0.589114890329541 0 0.0001 0.0001
4.2 0.0001 0.0001 0.58472276157344 0 0.58472276157344 0 0.0001 0.0001
4.25 0.0001 0.0001 0.597791864058807 0 0.597791864058807 0 0.0001 0.0001
4.3 0.0001 0.0001 0.586475669896578 0 0.586475669896578 0 0.0001 0.0001
4.35 0.0001 0.0001 0.589997267139773 0 0.589997267139773 0 0.0001 0.0001
4.4 0.0001 0.0001 0.604087709699073 0 0.604087709699073 0 0.0001 0.0001
4.45 0.0001 0.0001 0.607365333320067 0 0.607365333320067 0 0.0001 0.0001
4.5 0.0001 0.0001 0.611153073250117 0 0.611153073250117 0 0.0001 0.0001
4.55 0.0001 0.0001 0.611153073250117 0 0.611153073250117 0 0.0001 0.0001
4.6 0.0001 0.0001 0.60904586642816 0 0.60904586642816 0 0.0001 0.0001
4.65 0.0001 0.0001 0.598067220784148 0 0.598067220784148 0 0.0001 0.0001
4.7 0.0001 0.0001 0.601450651977548 0 0.601450651977548 0 0.0001 0.0001
4.75 0.0001 0.0001 0.589047069875449 0 0.589047069875449 0 0.0001 0.0001
4.8 0.0001 0.0001 0.575174998461944 0 0.575174998461944 0 0.0001 0.0001
4.85 0.0001 0.0001 0.576169148666153 0 0.576169148666153 0 0.0001 0.0001
4.9 0.0001 0.0001 0.569508224127931 0 0.569508224127931 0 0.0001 0.0001
4.95 0.0001 0.0001 0.563767453135264 0 0.563767453135264 0 0.0001 0.0001
5 0.0001 0.0001 0.558213068917726 0 0.558213068917726 0 0.0001 0.0001
5.05 0.0001 0.0001 0.550173920510715 0 0.550173920510715 0 0.0001 0.0001
5.1 0.0001 0.0001 0.556865099331278 0 0.556865099331278 0 0.0001 0.0001
5.15 0.0001 0.0001 0.540505353708669 0 0.540505353708669 0 0.0001 0.0001
5.2 0.0001 0.0001 0.56539244372978 0 0.56539244372978 0 0.0001 0.0001
5.25 0.0001 0.0001 0.540941125129766 0 0.540941125129766 0 0.0001 0.0001
5.3 0.0001 0.0001 0.560918804833818 0 0.560918804833818 0 0.0001 0.0001
5.35 0.0001 0.0001 0.552331738887285 0 0.552331738887285 0 0.0001 0.0001
5.4 0.0001 0.0001 0.55660871251575 0 0.55660871251575 0 0.0001 0.0001
5.45 0.0001 0.0001 0.554242723383398 0 0.554242723383398 0 0.0001 0.0001
5.5 0.0001 0.0001 0.529907419094754 0 0.529907419094754 0 0.0001 0.0001
5.55 0.0001 0.0001 0.542063294152335 0 0.542063294152335 0 0.0001 0.0001
5.6 0.0001 0.0001 0.511799668202461 0 0.511799668202461 0 0.0001 0.0001
5.65 0.0001 0.0001 0.521254719317982 0 0.521254719317982 0 0.0001 0.0001
5.7 0.0001 0.0001 0.514695060061419 0 0.514695060061419 0 0.0001 0.0001
5.75 0.0001 0.0001 0.52203545510331 0 0.52203545510331 0 0.0001 0.0001
5.8 0.0001 0.0001 0.517011257968655 0 0.517011257968655 0 0.0001 0.0001
