# GHZ S RI R 50
0.5 5.29904407607636E-06 -3.40111290682917E-06 0.000827142494126072 -0.0058990059770686 0.000829721302365986 -0.00589527101365595 5.42531920506065E-06 -1.16966775316754E-06
0.55 4.78593911137616E-06 -4.30807634865029E-06 1.13026464179954E-05 -0.00650085228833796 2.03039174288306E-05 -0.00650343750809548 5.44484949435703E-06 -1.69346417239929E-06
0.6 4.0722703792602E-06 -5.141500685228E-06 -0.000981801895027025 -0.00681493454801704 -0.000990488241911958 -0.00681374590385682 5.31392160275253E-06 -2.33019968672215E-06
0.65 3.26342507439653E-06 -5.88855899955159E-06 -0.00207842693854095 -0.00721570318651643 -0.00207108664855382 -0.00721436821238191 5.07443867810027E-06 -2.93545480714659E-06
0.7 2.3856510005028E-06 -6.45324033287154E-06 -0.00334712493639131 -0.00736455875972205 -0.00334874172270841 -0.00736656782179795 4.80083078018794E-06 -3.51027605170875E-06
0.75 1.3757186692053E-06 -6.72375110308227E-06 -0.00471517769662441 -0.007495206799984 -0.00471068430304857 -0.00749434312215913 4.41609398054435E-06 -4.01107735841632E-06
0.8 2.25284220486033E-07 -6.8057754896999E-06 -0.00612350865214365 -0.00713914769986089 -0.00612838775494689 -0.00713575358145887 3.86513051877941E-06 -4.55900026102215E-06
0.85 -8.17867987391608E-07 -6.7526717704328E-06 -0.00744684958403942 -0.00659273683862132 -0.00743572583024063 -0.00659654147732327 3.32887487806316E-06 -5.02870301149313E-06
0.9 -1.71490365000486E-06 -6.57091704339661E-06 -0.00853619518404333 -0.00562532857499699 -0.00854213894692348 -0.00563263606684858 2.77758614717888E-06 -5.41236500882932E-06
0.95 -2.47811228321075E-06 -6.09726863708661E-06 -0.00943812528717161 -0.00444161927690892 -0.00943529963345034 -0.00443034259325778 2.17535744377792E-06 -5.61572891909857E-06
1 -3.10991219220093E-06 -5.51076598849924E-06 -0.0106578427244814 -0.00332346016561526 -0.0106560649744396 -0.00334083704269671 1.51745115242633E-06 -5.71900893555868E-06
1.05 -3.56241810575345E-06 -4.79189295047375E-06 -0.0115492042001988 -0.00183080419978708 -0.0115552030911362 -0.00181174241657576 7.59757952113699E-07 -5.63166710594652E-06
1.1 -3.84895191562587E-06 -3.98857722063896E-06 -0.012252979949184 -0.000252138422293584 -0.0122440304339563 -0.000258721918788434 8.44851182161687E-08 -5.40731626641165E-06
1.15 -3.97616042556132E-06 -3.2069131004441E-06 -0.0126000687583092 0.00159811912546409 -0.0126005034061403 0.00160231135682828 -5.34035325423329E-07 -5.05950458288161E-06
1.2 -3.99248045007111E-06 -2.53790523262789E-06 -0.0128571436102825 0.00345775888132213 -0.012851979524916 0.00345226844980462 -1.11983086722951E-06 -4.70439555736973E-06
1.25 -3.82619721940728E-06 -1.98605081631866E-06 -0.012742822524654 0.00548539821205339 -0.0127533100647368 0.0054719238040825 -1.63591982254633E-06 -4.20632368283755E-06
1.3 -3.54595665988743E-06 -1.54098366610422E-06 -0.0122053586176722 0.00741427656743861 -0.012193139102052 0.00743174324145226 -1.99532805728782E-06 -3.64184033941632E-06
1.35 -3.22565143014554E-06 -1.23978446159E-06 -0.0113160528550804 0.00928868063999937 -0.0113272272873189 0.00925953695598767 -2.21447459091316E-06 -3.05499827957398E-06
1.4 -2.85693767016363E-06 -1.09772670924962E-06 -0.0102193701076092 0.0111709596629455 -0.0102259730896801 0.0111916097247893 -2.30953802657588E-06 -2.46042047154546E-06
1.45 -2.46695413820363E-06 -1.07360022587554E-06 -0.00878692896672287 0.0127333324243392 -0.00875479784710969 0.0127321361835725 -2.20458923811217E-06 -1.84687805964552E-06
1.5 -2.08129809974448E-06 -1.14811513847697E-06 -0.00696065368923244 0.0141349170944537 -0.00699873736615043 0.014126748410564 -1.87183892902141E-06 -1.29140325661662E-06
1.55 -1.88487797806648E-06 -1.33056283015873E-06 -0.00503644332455121 0.0152072846155298 -0.00500782557086539 0.0152146047630371 -1.53654303551837E-06 -8.79103434642364E-07
1.6 -1.69151255768321E-06 -1.64895887159141E-06 -0.00292013641073035 0.0162457483444895 -0.00296148181954708 0.0162371364697472 -9.67208939578207E-07 -5.79657854945484E-07
1.65 -1.72823968389804E-06 -1.94433151622865E-06 -0.000597241630500075 0.0167573725461616 -0.000559782113317908 0.0167705008603994 -4.30585603335736E-07 -3.94678720987084E-07
1.7 -1.88561336911892E-06 -2.30993400637335E-06 0.00179588305350317 0.0173452118505988 0.00177452364645114 0.0173289119952947 1.68758104397982E-07 -4.20318412872908E-07
1.75 -2.17853942429326E-06 -2.66108323391058E-06 0.00435448467166838 0.0173409690574509 0.004374855493015 0.0173612806254733 7.56745677225843E-07 -6.26185481147559E-07
1.8 -2.49723245057404E-06 -2.91135660804375E-06 0.00685188181337931 0.0169494907786999 0.00686937582243753 0.0169101880930418 1.22937584977093E-06 -9.52840529784496E-07
1.85 -2.95147784680827E-06 -3.02865148090697E-06 0.00934314600169987 0.0159943773447053 0.00931627283235073 0.0160239668299175 1.56165946838611E-06 -1.4826897830632E-06
1.9 -3.44325647098789E-06 -3.08705850103298E-06 0.0115595298048379 0.0146918605544805 0.0116135202302082 0.0146493504310821 1.7961502191632E-06 -2.09179156437729E-06
1.95 -4.01578668957902E-06 -3.04384013456686E-06 0.0137803511815696 0.0131953856946424 0.0137511631989841 0.013194304264003 1.85506635617166E-06 -2.7670502561392E-06
2 -4.50513286643136E-06 -2.80229245811354E-06 0.0159152421422446 0.0113095211157172 0.015932291307844 0.0113104390929322 1.71078828853836E-06 -3.42792639597177E-06
2.05 -5.0149851399381E-06 -2.37859407482655E-06 0.0175399578875498 0.00927070053083495 0.017530358271671 0.00924003635801625 1.4044413466571E-06 -4.06101323930371E-06
2.1 -5.39183062790367E-06 -1.77301368528278E-06 0.0190064186879592 0.00657093810376985 0.0189925076688766 0.00656276478802559 8.5835692168235E-07 -4.54068619538941E-06
2.15 -5.81862613889224E-06 -1.08423511186458E-06 0.0199062572308922 0.00411180371673529 0.0198829849504057 0.00411934101300308 1.58052507730817E-07 -5.03592964279685E-06
2.2 -6.02197590702587E-06 -3.58262721755977E-07 0.0207118392251619 0.00113495756181456 0.0207067803417371 0.00113164570798406 -6.59532636948316E-07 -5.36197657960196E-06
2.25 -6.17113301144935E-06 2.55505964313947E-07 0.0207974711098184 -0.00176771179869593 0.0207551476925156 -0.00176649251321444 -1.35211544484929E-06 -5.54801637373215E-06
2.3 -5.93850902257461E-06 9.08222091891627E-07 0.020867559813541 -0.0047041417567491 0.020873514073585 -0.00461063047917316 -2.12426190776938E-06 -5.38598992589105E-06
2.35 -5.58471521567573E-06 1.5253000376975E-06 0.0200557050556628 -0.00772734075780917 0.0200428169239135 -0.00777379273607247 -2.84180558504624E-06 -4.99521443433612E-06
2.4 -5.08008139021414E-06 2.15803332763885E-06 0.0190981896732798 -0.0104915480499123 0.0190734133464168 -0.0104143400539945 -3.46659099476705E-06 -4.47082404540819E-06
2.45 -4.5277461412937E-06 2.68644008308393E-06 0.0171316356607037 -0.013014461567957 0.0171688482914777 -0.0129912502134754 -3.98727614416157E-06 -3.86259907650276E-06
2.5 -3.84024036008164E-06 2.99909441745337E-06 0.0153661475859517 -0.0153280234313124 0.0153649783413044 -0.0152801300664986 -4.30280133206264E-06 -3.20278359684198E-06
2.55 -3.10005512367119E-06 3.15160320801969E-06 0.0132536644574163 -0.0178052779688985 0.0133299999206099 -0.0177785140880791 -4.45983560602855E-06 -2.47494444483104E-06
2.6 -2.36579544208708E-06 3.11726610272528E-06 0.0108835977090642 -0.0197501137115916 0.0108746706434062 -0.0197248955141403 -4.37016032403847E-06 -1.77567240678004E-06
2.65 -1.68939123733965E-06 2.86819481012012E-06 0.00792125722834079 -0.0211132190767398 0.00805415852405407 -0.0210777471100573 -4.19836166048138E-06 -1.19373766799913E-06
2.7 -1.13987027340834E-06 2.43425752064156E-06 0.00503825302776822 -0.022208616230449 0.0049915456672565 -0.0222502565729654 -3.8132147389047E-06 -7.84648110811464E-07
2.75 -6.82301475302524E-07 1.96626596858106E-06 0.00185093095535387 -0.023191838582298 0.00187824417579372 -0.0231496213423903 -3.33832182465981E-06 -5.31320035383572E-07
2.8 -3.73621081043348E-07 1.35241242969739E-06 -0.00145229839747008 -0.0236030630504836 -0.00141485904453681 -0.023644593272012 -2.77263639971057E-06 -3.79292077428465E-07
2.85 -2.82460874812778E-07 6.6345000851609E-07 -0.00473297148964399 -0.0233536895083227 -0.00476547935678959 -0.0233402642900124 -2.30689344721424E-06 -4.52619050637509E-07
2.9 -3.42225539958665E-07 -9.71706138706552E-08 -0.00808197110921008 -0.022567974928871 -0.00803664353462252 -0.0225966982046348 -1.91541084887812E-06 -6.75131412541291E-07
2.95 -6.05170267610695E-07 -7.50254436974551E-07 -0.0111692684524365 -0.0214128293213085 -0.0112315038922523 -0.021381353987718 -1.65202771502176E-06 -1.07517000292977E-06
3 -1.0904435094034E-06 -1.27498423715746E-06 -0.0143027322138028 -0.0196851554559063 -0.0142135611069978 -0.0197158178334953 -1.54860627720541E-06 -1.50561418490927E-06
3.05 -1.80708209000034E-06 -1.71118426833582E-06 -0.0165792954284094 -0.0173974125107143 -0.0166636526398828 -0.0173958434376958 -1.68636482031617E-06 -2.07527354996877E-06
3.1 -2.36392868018474E-06 -2.0387019872458E-06 -0.0192342066745523 -0.015123538048073 -0.0191678420792885 -0.0150550950388605 -1.94608514104599E-06 -2.54812999668384E-06
3.15 -3.06161679904589E-06 -2.12130620142402E-06 -0.0212441921608178 -0.0120151718474407 -0.0212338099216195 -0.0121788840068272 -2.23954859737403E-06 -3.00434114976978E-06
3.2 -3.82836096615771E-06 -1.67967559016615E-06 -0.0228025522480491 -0.00954763554678503 -0.0228324985580628 -0.00938708208219804 -2.90321073792448E-06 -2.92387239807075E-06
3.25 -4.72641486253588E-06 -1.3019391476563E-06 -0.0241973249962923 -0.00564886287252777 -0.0241559823305188 -0.00585391759441972 -3.6889053667721E-06 -3.05398004580908E-06
3.3 -5.77499765049303E-06 -6.13754543934299E-07 -0.0248557280334039 -0.00276918015008407 -0.0249105830129964 -0.00257414285730035 -4.81082927007392E-06 -3.09497809698227E-06
3.35 -6.04378308015766E-06 -3.18381899297054E-07 -0.02514689267552 0.000993559895427271 -0.0250684935542489 0.000729209945827897 -5.20791215411704E-06 -3.07465584809097E-06
3.4 -6.30510146221296E-06 4.07123800335966E-07 -0.0246371901344301 0.00464324329600694 -0.0247653368192147 0.00477496647332301 -5.70266062677765E-06 -2.61807699947882E-06
3.45 -5.85287839137292E-06 1.31551559785508E-06 -0.0241940218821172 0.0076896705399533 -0.0240270255976157 0.00759639080344323 -5.82254351046E-06 -1.47413379101084E-06
3.5 -5.75367130997245E-06 2.38072953730574E-06 -0.0221420576013284 0.0114662472523338 -0.0224377962023194 0.0113203350366455 -6.23258059073447E-06 -5.30924055586108E-07
3.55 -5.18378567074295E-06 3.46349386706545E-06 -0.0209188741604263 0.0138151769245182 -0.0207058623795908 0.0140117205890284 -6.48341965029258E-06 6.11081680301415E-07
3.6 -4.75393545845965E-06 4.20185476798045E-06 -0.0182605024678726 0.0171384249878148 -0.0185236522982297 0.0169134112959326 -6.4464238235009E-06 1.25652875016849E-06
3.65 -4.09243706465964E-06 4.787636167651E-06 -0.0159076493041738 0.0190119243998732 -0.0157495653177167 0.0192225288146799 -6.04280727279962E-06 2.11188753909861E-06
3.7 -3.44752739594626E-06 4.69787603284719E-06 -0.0134174404601702 0.0219097935664053 -0.0135526480848317 0.0217459472528226 -5.61719970120343E-06 2.39949615127843E-06
3.75 -2.42162859352957E-06 4.88203492293941E-06 -0.00996546532454043 0.023351134855524 -0.00987617383063722 0.0234818465915185 -4.8528314128764E-06 2.77772756853511E-06
3.8 -1.63255399426788E-06 4.47607077772458E-06 -0.0069076271646189 0.0246994317515175 -0.00700763303113628 0.0245780776876022 -3.88798420994736E-06 2.91209199909618E-06
3.85 -7.49207918938394E-07 3.94435476254355E-06 -0.00289329855250817 0.0249893008533665 -0.00302926994977112 0.0250940623714764 -2.83138283109155E-06 3.13811161063465E-06
3.9 -1.68333840329269E-07 3.20261389121449E-06 0.000246506487854205 0.025454275542055 0.000326217931209134 0.0254068985710334 -2.06579831910088E-06 2.99830245785845E-06
3.95 3.3564944689363E-07 2.65428086667557E-06 0.00404170076992439 0.0245176509939084 0.00397633992435462 0.0246157930835073 -1.27430541464753E-06 2.51590006959736E-06
4 -7.67917964368605E-09 2.0552058595187E-06 0.00744681037802352 0.0241169881365256 0.00757429045729056 0.0241092120378211 -1.2335902061868E-06 1.68612440401057E-06
4.05 -2.5665147729947E-07 9.39249937450092E-07 0.0109426837364876 0.0233063661508387 0.0109852003516635 0.0232757262381891 -9.97614531169229E-07 8.55882047948197E-07
4.1 -6.55289996261197E-07 1.82956808564207E-07 0.0142773401688116 0.0217042037511796 0.0142840782237244 0.0216827954441371 -1.00310167979124E-06 -1.53442171517481E-07
4.15 -1.06832520928788E-06 -3.10349166262776E-07 0.0169575054958589 0.0192363156859807 0.0170010966517077 0.0192083053333905 -1.35483073488905E-06 -5.86361227231134E-07
4.2 -2.12533671007678E-06 -3.75049436741345E-07 0.019473599664208 0.0168716969671938 0.0193743898437404 0.0168694582750491 -2.08766206077516E-06 -1.14689891481333E-06
4.25 -3.24587468408748E-06 -5.0549649573464E-07 0.0220479834238244 0.0138692868490214 0.0220808465623287 0.0139281113682488 -3.03316282217094E-06 -1.75840485918346E-06
4.3 -4.30572875413675E-06 -4.21082088196589E-07 0.023659219013855 0.0107900035375629 0.0236086007922845 0.0107303231357225 -3.79323190126837E-06 -2.05268855937768E-06
4.35 -4.94427446181945E-06 -6.57609306503494E-08 0.0250759088655262 0.00754354684411995 0.0250702314984166 0.00777019781441646 -4.66720174067932E-06 -1.99592202698402E-06
4.4 -5.78703260790882E-06 9.08943340808437E-07 0.0256657956401054 0.00363990637014169 0.0256893718763599 0.00341691108677109 -5.69823413832742E-06 -1.46218368640879E-06
4.45 -6.3147746829796E-06 1.99996667777241E-06 0.0256908070553121 0.000177211427454869 0.025655844983803 0.000447334664661316 -6.58952809387743E-06 -7.7443748889113E-07
4.5 -6.55134432769336E-06 2.95003534897465E-06 0.0257738516312091 -0.00341020820928744 0.0258868813451839 -0.00354320348377105 -7.11526198568964E-06 -9.71706138706547E-08
4.55 -6.40952699165859E-06 4.17941119874559E-06 0.0250713687459035 -0.00694952409345082 0.0249906848222351 -0.00696662656486131 -7.43709456607887E-06 9.23453171958383E-07
4.6 -5.99772214443117E-06 5.45097303908211E-06 0.0237737475467389 -0.0107307441282531 0.0238825714117565 -0.0107172165493483 -7.58545971090744E-06 2.11334417906786E-06
4.65 -5.20953849971377E-06 6.51663952687273E-06 0.0220569831720499 -0.0134175294834352 0.0220112401907509 -0.0135121831677458 -7.19554688962556E-06 3.31832484488785E-06
4.7 -4.97525988097105E-06 7.09723076276939E-06 0.0201282368964494 -0.0165591113258607 0.0201227499873735 -0.0166404408939492 -7.29056789888141E-06 3.90967824599417E-06
4.75 -3.14258052549175E-06 7.38831834031263E-06 0.0164949374658484 -0.0189973337410103 0.0164412361603301 -0.019027168274844 -6.10752168541382E-06 4.80425317700889E-06
4.8 -1.79366120329342E-06 7.56778204137778E-06 0.0143090668388187 -0.0206336502059399 0.0143560117159053 -0.0206623730844903 -5.13933693847757E-06 5.27271141954498E-06
4.85 -6.66462283403945E-07 8.07719590868019E-06 0.0112297679628322 -0.0233271241534812 0.011053297376045 -0.0234504131828454 -4.65532234675538E-06 6.10842678209373E-06
4.9 5.33116086607786E-07 7.13576808234405E-06 0.00767043341806701 -0.0243539817450158 0.00756942854812365 -0.0243285063647526 -3.56011293764678E-06 5.93873529674458E-06
4.95 1.59724108161542E-06 6.27803341462914E-06 0.00439947998293003 -0.0254967869656004 0.00442586155952235 -0.0255108118510558 -2.65326263291066E-06 5.62135748907682E-06
5 2.45218974861245E-06 5.18879198675375E-06 0.000733327820020383 -0.0254561538929317 0.000604293325683976 -0.0254825759226135 -1.87960296147883E-06 5.05742568894492E-06
5.05 2.78897056635598E-06 4.12220626014759E-06 -0.00287271919182288 -0.0256063497170926 -0.0029532075597629 -0.025522646421689 -1.30462615342481E-06 4.390737131371E-06
5.1 2.65723657302092E-06 2.72485012343798E-06 -0.00682774985694501 -0.0250660894794959 -0.00664543420200703 -0.0250914205882769 -1.06085816167855E-06 3.36563028854923E-06
5.15 2.15755249502764E-06 1.12226331455679E-06 -0.00994703584517827 -0.0241024539588412 -0.0100072574955074 -0.0241777907054919 -1.10366640621159E-06 2.46570963026874E-06
5.2 1.55938258455069E-06 6.36396103067893E-10 -0.0131876475305036 -0.0223544337592169 -0.0133100217071121 -0.0222231825537929 -1.60296864654303E-06 1.76236465715811E-06
5.25 4.55447477762255E-07 -8.87192736219138E-07 -0.0162274828518327 -0.0198143194678308 -0.0160122683252908 -0.0199422656521891 -2.18152341490987E-06 7.89046314990444E-07
5.3 -9.88591848641288E-07 -1.2186278266969E-06 -0.0183190348226547 -0.0170203184111533 -0.0184490583733471 -0.0170512814480455 -2.70749772302766E-06 3.54614050765053E-07
5.35 -2.53381815543263E-06 -9.39971186366901E-07 -0.0202944534384248 -0.0144022185337276 -0.0202361083741307 -0.0143234606009134 -3.79400971872767E-06 6.85851151344079E-07
5.4 -3.92222232029241E-06 -8.98831713837468E-07 -0.0221852116829667 -0.0112438783577687 -0.0222007528948545 -0.0113584614192683 -5.05516294724512E-06 6.57213326706023E-07
5.45 -5.37693895909187E-06 -1.44348778311422E-07 -0.0235579328524031 -0.00791844580950099 -0.0235071868928599 -0.00784096097940996 -6.08831666523679E-06 1.39509339500981E-06
5.5 -6.67068981022203E-06 1.10396339105969E-06 -0.0243560231474477 -0.00450485765360155 -0.0244266423195971 -0.00473223036827167 -6.9722142838556E-06 2.19235629079765E-06
5.55 -7.18492614577213E-06 2.42729958991468E-06 -0.0249997270666339 -0.00166549325404935 -0.0249657999265138 -0.00130728472274619 -7.33552574802924E-06 3.0954730717291E-06
5.6 -7.80405470124346E-06 4.52520055688143E-06 -0.0249927175041389 0.00296020431409482 -0.0249765612744639 0.00244774756645644 -8.10159109263112E-06 4.87417189553261E-06
5.65 -7.36222610008685E-06 5.45163771945642E-06 -0.0238597323425711 0.00578341400443765 -0.0240001118606031 0.00616651512421711 -7.83057120553794E-06 5.41198317116747E-06
5.7 -6.21964053663875E-06 6.85808724937208E-06 -0.02331622870482 0.00862711572583177 -0.023046527967033 0.00856986265912633 -6.78152172710522E-06 6.54140240634989E-06
5.75 -5.1821451830106E-06 9.4246727330449E-06 -0.0208842733903908 0.012718713994367 -0.0211649414576152 0.0125632850793603 -5.87310164531485E-06 9.04784138721496E-06
5.8 -4.61319292473228E-06 9.8601797995777E-06 -0.0191104879123524 0.0147297885128994 -0.0188012862629136 0.0149682675586026 -5.38178971161082E-06 9.33446004990112E-06
