# GHZ S RI R 50
0.5 5.29904407607636E-06 -3.40111290682917E-06 0.000810084519706566 -0.00577735209787374 0.000812610145761667 -0.00577369415977511 5.42531920506065E-06 -1.16966775316754E-06
0.55 4.78593911137616E-06 -4.30807634865029E-06 1.13313105392082E-05 -0.00651733880053059 2.03554092590402E-05 -0.00651993057654492 5.44484949435703E-06 -1.69346417239929E-06
0.6 4.0722703792602E-06 -5.141500685228E-06 -0.00100571254170964 -0.00698090437652126 -0.0010146104345005 -0.00697968678431084 5.31392160275253E-06 -2.33019968672215E-06
0.65 3.26342507439653E-06 -5.88855899955159E-06 -0.00208778014298945 -0.00724817483413211 -0.00208040682069713 -0.00724683385243207 5.07443867810027E-06 -2.93545480714659E-06
0.7 2.3856510005028E-06 -6.45324033287154E-06 -0.00344446616746838 -0.00757873517369951 -0.00344612997323457 -0.00758080266340494 4.80083078018794E-06 -3.51027605170875E-06
0.75 1.3757186692053E-06 -6.72375110308227E-06 -0.00466872253424253 -0.00742136206466718 -0.00466427341075398 -0.00742050689602186 4.41609398054435E-06 -4.01107735841632E-06
0.8 2.25284220486033E-07 -6.8057754896999E-06 -0.00603810047959982 -0.00703957381286194 -0.00604291153068994 -0.00703622703422322 3.86513051877941E-06 -4.55900026102215E-06
0.85 -8.17867987391608E-07 -6.7526717704328E-06 -0.00734805810407643 -0.00650527619879722 -0.00733708192034577 -0.00650903036435829 3.32887487806316E-06 -5.02870301149313E-06
0.9 -1.71490365000486E-06 -6.57091704339661E-06 -0.00849208508535992 -0.00559626014424771 -0.0084979981343258 -0.00560352987522578 2.77758614717888E-06 -5.41236500882932E-06
0.95 -2.47811228321075E-06 -6.09726863708661E-06 -0.0096302095677243 -0.00453201490287646 -0.00962732640643181 -0.00452050871669169 2.17535744377792E-06 -5.61572891909857E-06
1 -3.10991219220093E-06 -5.51076598849924E-06 -0.0107527440213846 -0.00335305346025062 -0.0107509504416117 -0.00337058506734769 1.51745115242633E-06 -5.71900893555868E-06
1.05 -3.56241810575345E-06 -4.79189295047375E-06 -0.0115306040763551 -0.00182785566893948 -0.011536593306011 -0.00180882458494538 7.59757952113699E-07 -5.63166710594652E-06
1.1 -3.84895191562587E-06 -3.98857722063896E-06 -0.0121994913334286 -0.000251037748396852 -0.0121905808860181 -0.000257592505587811 8.44851182161687E-08 -5.40731626641165E-06
1.15 -3.97616042556132E-06 -3.2069131004441E-06 -0.0127445033285327 0.00161643836272223 -0.0127449429587312 0.00162067864962857 -5.34035325423329E-07 -5.05950458288161E-06
1.2 -3.99248045007111E-06 -2.53790523262789E-06 -0.0127627568359525 0.00343237480558094 -0.0127576306611341 0.00342692468038156 -1.11983086722951E-06 -4.70439555736973E-06
1.25 -3.82619721940728E-06 -1.98605081631866E-06 -0.0126172769084178 0.0054313546359539 -0.0126276611225161 0.00541801298137017 -1.63591982254633E-06 -4.20632368283755E-06
1.3 -3.54595665988743E-06 -1.54098366610422E-06 -0.0120739825645645 0.00733447076880612 -0.0120618945773805 0.00735174943501396 -1.99532805728782E-06 -3.64184033941632E-06
1.35 -3.22565143014554E-06 -1.23978446159E-06 -0.0112316863554957 0.00921942915439805 -0.011242777477083 0.00919050275026624 -2.21447459091316E-06 -3.05499827957398E-06
1.4 -2.85693767016363E-06 -1.09772670924962E-06 -0.0101548643862802 0.0111004474098998 -0.0101614256896452 0.011120967126417 -2.30953802657588E-06 -2.46042047154546E-06
1.45 -2.46695413820363E-06 -1.07360022587554E-06 -0.00871338925096519 0.0126267644014634 -0.00868152704366624 0.0126255781722953 -2.20458923811217E-06 -1.84687805964552E-06
1.5 -2.08129809974448E-06 -1.14811513847697E-06 -0.00696546359955206 0.0141446845224331 -0.00700357359283037 0.0141365101938672 -1.87183892902141E-06 -1.29140325661662E-06
1.55 -1.88487797806648E-06 -1.33056283015873E-06 -0.00502949002523367 0.0151862894816775 -0.00500091178113713 0.01519359952301 -1.53654303551837E-06 -8.79103434642364E-07
1.6 -1.69151255768321E-06 -1.64895887159141E-06 -0.00289103360229939 0.0160838391610178 -0.00293196695245068 0.016075313114369 -9.67208939578207E-07 -5.79657854945484E-07
1.65 -1.72823968389804E-06 -1.94433151622865E-06 -0.000597791963769131 0.0167728137665039 -0.00056029792920322 0.016785954177936 -4.30585603335736E-07 -3.94678720987084E-07
1.7 -1.88561336911892E-06 -2.30993400637335E-06 0.00177063095437297 0.0171013190156888 0.00174957188417371 0.0170852483543521 1.68758104397982E-07 -4.20318412872908E-07
1.75 -2.17853942429326E-06 -2.66108323391058E-06 0.0043095980508929 0.017162215987765 0.00432975888703998 0.0171823181813791 7.56745677225843E-07 -6.26185481147559E-07
1.8 -2.49723245057404E-06 -2.91135660804375E-06 0.00681255251848741 0.0168522019550951 0.00682994611322736 0.0168131248639461 1.22937584977093E-06 -9.52840529784496E-07
1.85 -2.95147784680827E-06 -3.02865148090697E-06 0.00931951121836445 0.0159539173494256 0.00929270602842341 0.015983431983932 1.56165946838611E-06 -1.4826897830632E-06
1.9 -3.44325647098789E-06 -3.08705850103298E-06 0.0115755109222673 0.014712172137455 0.0116295759897158 0.0146696032435628 1.7961502191632E-06 -2.09179156437729E-06
1.95 -4.01578668957902E-06 -3.04384013456686E-06 0.0137692500044939 0.0131847557541388 0.0137400855351672 0.0131836751946784 1.85506635617166E-06 -2.7670502561392E-06
2 -4.50513286643136E-06 -2.80229245811354E-06 0.0157041071773903 0.0111594866191042 0.0157209301651567 0.0111603924182396 1.71078828853836E-06 -3.42792639597177E-06
2.05 -5.0149851399381E-06 -2.37859407482655E-06 0.0174714337728025 0.00923448228270488 0.0174618716601598 0.00920393790694101 1.4044413466571E-06 -4.06101323930371E-06
2.1 -5.39183062790367E-06 -1.77301368528278E-06 0.0188799261852201 0.00652720685593536 0.0188661077474727 0.00651908793566567 8.5835692168235E-07 -4.54068619538941E-06
2.15 -5.81862613889224E-06 -1.08423511186458E-06 0.0197988338806839 0.00408961452639543 0.0197756871881625 0.00409711114793431 1.58052507730817E-07 -5.03592964279685E-06
2.2 -6.02197590702587E-06 -3.58262721755977E-07 0.0206071848232442 0.00112922275943693 0.0206021515017414 0.0011259276400006 -6.59532636948316E-07 -5.36197657960196E-06
2.25 -6.17113301144935E-06 2.55505964313947E-07 0.0207353098607165 -0.00176242831144507 0.0206931129432402 -0.00176121267026764 -1.35211544484929E-06 -5.54801637373215E-06
2.3 -5.93850902257461E-06 9.08222091891627E-07 0.0207836426688896 -0.00468522444452913 0.0207895729843753 -0.00459208921472672 -2.12426190776938E-06 -5.38598992589105E-06
2.35 -5.58471521567573E-06 1.5253000376975E-06 0.0198010369480299 -0.00762921869017984 0.019788312470269 -0.00767508081945168 -2.84180558504624E-06 -4.99521443433612E-06
2.4 -5.08008139021414E-06 2.15803332763885E-06 0.018838321404508 -0.0103487899940385 0.0188138822080892 -0.0102726325640946 -3.46659099476705E-06 -4.47082404540819E-06
2.45 -4.5277461412937E-06 2.68644008308393E-06 0.0170450715915038 -0.0129487010781777 0.0170820961913851 -0.0129256070078443 -3.98727614416157E-06 -3.86259907650276E-06
2.5 -3.84024036008164E-06 2.99909441745337E-06 0.0152375449615261 -0.015199739876212 0.015236385502541 -0.0151522473413637 -4.30280133206264E-06 -3.20278359684198E-06
2.55 -3.10005512367119E-06 3.15160320801969E-06 0.0131654579827928 -0.017686779360127 0.0132412854142553 -0.0176601935996744 -4.45983560602855E-06 -2.47494444483104E-06
2.6 -2.36579544208708E-06 3.11726610272528E-06 0.0108074312262996 -0.0196118968520727 0.0107985666347619 -0.0195868551386714 -4.37016032403847E-06 -1.77567240678004E-06
2.65 -1.68939123733965E-06 2.86819481012012E-06 0.0079422602979811 -0.0211692003935708 0.00807551397906563 -0.0211336343736131 -4.19836166048138E-06 -1.19373766799913E-06
2.7 -1.13987027340834E-06 2.43425752064156E-06 0.00499723731855902 -0.0220278190096214 0.00495091019609928 -0.0220691203639666 -3.8132147389047E-06 -7.84648110811464E-07
2.75 -6.82301475302524E-07 1.96626596858106E-06 0.00184369984305663 -0.0231012340199382 0.00187090635775274 -0.0230591817119539 -3.33832182465981E-06 -5.31320035383572E-07
2.8 -3.73621081043348E-07 1.35241242969739E-06 -0.00144512647724362 -0.0234865034745775 -0.00140787201197051 -0.0235278286064106 -2.77263639971057E-06 -3.79292077428465E-07
2.85 -2.82460874812778E-07 6.6345000851609E-07 -0.00466373524866937 -0.0230120602215242 -0.00469576757470338 -0.0229988313939279 -2.30689344721424E-06 -4.52619050637509E-07
2.9 -3.42225539958665E-07 -9.71706138706552E-08 -0.00801709986883691 -0.0223868294500561 -0.00797213612331367 -0.0224153221738293 -1.91541084887812E-06 -6.75131412541291E-07
2.95 -6.05170267610695E-07 -7.50254436974551E-07 -0.0110172886833675 -0.0211214658475747 -0.0110786772881545 -0.021090418797533 -1.65202771502176E-06 -1.07517000292977E-06
3 -1.0904435094034E-06 -1.27498423715746E-06 -0.0142402957003334 -0.0195992227505045 -0.0141515138571271 -0.0196297512759091 -1.54860627720541E-06 -1.50561418490927E-06
3.05 -1.80708209000034E-06 -1.71118426833582E-06 -0.0166041279119473 -0.0174234703707505 -0.0166886114737275 -0.0174218989475731 -1.68636482031617E-06 -2.07527354996877E-06
3.1 -2.36392868018474E-06 -2.0387019872458E-06 -0.0189419322224583 -0.0148937274886091 -0.018876576074075 -0.0148263245089313 -1.94608514104599E-06 -2.54812999668384E-06
3.15 -3.06161679904589E-06 -2.12130620142402E-06 -0.0211490186947367 -0.0119613441687215 -0.0211386829677185 -0.0121243229016012 -2.23954859737403E-06 -3.00434114976978E-06
3.2 -3.82836096615771E-06 -1.67967559016615E-06 -0.0227553468422518 -0.00952787021501482 -0.0227852311579896 -0.00936764912512718 -2.90321073792448E-06 -2.92387239807075E-06
3.25 -4.72641486253588E-06 -1.3019391476563E-06 -0.0239754825872787 -0.00559707378641924 -0.0239345189533433 -0.00580024855532089 -3.6889053667721E-06 -3.05398004580908E-06
3.3 -5.77499765049303E-06 -6.13754543934299E-07 -0.0245655497892279 -0.00273685135115778 -0.0246197643642568 -0.00254409102161942 -4.81082927007392E-06 -3.09497809698227E-06
3.35 -6.04378308015766E-06 -3.18381899297054E-07 -0.0250025513712496 0.000987856935104211 -0.0249246022551368 0.000725024334666076 -5.20791215411704E-06 -3.07465584809097E-06
3.4 -6.30510146221296E-06 4.07123800335966E-07 -0.0245454599788359 0.00462595538989102 -0.0246731295428421 0.004757188130291 -5.70266062677765E-06 -2.61807699947882E-06
3.45 -5.85287839137292E-06 1.31551559785508E-06 -0.0239998246760272 0.00762794816316588 -0.0238341688140497 0.00753541715145664 -5.82254351046E-06 -1.47413379101084E-06
3.5 -5.75367130997245E-06 2.38072953730574E-06 -0.0219456261312694 0.0113645253688309 -0.0222387411112224 0.0112199076015422 -6.23258059073447E-06 -5.30924055586108E-07
3.55 -5.18378567074295E-06 3.46349386706545E-06 -0.0205063472520168 0.0135427372041922 -0.0202975361318254 0.0137354049645946 -6.48341965029258E-06 6.11081680301415E-07
3.6 -4.75393545845965E-06 4.20185476798045E-06 -0.0183629615008226 0.0172345880837442 -0.0186275878555628 0.0170083118480021 -6.4464238235009E-06 1.25652875016849E-06
3.65 -4.09243706465964E-06 4.787636167651E-06 -0.0158984947602781 0.0190009834058185 -0.0157405017480916 0.0192114666218658 -6.04280727279962E-06 2.11188753909861E-06
3.7 -3.44752739594626E-06 4.69787603284719E-06 -0.0132601878577329 0.0216530104588217 -0.0133938108470155 0.0214910844264795 -5.61719970120343E-06 2.39949615127843E-06
3.75 -2.42162859352957E-06 4.88203492293941E-06 -0.00993190558345052 0.0232724974799087 -0.00984291478794114 0.0234027690305356 -4.8528314128764E-06 2.77772756853511E-06
3.8 -1.63255399426788E-06 4.47607077772458E-06 -0.00698439654321834 0.0249739341214536 -0.00708551384613 0.0248512313634275 -3.88798420994736E-06 2.91209199909618E-06
3.85 -7.49207918938394E-07 3.94435476254355E-06 -0.00287702244316788 0.0248487247649866 -0.0030122289399932 0.0249528969523058 -2.83138283109155E-06 3.13811161063465E-06
3.9 -1.68333840329269E-07 3.20261389121449E-06 0.000240812127210852 0.0248662755015146 0.000318682216572154 0.024819992950204 -2.06579831910088E-06 2.99830245785845E-06
3.95 3.3564944689363E-07 2.65428086667557E-06 0.00409934204646747 0.0248673128767581 0.00403304904812613 0.0249668546333906 -1.27430541464753E-06 2.51590006959736E-06
4 -7.67917964368605E-09 2.0552058595187E-06 0.00744166807994479 0.0241003344639512 0.00756906012950066 0.0240925637349305 -1.2335902061868E-06 1.68612440401057E-06
4.05 -2.5665147729947E-07 9.39249937450092E-07 0.0108248988647163 0.0230555010600951 0.010866957839501 0.0230251909493725 -9.97614531169229E-07 8.55882047948197E-07
4.1 -6.55289996261197E-07 1.82956808564207E-07 0.0142101056563537 0.021601994828492 0.0142168119805777 0.0215806873369424 -1.00310167979124E-06 -1.53442171517481E-07
4.15 -1.06832520928788E-06 -3.10349166262776E-07 0.0169750853468002 0.0192562579801172 0.0170187216936131 0.0192282185891862 -1.35483073488905E-06 -5.86361227231134E-07
4.2 -2.12533671007678E-06 -3.75049436741345E-07 0.0195747506058525 0.0169593329494877 0.0194750254637734 0.0169570826289938 -2.08766206077516E-06 -1.14689891481333E-06
4.25 -3.24587468408748E-06 -5.0549649573464E-07 0.0218207098092798 0.0137263203521432 0.0218532341900787 0.0137845385002186 -3.03316282217094E-06 -1.75840485918346E-06
4.3 -4.30572875413675E-06 -4.21082088196589E-07 0.0238287030153479 0.0108672982688301 0.0237777221876096 0.0108071903434392 -3.79323190126837E-06 -2.05268855937768E-06
4.35 -4.94427446181945E-06 -6.57609306503494E-08 0.024709086104673 0.00743319612084907 0.0247034917888892 0.00765653152898111 -4.66720174067932E-06 -1.99592202698402E-06
4.4 -5.78703260790882E-06 9.08943340808437E-07 0.0256983199536508 0.00364451894704048 0.0257219260662789 0.00342124107868333 -5.69823413832742E-06 -1.46218368640879E-06
4.45 -6.3147746829796E-06 1.99996667777241E-06 0.0256878494621005 0.000177191026409712 0.025652891415517 0.000447283166319334 -6.58952809387743E-06 -7.7443748889113E-07
4.5 -6.55134432769336E-06 2.95003534897465E-06 0.0253938952708585 -0.00335993515278899 0.0255052587085101 -0.00349096982001995 -7.11526198568964E-06 -9.71706138706547E-08
4.55 -6.40952699165859E-06 4.17941119874559E-06 0.0250915820257763 -0.00695512700555774 0.0250108330523394 -0.0069722432654871 -7.43709456607887E-06 9.23453171958383E-07
4.6 -5.99772214443117E-06 5.45097303908211E-06 0.0238148388251178 -0.010749291477312 0.0239238507846595 -0.0107357405169226 -7.58545971090744E-06 2.11334417906786E-06
4.65 -5.20953849971377E-06 6.51663952687273E-06 0.0220442898056829 -0.0134098079552396 0.0219985731485831 -0.0135044071681891 -7.19554688962556E-06 3.31832484488785E-06
4.7 -4.97525988097105E-06 7.09723076276939E-06 0.0200611458404225 -0.0165039168112375 0.0200556772202075 -0.016584975293158 -7.29056789888141E-06 3.90967824599417E-06
4.75 -3.14258052549175E-06 7.38831834031263E-06 0.0167590992691281 -0.0193015707197149 0.0167045379522437 -0.0193318830452513 -6.10752168541382E-06 4.80425317700889E-06
4.8 -1.79366120329342E-06 7.56778204137778E-06 0.0145014460864884 -0.0209110607560485 0.014549022117251 -0.0209401698013441 -5.13933693847757E-06 5.27271141954498E-06
4.85 -6.66462283403945E-07 8.07719590868019E-06 0.0112142641771485 -0.0232949187922761 0.0110380372251511 -0.0234180376091572 -4.65532234675538E-06 6.10842678209373E-06
4.9 5.33116086607786E-07 7.13576808234405E-06 0.00768546067071786 -0.0244016939689268 0.00758425792073085 -0.0243761686794922 -3.56011293764678E-06 5.93873529674458E-06
4.95 1.59724108161542E-06 6.27803341462914E-06 0.00434211524583329 -0.0251643348379016 0.00436815283354255 -0.0251781768531382 -2.65326263291066E-06 5.62135748907682E-06
5 2.45218974861245E-06 5.18879198675375E-06 0.00072351603556434 -0.0251155554753367 0.000596207997815641 -0.0251416239833696 -1.87960296147883E-06 5.05742568894492E-06
5.05 2.78897056635598E-06 4.12220626014759E-06 -0.00283722106620175 -0.025289932636877 -0.00291671484121243 -0.0252072636611882 -1.30462615342481E-06 4.390737131371E-06
5.1 2.65723657302092E-06 2.72485012343798E-06 -0.00679246801140587 -0.0249365624880543 -0.00661109445787928 -0.024961762700378 -1.06085816167855E-06 3.36563028854923E-06
5.15 2.15755249502764E-06 1.12226331455679E-06 -0.00998260031184824 -0.0241886294722128 -0.0100430372776652 -0.0242642355766156 -1.10366640621159E-06 2.46570963026874E-06
5.2 1.55938258455069E-06 6.36396103067893E-10 -0.0131724734267881 -0.0223287120756811 -0.01329470679599 -0.0221976118918399 -1.60296864654303E-06 1.76236465715811E-06
5.25 4.55447477762255E-07 -8.87192736219138E-07 -0.0162574025285021 -0.0198508524309105 -0.0160417911967929 -0.0199790345180581 -2.18152341490987E-06 7.89046314990444E-07
5.3 -9.88591848641288E-07 -1.2186278266969E-06 -0.0182390657197342 -0.0169460186673109 -0.0183685216713795 -0.0169768465395338 -2.70749772302766E-06 3.54614050765053E-07
5.35 -2.53381815543263E-06 -9.39971186366901E-07 -0.0204351278691884 -0.0145020499433348 -0.0203763783762295 -0.0144227460866109 -3.79400971872767E-06 6.85851151344079E-07
5.4 -3.92222232029241E-06 -8.98831713837468E-07 -0.0224188626853478 -0.0113622970362328 -0.0224345675747244 -0.0114780868676996 -5.05516294724512E-06 6.57213326706023E-07
5.45 -5.37693895909187E-06 -1.44348778311422E-07 -0.0237868634548053 -0.00799539545447263 -0.0237356243576357 -0.00791715764452802 -6.08831666523679E-06 1.39509339500981E-06
5.5 -6.67068981022203E-06 1.10396339105969E-06 -0.0244994524448883 -0.00453138614572912 -0.0245704874837079 -0.00476009782729564 -6.9722142838556E-06 2.19235629079765E-06
5.55 -7.18492614577213E-06 2.42729958991468E-06 -0.0250112425177355 -0.00166626041866982 -0.0249772997499919 -0.00130788688825226 -7.33552574802924E-06 3.0954730717291E-06
5.6 -7.80405470124346E-06 4.52520055688143E-06 -0.0251601647365239 0.00298003721220234 -0.0251439002626797 0.00246414708585694 -8.10159109263112E-06 4.87417189553261E-06
5.65 -7.36222610008685E-06 5.45163771945642E-06 -0.0238103383828427 0.00577144129182182 -0.0239504272898921 0.00615374932301963 -7.83057120553794E-06 5.41198317116747E-06
5.7 -6.21964053663875E-06 6.85808724937208E-06 -0.0231077843866189 0.00854999033483142 -0.0228404947414283 0.00849324910374937 -6.78152172710522E-06 6.54140240634989E-06
5.75 -5.1821451830106E-06 9.4246727330449E-06 -0.0208458385477878 0.0126953068227911 -0.0211259900812174 0.0125401639548867 -5.87310164531485E-06 9.04784138721496E-06
5.8 -4.61319292473228E-06 9.8601797995777E-06 -0.0185191809520504 0.0142740269168899 -0.0182195464621885 0.0145051270657142 -5.38178971161082E-06 9.33446004990112E-06
