# GHZ S RI R 50
0.5 0.0001 0.0001 0.00590608917480365 0 0.00590608917480365 0 0.0001 0.0001
0.55 0.0001 0.0001 0.00659022132318857 0 0.00659022132318857 0 0.0001 0.0001
0.6 0.0001 0.0001 0.00714578590240399 0 0.00714578590240399 0 0.0001 0.0001
0.65 0.0001 0.0001 0.00763923728484547 0 0.00763923728484547 0 0.0001 0.0001
0.7 0.0001 0.0001 0.00844403451853086 0 0.00844403451853086 0 0.0001 0.0001
0.75 0.0001 0.0001 0.00889713130522564 0 0.00889713130522564 0 0.0001 0.0001
0.8 0.0001 0.0001 0.00940156168803569 0 0.00940156168803569 0 0.0001 0.0001
0.85 0.0001 0.0001 0.00998504439156965 0 0.00998504439156965 0 0.0001 0.0001
0.9 0.0001 0.0001 0.0103181063526759 0 0.0103181063526759 0 0.0001 0.0001
0.95 0.0001 0.0001 0.0108330313508791 0 0.0108330313508791 0 0.0001 0.0001
1 0.0001 0.0001 0.0114485372094695 0 0.0114485372094695 0 0.0001 0.0001
1.05 0.0001 0.0001 0.0118877592169721 0 0.0118877592169721 0 0.0001 0.0001
1.1 0.0001 0.0001 0.0124193824151992 0 0.0124193824151992 0 0.0001 0.0001
1.15 0.0001 0.0001 0.0130797667700893 0 0.0130797667700893 0 0.0001 0.0001
1.2 0.0001 0.0001 0.0134818658059465 0 0.0134818658059465 0 0.0001 0.0001
1.25 0.0001 0.0001 0.0139926509278159 0 0.0139926509278159 0 0.0001 0.0001
1.3 0.0001 0.0001 0.0144261352654831 0 0.0144261352654831 0 0.0001 0.0001
1.35 0.0001 0.0001 0.0148132379803641 0 0.0148132379803641 0 0.0001 0.0001
1.4 0.0001 0.0001 0.0153797756389929 0 0.0153797756389929 0 0.0001 0.0001
1.45 0.0001 0.0001 0.0156566917052851 0 0.0156566917052851 0 0.0001 0.0001
1.5 0.0001 0.0001 0.0161064563517827 0 0.0161064563517827 0 0.0001 0.0001
1.55 0.0001 0.0001 0.0163662808680907 0 0.0163662808680907 0 0.0001 0.0001
1.6 0.0001 0.0001 0.0167012893404671 0 0.0167012893404671 0 0.0001 0.0001
1.65 0.0001 0.0001 0.0171790838715759 0 0.0171790838715759 0 0.0001 0.0001
1.7 0.0001 0.0001 0.0175994866380147 0 0.0175994866380147 0 0.0001 0.0001
1.75 0.0001 0.0001 0.0181217443765902 0 0.0181217443765902 0 0.0001 0.0001
1.8 0.0001 0.0001 0.0186273038985477 0 0.0186273038985477 0 0.0001 0.0001
1.85 0.0001 0.0001 0.0189212576707541 0 0.0189212576707541 0 0.0001 0.0001
1.9 0.0001 0.0001 0.0192309172891016 0 0.0192309172891016 0 0.0001 0.0001
1.95 0.0001 0.0001 0.0195141662221134 0 0.0195141662221134 0 0.0001 0.0001
2 0.0001 0.0001 0.0198129890720736 0 0.0198129890720736 0 0.0001 0.0001
2.05 0.0001 0.0001 0.0202674915209896 0 0.0202674915209896 0 0.0001 0.0001
2.1 0.0001 0.0001 0.0205092604364605 0 0.0205092604364605 0 0.0001 0.0001
2.15 0.0001 0.0001 0.0208233212876617 0 0.0208233212876617 0 0.0001 0.0001
2.2 0.0001 0.0001 0.0211519299728322 0 0.0211519299728322 0 0.0001 0.0001
2.25 0.0001 0.0001 0.0214758321024286 0 0.0214758321024286 0 0.0001 0.0001
2.3 0.0001 0.0001 0.0218776162394955 0 0.0218776162394955 0 0.0001 0.0001
2.35 0.0001 0.0001 0.0218876935743142 0 0.0218876935743142 0 0.0001 0.0001
2.4 0.0001 0.0001 0.0221156648582988 0 0.0221156648582988 0 0.0001 0.0001
2.45 0.0001 0.0001 0.0220724224688564 0 0.0220724224688564 0 0.0001 0.0001
2.5 0.0001 0.0001 0.0221896269002422 0 0.0221896269002422 0 0.0001 0.0001
2.55 0.0001 0.0001 0.0227352639182341 0 0.0227352639182341 0 0.0001 0.0001
2.6 0.0001 0.0001 0.0231179861920193 0 0.0231179861920193 0 0.0001 0.0001
2.65 0.0001 0.0001 0.0233318942845764 0 0.0233318942845764 0 0.0001 0.0001
2.7 0.0001 0.0001 0.0233533936526698 0 0.0233533936526698 0 0.0001 0.0001
2.75 0.0001 0.0001 0.0239056193534463 0 0.0239056193534463 0 0.0001 0.0001
2.8 0.0001 0.0001 0.0243500579995203 0 0.0243500579995203 0 0.0001 0.0001
2.85 0.0001 0.0001 0.0242633073735227 0 0.0242633073735227 0 0.0001 0.0001
2.9 0.0001 0.0001 0.0246036760414763 0 0.0246036760414763 0 0.0001 0.0001
2.95 0.0001 0.0001 0.0246405274494814 0 0.0246405274494814 0 0.0001 0.0001
3 0.0001 0.0001 0.0250553226648195 0 0.0250553226648195 0 0.0001 0.0001
3.05 0.0001 0.0001 0.0250005751536866 0 0.0250005751536866 0 0.0001 0.0001
3.1 0.0001 0.0001 0.02484848985453 0 0.02484848985453 0 0.0001 0.0001
3.15 0.0001 0.0001 0.0252958920940251 0 0.0252958920940251 0 0.0001 0.0001
3.2 0.0001 0.0001 0.0255770233524005 0 0.0255770233524005 0 0.0001 0.0001
3.25 0.0001 0.0001 0.0254712348413318 0 0.0254712348413318 0 0.0001 0.0001
3.3 0.0001 0.0001 0.02586425658378 0 0.02586425658378 0 0.0001 0.0001
3.35 0.0001 0.0001 0.0257869512956587 0 0.0257869512956587 0 0.0001 0.0001
3.4 0.0001 0.0001 0.0261676667299447 0 0.0261676667299447 0 0.0001 0.0001
3.45 0.0001 0.0001 0.0260450382752872 0 0.0260450382752872 0 0.0001 0.0001
3.5 0.0001 0.0001 0.0258006115419544 0 0.0258006115419544 0 0.0001 0.0001
3.55 0.0001 0.0001 0.0256218214257386 0 0.0256218214257386 0 0.0001 0.0001
3.6 0.0001 0.0001 0.026101772494564 0 0.026101772494564 0 0.0001 0.0001
3.65 0.0001 0.0001 0.0259821448723415 0 0.0259821448723415 0 0.0001 0.0001
3.7 0.0001 0.0001 0.0262702980434926 0 0.0262702980434926 0 0.0001 0.0001
3.75 0.0001 0.0001 0.0264941505613896 0 0.0264941505613896 0 0.0001 0.0001
3.8 0.0001 0.0001 0.0268998587780726 0 0.0268998587780726 0 0.0001 0.0001
3.85 0.0001 0.0001 0.0260705383901149 0 0.0260705383901149 0 0.0001 0.0001
3.9 0.0001 0.0001 0.0259268646216924 0 0.0259268646216924 0 0.0001 0.0001
3.95 0.0001 0.0001 0.0262301032430877 0 0.0262301032430877 0 0.0001 0.0001
4 0.0001 0.0001 0.0263451090146603 0 0.0263451090146603 0 0.0001 0.0001
4.05 0.0001 0.0001 0.0265674578358529 0 0.0265674578358529 0 0.0001 0.0001
4.1 0.0001 0.0001 0.0269649736354342 0 0.0269649736354342 0 0.0001 0.0001
4.15 0.0001 0.0001 0.0268349011596799 0 0.0268349011596799 0 0.0001 0.0001
4.2 0.0001 0.0001 0.0270333582636178 0 0.0270333582636178 0 0.0001 0.0001
4.25 0.0001 0.0001 0.0268843784306457 0 0.0268843784306457 0 0.0001 0.0001
4.3 0.0001 0.0001 0.0274662899241596 0 0.0274662899241596 0 0.0001 0.0001
4.35 0.0001 0.0001 0.0269153480392692 0 0.0269153480392692 0 0.0001 0.0001
4.4 0.0001 0.0001 0.0271300128835375 0 0.0271300128835375 0 0.0001 0.0001
4.45 0.0001 0.0001 0.0269277458695896 0 0.0269277458695896 0 0.0001 0.0001
4.5 0.0001 0.0001 0.0268225460760849 0 0.0268225460760849 0 0.0001 0.0001
4.55 0.0001 0.0001 0.0271988160601598 0 0.0271988160601598 0 0.0001 0.0001
4.6 0.0001 0.0001 0.0273495383498393 0 0.0273495383498393 0 0.0001 0.0001
4.65 0.0001 0.0001 0.0271769052344228 0 0.0271769052344228 0 0.0001 0.0001
4.7 0.0001 0.0001 0.0269649736354342 0 0.0269649736354342 0 0.0001 0.0001
4.75 0.0001 0.0001 0.0268441712069756 0 0.0268441712069756 0 0.0001 0.0001
4.8 0.0001 0.0001 0.0267731825996845 0 0.0267731825996845 0 0.0001 0.0001
4.85 0.0001 0.0001 0.0268874737872758 0 0.0268874737872758 0 0.0001 0.0001
4.9 0.0001 0.0001 0.0269277458695896 0 0.0269277458695896 0 0.0001 0.0001
4.95 0.0001 0.0001 0.0267701004005563 0 0.0267701004005563 0 0.0001 0.0001
5 0.0001 0.0001 0.0264119216327174 0 0.0264119216327174 0 0.0001 0.0001
5.05 0.0001 0.0001 0.0265950003272152 0 0.0265950003272152 0 0.0001 0.0001
5.1 0.0001 0.0001 0.0271706482411268 0 0.0271706482411268 0 0.0001 0.0001
5.15 0.0001 0.0001 0.0275835398955618 0 0.0275835398955618 0 0.0001 0.0001
5.2 0.0001 0.0001 0.0271831636686106 0 0.0271831636686106 0 0.0001 0.0001
5.25 0.0001 0.0001 0.0269556618716625 0 0.0269556618716625 0 0.0001 0.0001
5.3 0.0001 0.0001 0.0262905698758709 0 0.0262905698758709 0 0.0001 0.0001
5.35 0.0001 0.0001 0.0263724209969342 0 0.0263724209969342 0 0.0001 0.0001
5.4 0.0001 0.0001 0.0264240875732195 0 0.0264240875732195 0 0.0001 0.0001
5.45 0.0001 0.0001 0.0263784941704527 0 0.0263784941704527 0 0.0001 0.0001
5.5 0.0001 0.0001 0.0264240875732195 0 0.0264240875732195 0 0.0001 0.0001
5.55 0.0001 0.0001 0.0263390435274731 0 0.0263390435274731 0 0.0001 0.0001
5.6 0.0001 0.0001 0.0264484362685436 0 0.0264484362685436 0 0.0001 0.0001
5.65 0.0001 0.0001 0.0262180266151044 0 0.0262180266151044 0 0.0001 0.0001
5.7 0.0001 0.0001 0.025739493699422 0 0.025739493699422 0 0.0001 0.0001
5.75 0.0001 0.0001 0.025633033198659 0 0.025633033198659 0 0.0001 0.0001
5.8 0.0001 0.0001 0.0248799784585262 0 0.0248799784585262 0 0.0001 0.0001
