# GHZ S RI R 50
0.5 5.29904407607636E-06 -3.40111290682917E-06 0.106900646850193 -0.762392887803529 0.107233934368253 -0.761910177741345 5.42531920506065E-06 -1.16966775316754E-06
0.55 4.78593911137616E-06 -4.30807634865029E-06 0.00134734911591259 -0.774943960860801 0.0024203592845072 -0.775252135904585 5.44484949435703E-06 -1.69346417239929E-06
0.6 4.0722703792602E-06 -5.141500685228E-06 -0.106591817151443 -0.739880683588709 -0.107534872469998 -0.739751635415523 5.31392160275253E-06 -2.33019968672215E-06
0.65 3.26342507439653E-06 -5.88855899955159E-06 -0.218667763294686 -0.759151860060827 -0.217895503869226 -0.759011409702608 5.07443867810027E-06 -2.93545480714659E-06
0.7 2.3856510005028E-06 -6.45324033287154E-06 -0.319611151162242 -0.70322893460155 -0.319765535281693 -0.703420776452404 4.80083078018794E-06 -3.51027605170875E-06
0.75 1.3757186692053E-06 -6.72375110308227E-06 -0.426086784406178 -0.677303968024536 -0.425680739132174 -0.677225921823345 4.41609398054435E-06 -4.01107735841632E-06
0.8 2.25284220486033E-07 -6.8057754896999E-06 -0.523540563146293 -0.610374479647596 -0.523957710957191 -0.610084293291943 3.86513051877941E-06 -4.55900026102215E-06
0.85 -8.17867987391608E-07 -6.7526717704328E-06 -0.598649441662511 -0.529987638789889 -0.597755207271755 -0.530293492266443 3.32887487806316E-06 -5.02870301149313E-06
0.9 -1.71490365000486E-06 -6.57091704339661E-06 -0.67245671835162 -0.443147082702984 -0.672924950766047 -0.443722745733639 2.77758614717888E-06 -5.41236500882932E-06
0.95 -2.47811228321075E-06 -6.09726863708661E-06 -0.728678135020446 -0.342918826853035 -0.728459978127931 -0.342048201324966 2.17535744377792E-06 -5.61572891909857E-06
1 -3.10991219220093E-06 -5.51076598849924E-06 -0.753215601669485 -0.234876992744352 -0.753089963761144 -0.236105058804661 1.51745115242633E-06 -5.71900893555868E-06
1.05 -3.56241810575345E-06 -4.79189295047375E-06 -0.778040241756388 -0.123336579518304 -0.778444371640521 -0.122052436112321 7.59757952113699E-07 -5.63166710594652E-06
1.1 -3.84895191562587E-06 -3.98857722063896E-06 -0.769115781657417 -0.0158266511944396 -0.768554023339985 -0.0162398952439422 8.44851182161687E-08 -5.40731626641165E-06
1.15 -3.97616042556132E-06 -3.2069131004441E-06 -0.777003392620606 0.0985505719148234 -0.777030195874288 0.098809092566981 -5.34035325423329E-07 -5.05950458288161E-06
1.2 -3.99248045007111E-06 -2.53790523262789E-06 -0.720102792138792 0.193662130598856 -0.719813562088641 0.193354622556196 -1.11983086722951E-06 -4.70439555736973E-06
1.25 -3.82619721940728E-06 -1.98605081631866E-06 -0.705367806915225 0.303639425206374 -0.705948335533106 0.3028935611263 -1.63591982254633E-06 -4.20632368283755E-06
1.3 -3.54595665988743E-06 -1.54098366610422E-06 -0.650504858200978 0.395156183299784 -0.649853598821814 0.396087098700011 -1.99532805728782E-06 -3.64184033941632E-06
1.35 -3.22565143014554E-06 -1.23978446159E-06 -0.589447279054969 0.483842519947234 -0.590029349390123 0.482324440678576 -2.21447459091316E-06 -3.05499827957398E-06
1.4 -2.85693767016363E-06 -1.09772670924962E-06 -0.505911006537943 0.553019548912067 -0.506237887869225 0.554041832424893 -2.30953802657588E-06 -2.46042047154546E-06
1.45 -2.46695413820363E-06 -1.07360022587554E-06 -0.422315591617789 0.611986831396494 -0.420771312286504 0.61192933791623 -2.20458923811217E-06 -1.84687805964552E-06
1.5 -2.08129809974448E-06 -1.14811513847697E-06 -0.330217455803742 0.670568680661085 -0.332024167566886 0.670181153550596 -1.87183892902141E-06 -1.29140325661662E-06
1.55 -1.88487797806648E-06 -1.33056283015873E-06 -0.23108616812849 0.697752938529349 -0.229773105196269 0.698088807460774 -1.53654303551837E-06 -8.79103434642364E-07
1.6 -1.69151255768321E-06 -1.64895887159141E-06 -0.132024076855114 0.734496484520489 -0.133893369471434 0.734107127773775 -9.67208939578207E-07 -5.79657854945484E-07
1.65 -1.72823968389804E-06 -1.94433151622865E-06 -0.0264636700093262 0.742516185473623 -0.0248038454914212 0.743097898733423 -4.30585603335736E-07 -3.94678720987084E-07
1.7 -1.88561336911892E-06 -2.30993400637335E-06 0.0764589011834171 0.738464476460984 0.0755495341787328 0.737770517562286 1.68758104397982E-07 -4.20318412872908E-07
1.75 -2.17853942429326E-06 -2.66108323391058E-06 0.182510042453386 0.726814132439148 0.183363847151098 0.727665453645116 7.56745677225843E-07 -6.26185481147559E-07
1.8 -2.49723245057404E-06 -2.91135660804375E-06 0.276254819443703 0.6833711733891 0.276960144556621 0.681786563988962 1.22937584977093E-06 -9.52840529784496E-07
1.85 -2.95147784680827E-06 -3.02865148090697E-06 0.369950088415625 0.633311446888452 0.36888602162539 0.634483068595789 1.56165946838611E-06 -1.4826897830632E-06
1.9 -3.44325647098789E-06 -3.08705850103298E-06 0.443190220980539 0.563283198857308 0.445260203839244 0.561653368639216 1.7961502191632E-06 -2.09179156437729E-06
1.95 -4.01578668957902E-06 -3.04384013456686E-06 0.515596885581465 0.493710187683976 0.514504806524901 0.493669725560601 1.85506635617166E-06 -2.7670502561392E-06
2 -4.50513286643136E-06 -2.80229245811354E-06 0.572945417960114 0.407140415751126 0.573559184387474 0.407173462740576 1.71078828853836E-06 -3.42792639597177E-06
2.05 -5.0149851399381E-06 -2.37859407482655E-06 0.6265829113787 0.331178818465344 0.626239982661083 0.330083396982411 1.4044413466571E-06 -4.06101323930371E-06
2.1 -5.39183062790367E-06 -1.77301368528278E-06 0.664737672315378 0.229814473296621 0.664251143075109 0.229528616661969 8.5835692168235E-07 -4.54068619538941E-06
2.15 -5.81862613889224E-06 -1.08423511186458E-06 0.700631423715762 0.144721273249964 0.699812319912308 0.144986560016522 1.58052507730817E-07 -5.03592964279685E-06
2.2 -6.02197590702587E-06 -3.58262721755977E-07 0.715185443112386 0.0391903933753017 0.715010758491455 0.0390760341615426 -6.59532636948316E-07 -5.36197657960196E-06
2.25 -6.17113301144935E-06 2.55505964313947E-07 0.691688459412436 -0.0587910830248945 0.690280854653347 -0.0587505316669036 -1.35211544484929E-06 -5.54801637373215E-06
2.3 -5.93850902257461E-06 9.08222091891627E-07 0.695619370453909 -0.156812399561561 0.695817855502489 -0.153695204421403 -2.12426190776938E-06 -5.38598992589105E-06
2.35 -5.58471521567573E-06 1.5253000376975E-06 0.648243146843309 -0.249764128245316 0.647826574947237 -0.251265555219981 -2.84180558504624E-06 -4.99521443433612E-06
2.4 -5.08008139021414E-06 2.15803332763885E-06 0.6105794765151 -0.335420478366646 0.60978736391465 -0.332952096884592 -3.46659099476705E-06 -4.47082404540819E-06
2.45 -4.5277461412937E-06 2.68644008308393E-06 0.549412871400402 -0.417374782034544 0.550606283327366 -0.416630392113618 -3.98727614416157E-06 -3.86259907650276E-06
2.5 -3.84024036008164E-06 2.99909441745337E-06 0.485640614650618 -0.484435716819948 0.485603661166601 -0.482922067221324 -4.30280133206264E-06 -3.20278359684198E-06
2.55 -3.10005512367119E-06 3.15160320801969E-06 0.409954795859199 -0.550742711075018 0.412315960903847 -0.549914865965995 -4.45983560602855E-06 -2.47494444483104E-06
2.6 -2.36579544208708E-06 3.11726610272528E-06 0.323908601171914 -0.58778649085679 0.323642921253641 -0.587035967796414 -4.37016032403847E-06 -1.77567240678004E-06
2.65 -1.68939123733965E-06 2.86819481012012E-06 0.238009403788441 -0.634387261977875 0.24200267875018 -0.633321438536227 -4.19836166048138E-06 -1.19373766799913E-06
2.7 -1.13987027340834E-06 2.43425752064156E-06 0.147105860423786 -0.648442541769095 0.145742108659369 -0.649658347799569 -3.8132147389047E-06 -7.84648110811464E-07
2.75 -6.82301475302524E-07 1.96626596858106E-06 0.0518191421045053 -0.649284715718144 0.052583810093449 -0.648102790942554 -3.33832182465981E-06 -5.31320035383572E-07
2.8 -3.73621081043348E-07 1.35241242969739E-06 -0.0410067979288848 -0.666451218771552 -0.0399496680835326 -0.667623857538573 -2.77263639971057E-06 -3.79292077428465E-07
2.85 -2.82460874812778E-07 6.6345000851609E-07 -0.127624451435512 -0.629731621882038 -0.128501025216037 -0.629369611224251 -2.30689344721424E-06 -4.52619050637509E-07
2.9 -3.42225539958665E-07 -9.71706138706552E-08 -0.219364978365624 -0.612551476011351 -0.218134674237534 -0.613331097799324 -1.91541084887812E-06 -6.75131412541291E-07
2.95 -6.05170267610695E-07 -7.50254436974551E-07 -0.30501748042427 -0.584755149914557 -0.306717045362346 -0.583895601503827 -1.65202771502176E-06 -1.07517000292977E-06
3 -1.0904435094034E-06 -1.27498423715746E-06 -0.380863196071003 -0.524190141437153 -0.378488685227393 -0.525006640757222 -1.54860627720541E-06 -1.50561418490927E-06
3.05 -1.80708209000034E-06 -1.71118426833582E-06 -0.450573940711381 -0.472807831127842 -0.452866508653432 -0.472765188579114 -1.68636482031617E-06 -2.07527354996877E-06
3.1 -2.36392868018474E-06 -2.0387019872458E-06 -0.507603114694031 -0.399119919437708 -0.505851710238869 -0.397313664298459 -1.94608514104599E-06 -2.54812999668384E-06
3.15 -3.06161679904589E-06 -2.12130620142402E-06 -0.571202659855839 -0.323057618097676 -0.570923507671542 -0.32745942449184 -2.23954859737403E-06 -3.00434114976978E-06
3.2 -3.82836096615771E-06 -1.67967559016615E-06 -0.58848237394358 -0.246402910121646 -0.589255220571274 -0.242259387810756 -2.90321073792448E-06 -2.92387239807075E-06
3.25 -4.72641486253588E-06 -1.3019391476563E-06 -0.611036787244444 -0.142646471117889 -0.60999279210555 -0.147824563262098 -3.6889053667721E-06 -3.05398004580908E-06
3.3 -5.77499765049303E-06 -6.13754543934299E-07 -0.647033085174781 -0.0720860468663684 -0.648461045226292 -0.0670089241562876 -4.81082927007392E-06 -3.09497809698227E-06
3.35 -6.04378308015766E-06 -3.18381899297054E-07 -0.607133683873998 0.0239880007141976 -0.605240855685484 0.0176056710640451 -5.20791215411704E-06 -3.07465584809097E-06
3.4 -6.30510146221296E-06 4.07123800335966E-07 -0.635413115971963 0.119753010584133 -0.63871812290807 0.1231502581634 -5.70266062677765E-06 -2.61807699947882E-06
3.45 -5.85287839137292E-06 1.31551559785508E-06 -0.594063772897185 0.188813365365992 -0.58996332017733 0.186522960220621 -5.82254351046E-06 -1.47413379101084E-06
3.5 -5.75367130997245E-06 2.38072953730574E-06 -0.552978156362291 0.286359306806669 -0.560363964370096 0.282715279251739 -6.23258059073447E-06 -5.30924055586108E-07
3.55 -5.18378567074295E-06 3.46349386706545E-06 -0.530448599835826 0.350317192019743 -0.525047171440294 0.355301031534551 -6.48341965029258E-06 6.11081680301415E-07
3.6 -4.75393545845965E-06 4.20185476798045E-06 -0.455703877251089 0.427701632562691 -0.462270969159031 0.422086255219942 -6.4464238235009E-06 1.25652875016849E-06
3.65 -4.09243706465964E-06 4.787636167651E-06 -0.408936624710876 0.488737967796573 -0.404872772748432 0.494151958065874 -6.04280727279962E-06 2.11188753909861E-06
3.7 -3.44752739594626E-06 4.69787603284719E-06 -0.324881271936657 0.53050964696683 -0.328155102381887 0.526542377731174 -5.61719970120343E-06 2.39949615127843E-06
3.75 -2.42162859352957E-06 4.88203492293941E-06 -0.250482611383772 0.586932275303062 -0.248238263946011 0.590217723187747 -4.8528314128764E-06 2.77772756853511E-06
3.8 -1.63255399426788E-06 4.47607077772458E-06 -0.167043233717467 0.597292362837738 -0.169461618922064 0.5943577262718 -3.88798420994736E-06 2.91209199909618E-06
3.85 -7.49207918938394E-07 3.94435476254355E-06 -0.070249501983043 0.606742065498777 -0.073550897524606 0.6092856828755 -2.83138283109155E-06 3.13811161063465E-06
3.9 -1.68333840329269E-07 3.20261389121449E-06 0.00604475014084808 0.624181282234751 0.00799940765368354 0.623019519902454 -2.06579831910088E-06 2.99830245785845E-06
3.95 3.3564944689363E-07 2.65428086667557E-06 0.0964304419281529 0.584963621744574 0.0948710055468177 0.587305181798253 -1.27430541464753E-06 2.51590006959736E-06
4 -7.67917964368605E-09 2.0552058595187E-06 0.177284307513576 0.574146960115272 0.180319193112561 0.573961836524902 -1.2335902061868E-06 1.68612440401057E-06
4.05 -2.5665147729947E-07 9.39249937450092E-07 0.249703050243634 0.53183212254907 0.250673244462084 0.531132944922078 -9.97614531169229E-07 8.55882047948197E-07
4.1 -6.55289996261197E-07 1.82956808564207E-07 0.3173564336622 0.482440609841225 0.317506207012953 0.481964746417546 -1.00310167979124E-06 -1.53442171517481E-07
4.15 -1.06832520928788E-06 -3.10349166262776E-07 0.381515306354666 0.432784696656251 0.382496033925833 0.432154510910348 -1.35483073488905E-06 -5.86361227231134E-07
4.2 -2.12533671007678E-06 -3.75049436741345E-07 0.447348759716952 0.387577686855019 0.44506970546385 0.387526259477874 -2.08766206077516E-06 -1.14689891481333E-06
4.25 -3.24587468408748E-06 -5.0549649573464E-07 0.49200427201924 0.309495351498008 0.492737618204479 0.310808030041122 -3.03316282217094E-06 -1.75840485918346E-06
4.3 -4.30572875413675E-06 -4.21082088196589E-07 0.523480374640659 0.238738019666234 0.522360403369595 0.237417539937135 -3.79323190126837E-06 -2.05268855937768E-06
4.35 -4.94427446181945E-06 -6.57609306503494E-08 0.572145758593374 0.172117722821494 0.572016220656021 0.177289116290486 -4.66720174067932E-06 -1.99592202698402E-06
4.4 -5.78703260790882E-06 9.08943340808437E-07 0.574651747795913 0.0814967354507781 0.575179614750052 0.0765039181176998 -5.69823413832742E-06 -1.46218368640879E-06
4.45 -6.3147746829796E-06 1.99996667777241E-06 0.599415194299992 0.00413467829139588 0.598599462943572 0.0104371651057043 -6.58952809387743E-06 -7.7443748889113E-07
4.5 -6.55134432769336E-06 2.95003534897465E-06 0.595428096874327 -0.0787827063279315 0.598039311854737 -0.08185516613379 -7.11526198568964E-06 -9.71706138706547E-08
4.55 -6.40952699165859E-06 4.17941119874559E-06 0.562895846985674 -0.156028906533853 0.561084352527124 -0.156412886771539 -7.43709456607887E-06 9.23453171958383E-07
4.6 -5.99772214443117E-06 5.45097303908211E-06 0.536967062108341 -0.242370544965881 0.539425018346451 -0.242065003557751 -7.58545971090744E-06 2.11334417906786E-06
4.65 -5.20953849971377E-06 6.51663952687273E-06 0.5016445656336 -0.305156453042183 0.500604227623385 -0.307309172930538 -7.19554688962556E-06 3.31832484488785E-06
4.7 -4.97525988097105E-06 7.09723076276939E-06 0.460527676385164 -0.378867215302253 0.460402137645718 -0.380728010025899 -7.29056789888141E-06 3.90967824599417E-06
4.75 -3.14258052549175E-06 7.38831834031263E-06 0.378225384826795 -0.435604795698879 0.376994025387731 -0.436288895172656 -6.10752168541382E-06 4.80425317700889E-06
4.8 -1.79366120329342E-06 7.56778204137778E-06 0.330112000397391 -0.47602094683801 0.331195024710438 -0.476683587316405 -5.13933693847757E-06 5.27271141954498E-06
4.85 -6.66462283403945E-07 8.07719590868019E-06 0.250248096465249 -0.519829833950098 0.246315563881159 -0.522577250015642 -4.65532234675538E-06 6.10842678209373E-06
4.9 5.33116086607786E-07 7.13576808234405E-06 0.167232200524596 -0.530969990452142 0.165030073768037 -0.530414571524889 -3.56011293764678E-06 5.93873529674458E-06
4.95 1.59724108161542E-06 6.27803341462914E-06 0.0944389926723998 -0.547312611207843 0.0950052981285346 -0.547613668619149 -2.65326263291066E-06 5.62135748907682E-06
5 2.45218974861245E-06 5.18879198675375E-06 0.0155327431571893 -0.539191190343496 0.0127996412562011 -0.539750839915673 -1.87960296147883E-06 5.05742568894492E-06
5.05 2.78897056635598E-06 4.12220626014759E-06 -0.0603869612363327 -0.538266897847698 -0.0620788940812152 -0.536507384537355 -1.30462615342481E-06 4.390737131371E-06
5.1 2.65723657302092E-06 2.72485012343798E-06 -0.14263549112243 -0.523644547374558 -0.138826815713073 -0.524173728322506 -1.06085816167855E-06 3.36563028854923E-06
5.15 2.15755249502764E-06 1.12226331455679E-06 -0.2064636890562 -0.500277835236895 -0.207713667872154 -0.501841547570609 -1.10366640621159E-06 2.46570963026874E-06
5.2 1.55938258455069E-06 6.36396103067893E-10 -0.282434230423918 -0.478755386868137 -0.285055066044087 -0.475944435702633 -1.60296864654303E-06 1.76236465715811E-06
5.25 4.55447477762255E-07 -8.87192736219138E-07 -0.333580886786057 -0.407313834159729 -0.329156820942415 -0.409943964909448 -2.18152341490987E-06 7.89046314990444E-07
5.3 -9.88591848641288E-07 -1.2186278266969E-06 -0.400269582485839 -0.371892723069844 -0.403110587639921 -0.372569263180681 -2.70749772302766E-06 3.54614050765053E-07
5.35 -2.53381815543263E-06 -9.39971186366901E-07 -0.42352335039795 -0.300558764249293 -0.422305751846504 -0.298915171152436 -3.79400971872767E-06 6.85851151344079E-07
5.4 -3.92222232029241E-06 -8.98831713837468E-07 -0.472077799165223 -0.239257818454455 -0.472408499688129 -0.241696024601294 -5.05516294724512E-06 6.57213326706023E-07
5.45 -5.37693895909187E-06 -1.44348778311422E-07 -0.481379043418942 -0.161804259016448 -0.480342108573455 -0.160220946353898 -6.08831666523679E-06 1.39509339500981E-06
5.5 -6.67068981022203E-06 1.10396339105969E-06 -0.505890330113755 -0.0935688027433483 -0.507357135925801 -0.098291480866414 -6.9722142838556E-06 2.19235629079765E-06
5.55 -7.18492614577213E-06 2.42729958991468E-06 -0.503599473401849 -0.0335500273046187 -0.502916038344619 -0.0263342034177619 -7.33552574802924E-06 3.0954730717291E-06
5.6 -7.80405470124346E-06 4.52520055688143E-06 -0.509522633229786 0.0603492235994741 -0.509193258695558 0.0499018478217163 -8.10159109263112E-06 4.87417189553261E-06
5.65 -7.36222610008685E-06 5.45163771945642E-06 -0.500167613833834 0.121236749049845 -0.503110366399416 0.129267634316536 -7.83057120553794E-06 5.41198317116747E-06
5.7 -6.21964053663875E-06 6.85808724937208E-06 -0.47055273995228 0.174106756031105 -0.465109817653846 0.172951312423565 -6.78152172710522E-06 6.54140240634989E-06
5.75 -5.1821451830106E-06 9.4246727330449E-06 -0.434930004952435 0.264876361133248 -0.440775119196346 0.261639442256066 -5.87310164531485E-06 9.04784138721496E-06
5.8 -4.61319292473228E-06 9.8601797995777E-06 -0.391130582914667 0.301471673234266 -0.384802213804582 0.306352576777213 -5.38178971161082E-06 9.33446004990112E-06
