# GHZ S RI R 50
0.5 0.0001 0.0001 0.887871263484497 0 0.887871263484497 0 0.0001 0.0001
0.55 0.0001 0.0001 0.871565438136778 0 0.871565438136778 0 0.0001 0.0001
0.6 0.0001 0.0001 0.876395219629876 0 0.876395219629876 0 0.0001 0.0001
0.65 0.0001 0.0001 0.879629933844233 0 0.879629933844233 0 0.0001 0.0001
0.7 0.0001 0.0001 0.886237249620292 0 0.886237249620292 0 0.0001 0.0001
0.75 0.0001 0.0001 0.889918018129355 0 0.889918018129355 0 0.0001 0.0001
0.8 0.0001 0.0001 0.875890871164888 0 0.875890871164888 0 0.0001 0.0001
0.85 0.0001 0.0001 0.888484795107155 0 0.888484795107155 0 0.0001 0.0001
0.9 0.0001 0.0001 0.878415519261456 0 0.878415519261456 0 0.0001 0.0001
0.95 0.0001 0.0001 0.881657690262191 0 0.881657690262191 0 0.0001 0.0001
1 0.0001 0.0001 0.884708092870531 0 0.884708092870531 0 0.0001 0.0001
1.05 0.0001 0.0001 0.890122952918692 0 0.890122952918692 0 0.0001 0.0001
1.1 0.0001 0.0001 0.88828023747417 0 0.88828023747417 0 0.0001 0.0001
1.15 0.0001 0.0001 0.885523314502855 0 0.885523314502855 0 0.0001 0.0001
1.2 0.0001 0.0001 0.888587091587929 0 0.888587091587929 0 0.0001 0.0001
1.25 0.0001 0.0001 0.878921321449088 0 0.878921321449088 0 0.0001 0.0001
1.3 0.0001 0.0001 0.882571705049325 0 0.882571705049325 0 0.0001 0.0001
1.35 0.0001 0.0001 0.879326172888958 0 0.879326172888958 0 0.0001 0.0001
1.4 0.0001 0.0001 0.881962256634121 0 0.881962256634121 0 0.0001 0.0001
1.45 0.0001 0.0001 0.875084517256375 0 0.875084517256375 0 0.0001 0.0001
1.5 0.0001 0.0001 0.87236854936056 0 0.87236854936056 0 0.0001 0.0001
1.55 0.0001 0.0001 0.881353229065596 0 0.881353229065596 0 0.0001 0.0001
1.6 0.0001 0.0001 0.867660846094114 0 0.867660846094114 0 0.0001 0.0001
1.65 0.0001 0.0001 0.865565623862657 0 0.865565623862657 0 0.0001 0.0001
1.7 0.0001 0.0001 0.868660352811025 0 0.868660352811025 0 0.0001 0.0001
1.75 0.0001 0.0001 0.87166578659246 0 0.87166578659246 0 0.0001 0.0001
1.8 0.0001 0.0001 0.864271117808531 0 0.864271117808531 0 0.0001 0.0001
1.85 0.0001 0.0001 0.858914629611715 0 0.858914629611715 0 0.0001 0.0001
1.9 0.0001 0.0001 0.861192026148752 0 0.861192026148752 0 0.0001 0.0001
1.95 0.0001 0.0001 0.855066712884683 0 0.855066712884683 0 0.0001 0.0001
2 0.0001 0.0001 0.855559070549666 0 0.855559070549666 0 0.0001 0.0001
2.05 0.0001 0.0001 0.847715257843374 0 0.847715257843374 0 0.0001 0.0001
2.1 0.0001 0.0001 0.850844116299986 0 0.850844116299986 0 0.0001 0.0001
2.15 0.0001 0.0001 0.839556638485581 0 0.839556638485581 0 0.0001 0.0001
2.2 0.0001 0.0001 0.849278246179519 0 0.849278246179519 0 0.0001 0.0001
2.25 0.0001 0.0001 0.83666191447376 0 0.83666191447376 0 0.0001 0.0001
2.3 0.0001 0.0001 0.851922326428547 0 0.851922326428547 0 0.0001 0.0001
2.35 0.0001 0.0001 0.835506821416216 0 0.835506821416216 0 0.0001 0.0001
2.4 0.0001 0.0001 0.836854585180158 0 0.836854585180158 0 0.0001 0.0001
2.45 0.0001 0.0001 0.831380817915622 0 0.831380817915622 0 0.0001 0.0001
2.5 0.0001 0.0001 0.818747524681896 0 0.818747524681896 0 0.0001 0.0001
2.55 0.0001 0.0001 0.827465699042041 0 0.827465699042041 0 0.0001 0.0001
2.6 0.0001 0.0001 0.817334817978071 0 0.817334817978071 0 0.0001 0.0001
2.65 0.0001 0.0001 0.825562580745218 0 0.825562580745218 0 0.0001 0.0001
2.7 0.0001 0.0001 0.812269226620064 0 0.812269226620064 0 0.0001 0.0001
2.75 0.0001 0.0001 0.809654995908195 0 0.809654995908195 0 0.0001 0.0001
2.8 0.0001 0.0001 0.827751544930572 0 0.827751544930572 0 0.0001 0.0001
2.85 0.0001 0.0001 0.807327971966251 0 0.807327971966251 0 0.0001 0.0001
2.9 0.0001 0.0001 0.814141700570775 0 0.814141700570775 0 0.0001 0.0001
2.95 0.0001 0.0001 0.811428018953858 0 0.811428018953858 0 0.0001 0.0001
3 0.0001 0.0001 0.822053343375773 0 0.822053343375773 0 0.0001 0.0001
3.05 0.0001 0.0001 0.815548888192006 0 0.815548888192006 0 0.0001 0.0001
3.1 0.0001 0.0001 0.811147810037937 0 0.811147810037937 0 0.0001 0.0001
3.15 0.0001 0.0001 0.816770418046986 0 0.816770418046986 0 0.0001 0.0001
3.2 0.0001 0.0001 0.811801781421337 0 0.811801781421337 0 0.0001 0.0001
3.25 0.0001 0.0001 0.81752303794365 0 0.81752303794365 0 0.0001 0.0001
3.3 0.0001 0.0001 0.820823912584534 0 0.820823912584534 0 0.0001 0.0001
3.35 0.0001 0.0001 0.807327971966251 0 0.807327971966251 0 0.0001 0.0001
3.4 0.0001 0.0001 0.811783089209736 0 0.811783089209736 0 0.0001 0.0001
3.45 0.0001 0.0001 0.803359622583921 0 0.803359622583921 0 0.0001 0.0001
3.5 0.0001 0.0001 0.800239528662979 0 0.800239528662979 0 0.0001 0.0001
3.55 0.0001 0.0001 0.793012439714846 0 0.793012439714846 0 0.0001 0.0001
3.6 0.0001 0.0001 0.798821968595268 0 0.798821968595268 0 0.0001 0.0001
3.65 0.0001 0.0001 0.791097478009483 0 0.791097478009483 0 0.0001 0.0001
3.7 0.0001 0.0001 0.784612097515232 0 0.784612097515232 0 0.0001 0.0001
3.75 0.0001 0.0001 0.784268911728372 0 0.784268911728372 0 0.0001 0.0001
3.8 0.0001 0.0001 0.778663827145741 0 0.778663827145741 0 0.0001 0.0001
3.85 0.0001 0.0001 0.78668342515845 0 0.78668342515845 0 0.0001 0.0001
3.9 0.0001 0.0001 0.76700818769351 0 0.76700818769351 0 0.0001 0.0001
3.95 0.0001 0.0001 0.787861720297052 0 0.787861720297052 0 0.0001 0.0001
4 0.0001 0.0001 0.763835783577691 0 0.763835783577691 0 0.0001 0.0001
4.05 0.0001 0.0001 0.779201894882609 0 0.779201894882609 0 0.0001 0.0001
4.1 0.0001 0.0001 0.760326276940182 0 0.760326276940182 0 0.0001 0.0001
4.15 0.0001 0.0001 0.773837906767921 0 0.773837906767921 0 0.0001 0.0001
4.2 0.0001 0.0001 0.773303543063299 0 0.773303543063299 0 0.0001 0.0001
4.25 0.0001 0.0001 0.775889723919875 0 0.775889723919875 0 0.0001 0.0001
4.3 0.0001 0.0001 0.780279146050563 0 0.780279146050563 0 0.0001 0.0001
4.35 0.0001 0.0001 0.771969247610251 0 0.771969247610251 0 0.0001 0.0001
4.4 0.0001 0.0001 0.772147020564513 0 0.772147020564513 0 0.0001 0.0001
4.45 0.0001 0.0001 0.767096497857913 0 0.767096497857913 0 0.0001 0.0001
4.5 0.0001 0.0001 0.774550966144898 0 0.774550966144898 0 0.0001 0.0001
4.55 0.0001 0.0001 0.776068399701105 0 0.776068399701105 0 0.0001 0.0001
4.6 0.0001 0.0001 0.777767873136871 0 0.777767873136871 0 0.0001 0.0001
4.65 0.0001 0.0001 0.773036499601133 0 0.773036499601133 0 0.0001 0.0001
4.7 0.0001 0.0001 0.763132588705103 0 0.763132588705103 0 0.0001 0.0001
4.75 0.0001 0.0001 0.764539626415044 0 0.764539626415044 0 0.0001 0.0001
4.8 0.0001 0.0001 0.760676500766227 0 0.760676500766227 0 0.0001 0.0001
4.85 0.0001 0.0001 0.766302072273919 0 0.766302072273919 0 0.0001 0.0001
4.9 0.0001 0.0001 0.764627652359467 0 0.764627652359467 0 0.0001 0.0001
4.95 0.0001 0.0001 0.770371131697609 0 0.770371131697609 0 0.0001 0.0001
5 0.0001 0.0001 0.758228317571629 0 0.758228317571629 0 0.0001 0.0001
5.05 0.0001 0.0001 0.766302072273919 0 0.766302072273919 0 0.0001 0.0001
5.1 0.0001 0.0001 0.772147020564513 0 0.772147020564513 0 0.0001 0.0001
5.15 0.0001 0.0001 0.775532495758591 0 0.775532495758591 0 0.0001 0.0001
5.2 0.0001 0.0001 0.764539626415044 0 0.764539626415044 0 0.0001 0.0001
5.25 0.0001 0.0001 0.766919887695604 0 0.766919887695604 0 0.0001 0.0001
5.3 0.0001 0.0001 0.746620654377942 0 0.746620654377942 0 0.0001 0.0001
5.35 0.0001 0.0001 0.7535290502354 0 0.7535290502354 0 0.0001 0.0001
5.4 0.0001 0.0001 0.736376634961514 0 0.736376634961514 0 0.0001 0.0001
5.45 0.0001 0.0001 0.76076408192627 0 0.76076408192627 0 0.0001 0.0001
5.5 0.0001 0.0001 0.747738943462597 0 0.747738943462597 0 0.0001 0.0001
5.55 0.0001 0.0001 0.755266114094806 0 0.755266114094806 0 0.0001 0.0001
5.6 0.0001 0.0001 0.749548949791958 0 0.749548949791958 0 0.0001 0.0001
5.65 0.0001 0.0001 0.736715827029878 0 0.736715827029878 0 0.0001 0.0001
5.7 0.0001 0.0001 0.749117598897072 0 0.749117598897072 0 0.0001 0.0001
5.75 0.0001 0.0001 0.729709499467422 0 0.729709499467422 0 0.0001 0.0001
5.8 0.0001 0.0001 0.749894209332456 0 0.749894209332456 0 0.0001 0.0001
