# GHZ S RI R 50
0.5 5.29904407607636E-06 -3.40111290682917E-06 0.12178122353952 -0.868518025196343 0.12216090470082 -0.867968121863485 5.42531920506065E-06 -1.16966775316754E-06
0.55 4.78593911137616E-06 -4.30807634865029E-06 0.00149858072292943 -0.861926628652579 0.00269202964806121 -0.862269394439448 5.44484949435703E-06 -1.69346417239929E-06
0.6 4.0722703792602E-06 -5.141500685228E-06 -0.12334565797439 -0.85617331778976 -0.124436940418784 -0.856023986140695 5.31392160275253E-06 -2.33019968672215E-06
0.65 3.26342507439653E-06 -5.88855899955159E-06 -0.240400165694848 -0.834600538261461 -0.239551154889401 -0.834446129175828 5.07443867810027E-06 -2.93545480714659E-06
0.7 2.3856510005028E-06 -6.45324033287154E-06 -0.361511338681553 -0.795420412031737 -0.361685962156017 -0.795637403848402 4.80083078018794E-06 -3.51027605170875E-06
0.75 1.3757186692053E-06 -6.72375110308227E-06 -0.466979767110856 -0.74230710931848 -0.466534752305351 -0.742221572760694 4.41609398054435E-06 -4.01107735841632E-06
0.8 2.25284220486033E-07 -6.8057754896999E-06 -0.562536019519839 -0.655837683586528 -0.562984238216941 -0.655525882956512 3.86513051877941E-06 -4.55900026102215E-06
0.85 -8.17867987391608E-07 -6.7526717704328E-06 -0.653841649872676 -0.578849603861922 -0.652864971956129 -0.579183655358193 3.32887487806316E-06 -5.02870301149313E-06
0.9 -1.71490365000486E-06 -6.57091704339661E-06 -0.722960112534054 -0.476428677172596 -0.723463510522041 -0.477047574118772 2.77758614717888E-06 -5.41236500882932E-06
0.95 -2.47811228321075E-06 -6.09726863708661E-06 -0.783764769916561 -0.368842816205792 -0.783530120791727 -0.36790637309889 2.17535744377792E-06 -5.61572891909857E-06
1 -3.10991219220093E-06 -5.51076598849924E-06 -0.830939314099932 -0.259113760809336 -0.830800711716829 -0.260468550019172 1.51745115242633E-06 -5.71900893555868E-06
1.05 -3.56241810575345E-06 -4.79189295047375E-06 -0.863380151132954 -0.136864841880604 -0.863828608297139 -0.135439846271854 7.59757952113699E-07 -5.63166710594652E-06
1.1 -3.84895191562587E-06 -3.98857722063896E-06 -0.872552812727621 -0.0179551497253223 -0.871915504520406 -0.0184239702414733 8.44851182161687E-08 -5.40731626641165E-06
1.15 -3.97616042556132E-06 -3.2069131004441E-06 -0.862825387298392 0.109435732441396 -0.862855151039399 0.109722807355021 -5.34035325423329E-07 -5.05950458288161E-06
1.2 -3.99248045007111E-06 -2.53790523262789E-06 -0.841190762520485 0.226227140191945 -0.840852897358612 0.225867923524949 -1.11983086722951E-06 -4.70439555736973E-06
1.25 -3.82619721940728E-06 -1.98605081631866E-06 -0.792529860899389 0.341160043119603 -0.793182125236189 0.340322012875189 -1.63591982254633E-06 -4.20632368283755E-06
1.3 -3.54595665988743E-06 -1.54098366610422E-06 -0.738670141561762 0.448713134386577 -0.737930614636273 0.449770220128211 -1.99532805728782E-06 -3.64184033941632E-06
1.35 -3.22565143014554E-06 -1.23978446159E-06 -0.666722278488932 0.547273011160958 -0.667380656725434 0.545555915663377 -2.21447459091316E-06 -3.05499827957398E-06
1.4 -2.85693767016363E-06 -1.09772670924962E-06 -0.582336655629109 0.6365616688492 -0.582712917419792 0.637738384030863 -2.30953802657588E-06 -2.46042047154546E-06
1.45 -2.46695413820363E-06 -1.07360022587554E-06 -0.487009144069298 0.705735684061193 -0.485228300145321 0.705669383287154 -2.20458923811217E-06 -1.84687805964552E-06
1.5 -2.08129809974448E-06 -1.14811513847697E-06 -0.377268049734134 0.766113765094704 -0.379332188414065 0.765671021700545 -1.87183892902141E-06 -1.29140325661662E-06
1.55 -1.88487797806648E-06 -1.33056283015873E-06 -0.270846951119813 0.817808601726799 -0.269307962028858 0.818202260407408 -1.53654303551837E-06 -8.79103434642364E-07
1.6 -1.69151255768321E-06 -1.64895887159141E-06 -0.150194192216027 0.835583242131895 -0.152320750501541 0.835140299272913 -9.67208939578207E-07 -5.79657854945484E-07
1.65 -1.72823968389804E-06 -1.94433151622865E-06 -0.0301196605085581 0.845095764143581 -0.0282305290704219 0.84575784184831 -4.30585603335736E-07 -3.94678720987084E-07
1.7 -1.88561336911892E-06 -2.30993400637335E-06 0.087393282608682 0.844072222971266 0.0863538671004113 0.843279021065221 1.68758104397982E-07 -4.20318412872908E-07
1.75 -2.17853942429326E-06 -2.66108323391058E-06 0.207294016341032 0.825511947843714 0.208263763553735 0.826478874318603 7.56745677225843E-07 -6.26185481147559E-07
1.8 -2.49723245057404E-06 -2.91135660804375E-06 0.316089349932252 0.781909797606335 0.316896379315059 0.780096695644186 1.22937584977093E-06 -9.52840529784496E-07
1.85 -2.95147784680827E-06 -3.02865148090697E-06 0.423051398885405 0.724214703350194 0.42183459975976 0.725554495440463 1.56165946838611E-06 -1.4826897830632E-06
1.9 -3.44325647098789E-06 -3.08705850103298E-06 0.518370369701697 0.658835204875242 0.520791492120348 0.656928899968888 1.7961502191632E-06 -2.09179156437729E-06
1.95 -4.01578668957902E-06 -3.04384013456686E-06 0.603337452711055 0.577726234088515 0.602059531500566 0.577678886412199 1.85506635617166E-06 -2.7670502561392E-06
2 -4.50513286643136E-06 -2.80229245811354E-06 0.678130457329034 0.481885896414768 0.678856902981677 0.481925010385082 1.71078828853836E-06 -3.42792639597177E-06
2.05 -5.0149851399381E-06 -2.37859407482655E-06 0.730766359036896 0.38624471712378 0.730366410736629 0.384967157276301 1.4044413466571E-06 -4.06101323930371E-06
2.1 -5.39183062790367E-06 -1.77301368528278E-06 0.783249798823311 0.270786729070567 0.782676529178107 0.270449908756467 8.5835692168235E-07 -4.54068619538941E-06
2.15 -5.81862613889224E-06 -1.08423511186458E-06 0.79825125824911 0.164885465534106 0.797318027709326 0.165187715030823 1.58052507730817E-07 -5.03592964279685E-06
2.2 -6.02197590702587E-06 -3.58262721755977E-07 0.827406000675156 0.0453398023685012 0.827203906092588 0.0452074989210415 -6.59532636948316E-07 -5.36197657960196E-06
2.25 -6.17113301144935E-06 2.55505964313947E-07 0.807812426663174 -0.0686612112696503 0.806168506483866 -0.0686138519557028 -1.35211544484929E-06 -5.54801637373215E-06
2.3 -5.93850902257461E-06 9.08222091891627E-07 0.809322598052316 -0.182444342424172 0.809553526692336 -0.178817622731444 -2.12426190776938E-06 -5.38598992589105E-06
2.35 -5.58471521567573E-06 1.5253000376975E-06 0.755854032085329 -0.291225945578922 0.755368307633273 -0.292976615274712 -2.84180558504624E-06 -4.99521443433612E-06
2.4 -5.08008139021414E-06 2.15803332763885E-06 0.712840230916428 -0.391597196515114 0.711915454125306 -0.388715406849172 -3.46659099476705E-06 -4.47082404540819E-06
2.45 -4.5277461412937E-06 2.68644008308393E-06 0.642020402661718 -0.487726334003882 0.643414972839765 -0.486856471753381 -3.98727614416157E-06 -3.86259907650276E-06
2.5 -3.84024036008164E-06 2.99909441745337E-06 0.56223127480086 -0.560836351841565 0.562188493361663 -0.559083983695732 -4.30280133206264E-06 -3.20278359684198E-06
2.55 -3.10005512367119E-06 3.15160320801969E-06 0.479165974589947 -0.643722602018801 0.48192576655046 -0.642754994827762 -4.45983560602855E-06 -2.47494444483104E-06
2.6 -2.36579544208708E-06 3.11726610272528E-06 0.382095990575835 -0.693377269570617 0.381782583549343 -0.692491921508951 -4.37016032403847E-06 -1.77567240678004E-06
2.65 -1.68939123733965E-06 2.86819481012012E-06 0.281024456419125 -0.749039040554109 0.285739429473099 -0.74778059257449 -4.19836166048138E-06 -1.19373766799913E-06
2.7 -1.13987027340834E-06 2.43425752064156E-06 0.173812087114748 -0.766163572506149 0.172200754025795 -0.767600101160239 -3.8132147389047E-06 -7.84648110811464E-07
2.75 -6.82301475302524E-07 1.96626596858106E-06 0.0624439286351624 -0.782411417974448 0.0633653810442914 -0.780987156141047 -3.33832182465981E-06 -5.31320035383572E-07
2.8 -3.73621081043348E-07 1.35241242969739E-06 -0.04912537268626 -0.798396025852659 -0.0478589510134252 -0.799800825041226 -2.77263639971057E-06 -3.79292077428465E-07
2.85 -2.82460874812778E-07 6.6345000851609E-07 -0.155179335699489 -0.765694454733813 -0.15624516701491 -0.7652542838045 -2.30689344721424E-06 -4.52619050637509E-07
2.9 -3.42225539958665E-07 -9.71706138706552E-08 -0.26528780942561 -0.740785700808754 -0.263799948010812 -0.741728532056716 -1.91541084887812E-06 -6.75131412541291E-07
2.95 -6.05170267610695E-07 -7.50254436974551E-07 -0.362806224376329 -0.695543113889789 -0.364827789623697 -0.69452071506487 -1.65202771502176E-06 -1.07517000292977E-06
3 -1.0904435094034E-06 -1.27498423715746E-06 -0.467217399181839 -0.643041273311609 -0.464304508694847 -0.6440428998607 -1.54860627720541E-06 -1.50561418490927E-06
3.05 -1.80708209000034E-06 -1.71118426833582E-06 -0.541646661116498 -0.568374599462628 -0.544402616707793 -0.568323337744954 -1.68636482031617E-06 -2.07527354996877E-06
3.1 -2.36392868018474E-06 -2.0387019872458E-06 -0.618335638506942 -0.486187068365632 -0.61620216895028 -0.483986782566544 -1.94608514104599E-06 -2.54812999668384E-06
3.15 -3.06161679904589E-06 -2.12130620142402E-06 -0.682873439544113 -0.386215755537563 -0.682539712785391 -0.391478120165467 -2.23954859737403E-06 -3.00434114976978E-06
3.2 -3.82836096615771E-06 -1.67967559016615E-06 -0.722243196515933 -0.302409780338039 -0.723191709578545 -0.297324444003158 -2.90321073792448E-06 -2.92387239807075E-06
3.25 -4.72641486253588E-06 -1.3019391476563E-06 -0.769515474338595 -0.179643303278067 -0.768200708302763 -0.186164386976626 -3.6889053667721E-06 -3.05398004580908E-06
3.3 -5.77499765049303E-06 -6.13754543934299E-07 -0.779608361348744 -0.0868562769992162 -0.781328906435753 -0.0807388659934044 -4.81082927007392E-06 -3.09497809698227E-06
3.35 -6.04378308015766E-06 -3.18381899297054E-07 -0.782770280251436 0.0309274457017625 -0.780329879247597 0.0226987835444776 -5.20791215411704E-06 -3.07465584809097E-06
3.4 -6.30510146221296E-06 4.07123800335966E-07 -0.761458388068344 0.143508108525964 -0.765419000764028 0.147579259404901 -5.70266062677765E-06 -2.61807699947882E-06
3.45 -5.85287839137292E-06 1.31551559785508E-06 -0.740274976370749 0.235284183216777 -0.735165318655894 0.232430062679179 -5.82254351046E-06 -1.47413379101084E-06
3.5 -5.75367130997245E-06 2.38072953730574E-06 -0.680672141547644 0.35248553740067 -0.689763483937737 0.348000029227997 -6.23258059073447E-06 -5.30924055586108E-07
3.55 -5.18378567074295E-06 3.46349386706545E-06 -0.634685106642175 0.419156737230436 -0.628222263384035 0.425119932750082 -6.48341965029258E-06 6.11081680301415E-07
3.6 -4.75393545845965E-06 4.20185476798045E-06 -0.561982411668831 0.527449527952645 -0.570081070320451 0.520524541225421 -6.4464238235009E-06 1.25652875016849E-06
3.65 -4.09243706465964E-06 4.787636167651E-06 -0.484073165275577 0.578536919330494 -0.479262635810132 0.584945656645927 -6.04280727279962E-06 2.11188753909861E-06
3.7 -3.44752739594626E-06 4.69787603284719E-06 -0.396040569896732 0.646708077901831 -0.40003147299664 0.641871850932955 -5.61719970120343E-06 2.39949615127843E-06
3.75 -2.42162859352957E-06 4.88203492293941E-06 -0.294000170538517 0.688902866671563 -0.291365901733172 0.692759111354803 -4.8528314128764E-06 2.77772756853511E-06
3.8 -1.63255399426788E-06 4.47607077772458E-06 -0.202175668932473 0.722914543244678 -0.205102687498832 0.719362695632606 -3.88798420994736E-06 2.91209199909618E-06
3.85 -7.49207918938394E-07 3.94435476254355E-06 -0.0868146961900567 0.749814968008149 -0.0908945777956684 0.752958383456664 -2.83138283109155E-06 3.13811161063465E-06
3.9 -1.68333840329269E-07 3.20261389121449E-06 0.00712407288585433 0.735632217215599 0.00942774504166802 0.734263015951945 -2.06579831910088E-06 2.99830245785845E-06
3.95 3.3564944689363E-07 2.65428086667557E-06 0.123130078707068 0.746928203853358 0.121138865968299 0.749918094472356 -1.27430541464753E-06 2.51590006959736E-06
4 -7.67917964368605E-09 2.0552058595187E-06 0.215759682975941 0.698752009320313 0.219453218878181 0.698526709023124 -1.2335902061868E-06 1.68612440401057E-06
4.05 -2.5665147729947E-07 9.39249937450092E-07 0.317485465090934 0.676199063700043 0.318719020557607 0.675310092844981 -9.97614531169229E-07 8.55882047948197E-07
4.1 -6.55289996261197E-07 1.82956808564207E-07 0.400679669659467 0.609107374792503 0.400868766619031 0.608506571471132 -1.00310167979124E-06 -1.53442171517481E-07
4.15 -1.06832520928788E-06 -3.10349166262776E-07 0.489510448866933 0.555292612365065 0.490768789975617 0.554484040592955 -1.35483073488905E-06 -5.86361227231134E-07
4.2 -2.12533671007678E-06 -3.75049436741345E-07 0.559946117329353 0.485130708879745 0.557093426777545 0.485066337269158 -2.08766206077516E-06 -1.14689891481333E-06
4.25 -3.24587468408748E-06 -5.0549649573464E-07 0.629751011478051 0.396144955924292 0.63068967304703 0.397825145888657 -3.03316282217094E-06 -1.75840485918346E-06
4.3 -4.30572875413675E-06 -4.21082088196589E-07 0.676940354581837 0.308724849133004 0.675492060078196 0.307017266462597 -3.79323190126837E-06 -2.05268855937768E-06
4.35 -4.94427446181945E-06 -6.57609306503494E-08 0.708690617023848 0.213194301198681 0.708530164343089 0.219599868265059 -4.66720174067932E-06 -1.99592202698402E-06
4.4 -5.78703260790882E-06 9.08943340808437E-07 0.731399622657965 0.103726616659877 0.732071475989224 0.0973719075209596 -5.69823413832742E-06 -1.46218368640879E-06
4.45 -6.3147746829796E-06 1.99996667777241E-06 0.731775301776454 0.0050476789430875 0.730779444372122 0.0127418519209157 -6.58952809387743E-06 -7.7443748889113E-07
4.5 -6.55134432769336E-06 2.95003534897465E-06 0.733296013750264 -0.0970243843144057 0.736511840390342 -0.100808254339806 -7.11526198568964E-06 -9.71706138706547E-08
4.55 -6.40952699165859E-06 4.17941119874559E-06 0.715942336079712 -0.198451810291386 0.713638312020208 -0.198940191418817 -7.43709456607887E-06 9.23453171958383E-07
4.6 -5.99772214443117E-06 5.45097303908211E-06 0.677247868142465 -0.305689019796063 0.680347957030061 -0.305303656741441 -7.58545971090744E-06 2.11334417906786E-06
4.65 -5.20953849971377E-06 6.51663952687273E-06 0.627041249935755 -0.381436771870246 0.625740857404926 -0.384127609690547 -7.19554688962556E-06 3.31832484488785E-06
4.7 -4.97525988097105E-06 7.09723076276939E-06 0.567748159689448 -0.467075433865172 0.567593392903552 -0.469369460552563 -7.29056789888141E-06 3.90967824599417E-06
4.75 -3.14258052549175E-06 7.38831834031263E-06 0.477310154054685 -0.549721410785809 0.475756211915593 -0.550584725725304 -6.10752168541382E-06 4.80425317700889E-06
4.8 -1.79366120329342E-06 7.56778204137778E-06 0.412013372861025 -0.59412258755552 0.413365097425935 -0.594949630311219 -5.13933693847757E-06 5.27271141954498E-06
4.85 -6.66462283403945E-07 8.07719590868019E-06 0.319610311699974 -0.663913043122021 0.31458778412544 -0.667421970931988 -4.65532234675538E-06 6.10842678209373E-06
4.9 5.33116086607786E-07 7.13576808234405E-06 0.218232739510089 -0.692899066391071 0.215359033648868 -0.692174262234396 -3.56011293764678E-06 5.93873529674458E-06
4.95 1.59724108161542E-06 6.27803341462914E-06 0.124954340321582 -0.724161539083692 0.125703631717958 -0.724559874868141 -2.65326263291066E-06 5.62135748907682E-06
5 2.45218974861245E-06 5.18879198675375E-06 0.0207705578568159 -0.721012489653604 0.0171158234297696 -0.721760859320236 -1.87960296147883E-06 5.05742568894492E-06
5.05 2.78897056635598E-06 4.12220626014759E-06 -0.0817510192058449 -0.728698159385808 -0.0840415341061671 -0.726316155001387 -1.30462615342481E-06 4.390737131371E-06
5.1 2.65723657302092E-06 2.72485012343798E-06 -0.193031240577766 -0.708657822860741 -0.187876889907811 -0.709373973196597 -1.06085816167855E-06 3.36563028854923E-06
5.15 2.15755249502764E-06 1.12226331455679E-06 -0.280668506048197 -0.680081971153505 -0.282367737949309 -0.68220769508394 -1.10366640621159E-06 2.46570963026874E-06
5.2 1.55938258455069E-06 6.36396103067893E-10 -0.370482186527388 -0.628005827312257 -0.373920059159299 -0.624318571229824 -1.60296864654303E-06 1.76236465715811E-06
5.25 4.55447477762255E-07 -8.87192736219138E-07 -0.462541983971403 -0.564779807279759 -0.456407591164148 -0.568426736535209 -2.18152341490987E-06 7.89046314990444E-07
5.3 -9.88591848641288E-07 -1.2186278266969E-06 -0.517967592456347 -0.481246606909824 -0.521643986227458 -0.482122081509303 -2.70749772302766E-06 3.54614050765053E-07
5.35 -2.53381815543263E-06 -9.39971186366901E-07 -0.583885055395503 -0.414361499899373 -0.582206428710593 -0.412095581277639 -3.79400971872767E-06 6.85851151344079E-07
5.4 -3.92222232029241E-06 -8.98831713837468E-07 -0.624760518907456 -0.316640263690848 -0.625198176917765 -0.319867051606306 -5.05516294724512E-06 6.57213326706023E-07
5.45 -5.37693895909187E-06 -1.44348778311422E-07 -0.686020635642292 -0.230589723706543 -0.684542883938005 -0.228333320620384 -6.08831666523679E-06 1.39509339500981E-06
5.5 -6.67068981022203E-06 1.10396339105969E-06 -0.693276338711473 -0.128227469714509 -0.695286461661929 -0.134699467306034 -6.9722142838556E-06 2.19235629079765E-06
5.55 -7.18492614577213E-06 2.42729958991468E-06 -0.717191720547841 -0.0477796405236237 -0.716218419362146 -0.0375033606188281 -7.33552574802924E-06 3.0954730717291E-06
5.6 -7.80405470124346E-06 4.52520055688143E-06 -0.713039321620833 0.0844542845583594 -0.712578386268547 0.0698339531904087 -8.10159109263112E-06 4.87417189553261E-06
5.65 -7.36222610008685E-06 5.45163771945642E-06 -0.669060772234912 0.162175140291045 -0.672997213239025 0.172917839637524 -7.83057120553794E-06 5.41198317116747E-06
5.7 -6.21964053663875E-06 6.85808724937208E-06 -0.672524804010576 0.24883738215744 -0.664745654212468 0.247185995565185 -6.78152172710522E-06 6.54140240634989E-06
5.75 -5.1821451830106E-06 9.4246727330449E-06 -0.593429825288126 0.361404205091457 -0.60140505138211 0.356987668678964 -5.87310164531485E-06 9.04784138721496E-06
5.8 -4.61319292473228E-06 9.8601797995777E-06 -0.558176791859857 0.430225859989165 -0.549145667928689 0.437191326766724 -5.38178971161082E-06 9.33446004990112E-06
