# GHZ S RI R 50
0.5 5.29904407607636E-06 -3.40111290682917E-06 0.121711140805405 -0.868018209904097 0.122090603467555 -0.867468623029951 5.42531920506065E-06 -1.16966775316754E-06
0.55 4.78593911137616E-06 -4.30807634865029E-06 0.00150549785726172 -0.865905101205804 0.00270445549233988 -0.866249449127659 5.44484949435703E-06 -1.69346417239929E-06
0.6 4.0722703792602E-06 -5.141500685228E-06 -0.125812521375465 -0.873296438759862 -0.126925629028516 -0.873144120538057 5.31392160275253E-06 -2.33019968672215E-06
0.65 3.26342507439653E-06 -5.88855899955159E-06 -0.2405385909925 -0.835081111257719 -0.239689091316452 -0.834926613261483 5.07443867810027E-06 -2.93545480714659E-06
0.7 2.3856510005028E-06 -6.45324033287154E-06 -0.363514654435837 -0.799828235721346 -0.36369024558661 -0.800046429998566 4.80083078018794E-06 -3.51027605170875E-06
0.75 1.3757186692053E-06 -6.72375110308227E-06 -0.47244152667432 -0.75098907637335 -0.471991307009759 -0.75090253938654 4.41609398054435E-06 -4.01107735841632E-06
0.8 2.25284220486033E-07 -6.8057754896999E-06 -0.575043019412591 -0.670419082027967 -0.575501203464804 -0.670100349058846 3.86513051877941E-06 -4.55900026102215E-06
0.85 -8.17867987391608E-07 -6.7526717704328E-06 -0.655952787246539 -0.580718605374439 -0.654972955812237 -0.581053735463055 3.32887487806316E-06 -5.02870301149313E-06
0.9 -1.71490365000486E-06 -6.57091704339661E-06 -0.728558344752194 -0.480117896430965 -0.729065640795946 -0.480741585797586 2.77758614717888E-06 -5.41236500882932E-06
0.95 -2.47811228321075E-06 -6.09726863708661E-06 -0.798795736363416 -0.375916448764121 -0.798556587159914 -0.374962046640101 2.17535744377792E-06 -5.61572891909857E-06
1 -3.10991219220093E-06 -5.51076598849924E-06 -0.830843654182774 -0.259083930952361 -0.83070506775594 -0.260438564195304 1.51745115242633E-06 -5.71900893555868E-06
1.05 -3.56241810575345E-06 -4.79189295047375E-06 -0.865370447933048 -0.137180347925633 -0.865819938897765 -0.135752067362744 7.59757952113699E-07 -5.63166710594652E-06
1.1 -3.84895191562587E-06 -3.98857722063896E-06 -0.877287058539353 -0.0180525697223084 -0.876646292462692 -0.018523933937285 8.44851182161687E-08 -5.40731626641165E-06
1.15 -3.97616042556132E-06 -3.2069131004441E-06 -0.859949434143703 0.109070963341432 -0.859979098676775 0.10935708138242 -5.34035325423329E-07 -5.05950458288161E-06
1.2 -3.99248045007111E-06 -2.53790523262789E-06 -0.836266105516285 0.224902718764458 -0.835930218348121 0.224545605091163 -1.11983086722951E-06 -4.70439555736973E-06
1.25 -3.82619721940728E-06 -1.98605081631866E-06 -0.7953634589945 0.342379821068682 -0.796018055426371 0.341538794544858 -1.63591982254633E-06 -4.20632368283755E-06
1.3 -3.54595665988743E-06 -1.54098366610422E-06 -0.740032076250134 0.449540456283679 -0.739291185810249 0.450599491043771 -1.99532805728782E-06 -3.64184033941632E-06
1.35 -3.22565143014554E-06 -1.23978446159E-06 -0.668798002453451 0.548976850587137 -0.669458430436192 0.547254409211086 -2.21447459091316E-06 -3.05499827957398E-06
1.4 -2.85693767016363E-06 -1.09772670924962E-06 -0.582940364211491 0.637221592518757 -0.583317016072883 0.638399527601395 -2.30953802657588E-06 -2.46042047154546E-06
1.45 -2.46695413820363E-06 -1.07360022587554E-06 -0.488412888244586 0.707769880683286 -0.486626911256239 0.707703388805391 -2.20458923811217E-06 -1.84687805964552E-06
1.5 -2.08129809974448E-06 -1.14811513847697E-06 -0.379489729808609 0.770625304536996 -0.381566023919618 0.770179953887391 -1.87183892902141E-06 -1.29140325661662E-06
1.55 -1.88487797806648E-06 -1.33056283015873E-06 -0.269199315442095 0.812833649547426 -0.267669688440405 0.8132249134952 -1.53654303551837E-06 -8.79103434642364E-07
1.6 -1.69151255768321E-06 -1.64895887159141E-06 -0.150107758369062 0.83510238016905 -0.152233092861494 0.8346596922151 -9.67208939578207E-07 -5.79657854945484E-07
1.65 -1.72823968389804E-06 -1.94433151622865E-06 -0.0302134328379641 0.847726822961537 -0.0283184199173505 0.848390961930158 -4.30585603335736E-07 -3.94678720987084E-07
1.7 -1.88561336911892E-06 -2.30993400637335E-06 0.087554415347666 0.845628494404582 0.0865130834007081 0.844833830020051 1.68758104397982E-07 -4.20318412872908E-07
1.75 -2.17853942429326E-06 -2.66108323391058E-06 0.207007826812139 0.82437224839836 0.2079762351946 0.82533783993731 7.56745677225843E-07 -6.26185481147559E-07
1.8 -2.49723245057404E-06 -2.91135660804375E-06 0.314963235613415 0.779124130138221 0.315767389836575 0.777317487615727 1.22937584977093E-06 -9.52840529784496E-07
1.85 -2.95147784680827E-06 -3.02865148090697E-06 0.426278211966324 0.729738631374829 0.425052131738322 0.73108864269296 1.56165946838611E-06 -1.4826897830632E-06
1.9 -3.44325647098789E-06 -3.08705850103298E-06 0.517654709044841 0.657925618866782 0.520072488868773 0.656021945799556 1.7961502191632E-06 -2.09179156437729E-06
1.95 -4.01578668957902E-06 -3.04384013456686E-06 0.606052553464421 0.580326080868066 0.604768881434344 0.580278520120754 1.85506635617166E-06 -2.7670502561392E-06
2 -4.50513286643136E-06 -2.80229245811354E-06 0.677662183159177 0.481553136374764 0.67838812717422 0.481592223335433 1.71078828853836E-06 -3.42792639597177E-06
2.05 -5.0149851399381E-06 -2.37859407482655E-06 0.734985119267166 0.388474532209824 0.734582862040165 0.387189596928857 1.4044413466571E-06 -4.06101323930371E-06
2.1 -5.39183062790367E-06 -1.77301368528278E-06 0.783881278003981 0.271005045349827 0.783307546171814 0.270667953481215 8.5835692168235E-07 -4.54068619538941E-06
2.15 -5.81862613889224E-06 -1.08423511186458E-06 0.801751187357776 0.165608405127943 0.800813865072821 0.165911979836241 1.58052507730817E-07 -5.03592964279685E-06
2.2 -6.02197590702587E-06 -3.58262721755977E-07 0.8206702048081 0.0449706974149987 0.820469755449102 0.0448394710312947 -6.59532636948316E-07 -5.36197657960196E-06
2.25 -6.17113301144935E-06 2.55505964313947E-07 0.813880287232063 -0.0691769580478921 0.812224018792063 -0.0691292429957755 -1.35211544484929E-06 -5.54801637373215E-06
2.3 -5.93850902257461E-06 9.08222091891627E-07 0.805882392341371 -0.181668822167791 0.806112339367845 -0.178057518653764 -2.12426190776938E-06 -5.38598992589105E-06
2.35 -5.58471521567573E-06 1.5253000376975E-06 0.764518385778158 -0.294564268178145 0.7640270934674 -0.296335005798164 -2.84180558504624E-06 -4.99521443433612E-06
2.4 -5.08008139021414E-06 2.15803332763885E-06 0.718690993199678 -0.394811299771677 0.717758626139468 -0.391905857307317 -3.46659099476705E-06 -4.47082404540819E-06
2.45 -4.5277461412937E-06 2.68644008308393E-06 0.649305123304419 -0.493260348310245 0.650715517051502 -0.492380616118749 -3.98727614416157E-06 -3.86259907650276E-06
2.5 -3.84024036008164E-06 2.99909441745337E-06 0.571301020860317 -0.569883595422806 0.571257549283792 -0.568102958600367 -4.30280133206264E-06 -3.20278359684198E-06
2.55 -3.10005512367119E-06 3.15160320801969E-06 0.480879176653146 -0.646024157113256 0.483648835927975 -0.645053090355545 -4.45983560602855E-06 -2.47494444483104E-06
2.6 -2.36579544208708E-06 3.11726610272528E-06 0.385542696539091 -0.699631895708444 0.385226462417068 -0.698738561343548 -4.37016032403847E-06 -1.77567240678004E-06
2.65 -1.68939123733965E-06 2.86819481012012E-06 0.282516694603065 -0.753016433382545 0.287256704135774 -0.751751303051676 -4.19836166048138E-06 -1.19373766799913E-06
2.7 -1.13987027340834E-06 2.43425752064156E-06 0.175602208884652 -0.774054428160768 0.173974280388043 -0.775505751880377 -3.8132147389047E-06 -7.84648110811464E-07
2.75 -6.82301475302524E-07 1.96626596858106E-06 0.0638322596604533 -0.799806960981717 0.0647741989447019 -0.798351033189196 -3.33832182465981E-06 -5.31320035383572E-07
2.8 -3.73621081043348E-07 1.35241242969739E-06 -0.0494943765564855 -0.804393155388833 -0.048218442192488 -0.805808506687422 -2.77263639971057E-06 -3.79292077428465E-07
2.85 -2.82460874812778E-07 6.6345000851609E-07 -0.158702543940526 -0.783078863559092 -0.159792574004171 -0.782628698941903 -2.30689344721424E-06 -4.52619050637509E-07
2.9 -3.42225539958665E-07 -9.71706138706552E-08 -0.267311285003089 -0.746436023667453 -0.265812074965668 -0.74738604633521 -1.91541084887812E-06 -6.75131412541291E-07
2.95 -6.05170267610695E-07 -7.50254436974551E-07 -0.368404332805845 -0.706275360216741 -0.370457090851715 -0.705237185754317 -1.65202771502176E-06 -1.07517000292977E-06
3 -1.0904435094034E-06 -1.27498423715746E-06 -0.466787274164718 -0.642449283074993 -0.463877065313883 -0.643449987516652 -1.54860627720541E-06 -1.50561418490927E-06
3.05 -1.80708209000034E-06 -1.71118426833582E-06 -0.539779106833698 -0.566414889390248 -0.542525560110962 -0.566363804418868 -1.68636482031617E-06 -2.07527354996877E-06
3.1 -2.36392868018474E-06 -2.0387019872458E-06 -0.62247838894358 -0.489444444399501 -0.6203306254802 -0.487229417035497 -1.94608514104599E-06 -2.54812999668384E-06
3.15 -3.06161679904589E-06 -2.12130620142402E-06 -0.684290043652383 -0.387016950596985 -0.683955624585731 -0.392290231870521 -2.23954859737403E-06 -3.00434114976978E-06
3.2 -3.82836096615771E-06 -1.67967559016615E-06 -0.728590424972563 -0.305067422490411 -0.729547273771851 -0.29993739512673 -2.90321073792448E-06 -2.92387239807075E-06
3.25 -4.72641486253588E-06 -1.3019391476563E-06 -0.762372737606223 -0.177975832169507 -0.76107017538951 -0.184436386371751 -3.6889053667721E-06 -3.05398004580908E-06
3.3 -5.77499765049303E-06 -6.13754543934299E-07 -0.780057269190214 -0.0869062898848636 -0.781778804987712 -0.0807853564004507 -4.81082927007392E-06 -3.09497809698227E-06
3.35 -6.04378308015766E-06 -3.18381899297054E-07 -0.786745610031868 0.0310845119561065 -0.784292815355157 0.0228140602130999 -5.20791215411704E-06 -3.07465584809097E-06
3.4 -6.30510146221296E-06 4.07123800335966E-07 -0.759908277384112 0.143215967214258 -0.763860827409331 0.147278830398721 -5.70266062677765E-06 -2.61807699947882E-06
3.45 -5.85287839137292E-06 1.31551559785508E-06 -0.741332549686116 0.235620315440127 -0.736215592200469 0.232762117442374 -5.82254351046E-06 -1.47413379101084E-06
3.5 -5.75367130997245E-06 2.38072953730574E-06 -0.680256932273291 0.352270521601917 -0.689342728954303 0.347787749584406 -6.23258059073447E-06 -5.30924055586108E-07
3.55 -5.18378567074295E-06 3.46349386706545E-06 -0.638679986428875 0.421795023144974 -0.63217646428663 0.42779575263067 -6.48341965029258E-06 6.11081680301415E-07
3.6 -4.75393545845965E-06 4.20185476798045E-06 -0.562111827800205 0.527570991678174 -0.570212351451601 0.520644410230237 -6.4464238235009E-06 1.25652875016849E-06
3.65 -4.09243706465964E-06 4.787636167651E-06 -0.491615999099293 0.587551688494386 -0.486730511906453 0.594060286830958 -6.04280727279962E-06 2.11188753909861E-06
3.7 -3.44752739594626E-06 4.69787603284719E-06 -0.397786167282075 0.649558523072537 -0.401794660776871 0.644700979840142 -5.61719970120343E-06 2.39949615127843E-06
3.75 -2.42162859352957E-06 4.88203492293941E-06 -0.299873150433817 0.702664466463719 -0.297186259183715 0.706597743916888 -4.8528314128764E-06 2.77772756853511E-06
3.8 -1.63255399426788E-06 4.47607077772458E-06 -0.201200422668528 0.719427379278937 -0.204113322009084 0.715892664916044 -3.88798420994736E-06 2.91209199909618E-06
3.85 -7.49207918938394E-07 3.94435476254355E-06 -0.087095005267588 0.752235986006546 -0.0911880600788836 0.755389550979546 -2.83138283109155E-06 3.13811161063465E-06
3.9 -1.68333840329269E-07 3.20261389121449E-06 0.007286657458043 0.752420710432968 0.00964290369021962 0.75102026145396 -2.06579831910088E-06 2.99830245785845E-06
3.95 3.3564944689363E-07 2.65428086667557E-06 0.121776687677399 0.738718301435387 0.119807361462922 0.741675328507266 -1.27430541464753E-06 2.51590006959736E-06
4 -7.67917964368605E-09 2.0552058595187E-06 0.219492808402561 0.710841983021222 0.223250250742745 0.710612784524628 -1.2335902061868E-06 1.68612440401057E-06
4.05 -2.5665147729947E-07 9.39249937450092E-07 0.318217344674242 0.677757863529925 0.319453743779948 0.676866843385397 -9.97614531169229E-07 8.55882047948197E-07
4.1 -6.55289996261197E-07 1.82956808564207E-07 0.412332253011871 0.626821461612445 0.41252684929733 0.626203185703093 -1.00310167979124E-06 -1.53442171517481E-07
4.15 -1.06832520928788E-06 -3.10349166262776E-07 0.490017924493428 0.555868284379832 0.491277570124711 0.555058874361127 -1.35483073488905E-06 -5.86361227231134E-07
4.2 -2.12533671007678E-06 -3.75049436741345E-07 0.56636477887447 0.490691761504403 0.563479387934931 0.490626652002136 -2.08766206077516E-06 -1.14689891481333E-06
4.25 -3.24587468408748E-06 -5.0549649573464E-07 0.636969846425334 0.400685964989612 0.63791926787054 0.402385414969144 -3.03316282217094E-06 -1.75840485918346E-06
4.3 -4.30572875413675E-06 -4.21082088196589E-07 0.679908396570305 0.310078451867585 0.678453752025823 0.308363382308518 -3.79323190126837E-06 -2.05268855937768E-06
4.35 -4.94427446181945E-06 -6.57609306503494E-08 0.714260581144143 0.214869904882155 0.714098867383227 0.221325816595227 -4.66720174067932E-06 -1.99592202698402E-06
4.4 -5.78703260790882E-06 9.08943340808437E-07 0.741062320373482 0.105096974137223 0.741743049721965 0.0986583113954093 -5.69823413832742E-06 -1.46218368640879E-06
4.45 -6.3147746829796E-06 1.99996667777241E-06 0.741613705887974 0.00511554281488907 0.740604459609274 0.0129131606382539 -6.58952809387743E-06 -7.7443748889113E-07
4.5 -6.55134432769336E-06 2.95003534897465E-06 0.740166328118485 -0.0979334142410979 0.74341228411909 -0.101752735675091 -7.11526198568964E-06 -9.71706138706547E-08
4.55 -6.40952699165859E-06 4.17941119874559E-06 0.714542466009632 -0.19806378078736 0.712242946969819 -0.198551206991345 -7.43709456607887E-06 9.23453171958383E-07
4.6 -5.99772214443117E-06 5.45097303908211E-06 0.67794997120681 -0.306005927692908 0.681053273957469 -0.305620165132294 -7.58545971090744E-06 2.11334417906786E-06
4.65 -5.20953849971377E-06 6.51663952687273E-06 0.623011569711019 -0.378985468679666 0.621719534152026 -0.381659013832294 -7.19554688962556E-06 3.31832484488785E-06
4.7 -4.97525988097105E-06 7.09723076276939E-06 0.568140481711796 -0.467398189607618 0.567985607979858 -0.469693801499953 -7.29056789888141E-06 3.90967824599417E-06
4.75 -3.14258052549175E-06 7.38831834031263E-06 0.479789427140895 -0.552576806773297 0.478227413422161 -0.553444605995132 -6.10752168541382E-06 4.80425317700889E-06
4.8 -1.79366120329342E-06 7.56778204137778E-06 0.410214787938952 -0.591529031136659 0.41156061174534 -0.592352463556557 -5.13933693847757E-06 5.27271141954498E-06
4.85 -6.66462283403945E-07 8.07719590868019E-06 0.320863844407026 -0.666516953833679 0.315821618148325 -0.67003964388978 -4.65532234675538E-06 6.10842678209373E-06
4.9 5.33116086607786E-07 7.13576808234405E-06 0.21718003784227 -0.68955668978682 0.214320194039326 -0.688835381909146 -3.56011293764678E-06 5.93873529674458E-06
4.95 1.59724108161542E-06 6.27803341462914E-06 0.124595209898071 -0.722080231307171 0.125342347761118 -0.722477422237439 -2.65326263291066E-06 5.62135748907682E-06
5 2.45218974861245E-06 5.18879198675375E-06 0.0207992732742928 -0.722009293629172 0.017139486155568 -0.722758697921236 -1.87960296147883E-06 5.05742568894492E-06
5.05 2.78897056635598E-06 4.12220626014759E-06 -0.081309852980363 -0.724765767843601 -0.0835880072052734 -0.722396617854067 -1.30462615342481E-06 4.390737131371E-06
5.1 2.65723657302092E-06 2.72485012343798E-06 -0.190799662351156 -0.70046523515898 -0.185704899635425 -0.701173106288363 -1.06085816167855E-06 3.36563028854923E-06
5.15 2.15755249502764E-06 1.12226331455679E-06 -0.280539283181525 -0.679768853935185 -0.282237732737584 -0.681893599158945 -1.10366640621159E-06 2.46570963026874E-06
5.2 1.55938258455069E-06 6.36396103067893E-10 -0.374513374012744 -0.634839109245515 -0.37798865386593 -0.631111732420129 -1.60296864654303E-06 1.76236465715811E-06
5.25 4.55447477762255E-07 -8.87192736219138E-07 -0.463715015401763 -0.566212119346835 -0.457565065443333 -0.569868297411667 -2.18152341490987E-06 7.89046314990444E-07
5.3 -9.88591848641288E-07 -1.2186278266969E-06 -0.528996243700377 -0.491493388884758 -0.532750915852853 -0.492387504233525 -2.70749772302766E-06 3.54614050765053E-07
5.35 -2.53381815543263E-06 -9.39971186366901E-07 -0.587661662726147 -0.417041617610207 -0.585972178572314 -0.414761042876283 -3.79400971872767E-06 6.85851151344079E-07
5.4 -3.92222232029241E-06 -8.98831713837468E-07 -0.641746600750495 -0.325249126240709 -0.642196157871835 -0.328563644545594 -5.05516294724512E-06 6.57213326706023E-07
5.45 -5.37693895909187E-06 -1.44348778311422E-07 -0.682318551712709 -0.229345355146606 -0.68084877463856 -0.227101128652768 -6.08831666523679E-06 1.39509339500981E-06
5.5 -6.67068981022203E-06 1.10396339105969E-06 -0.706084012547449 -0.130596360036034 -0.708131270760833 -0.137187922120952 -6.9722142838556E-06 2.19235629079765E-06
5.55 -7.18492614577213E-06 2.42729958991468E-06 -0.720751022718171 -0.0480167628625199 -0.719772891202003 -0.0376894835048303 -7.33552574802924E-06 3.0954730717291E-06
5.6 -7.80405470124346E-06 4.52520055688143E-06 -0.729564142024051 0.0864115284890824 -0.729092524408273 0.0714523681915549 -8.10159109263112E-06 4.87417189553261E-06
5.65 -7.36222610008685E-06 5.45163771945642E-06 -0.698257432954921 0.169252184327689 -0.702365653470269 0.180463676586639 -7.83057120553794E-06 5.41198317116747E-06
5.7 -6.21964053663875E-06 6.85808724937208E-06 -0.683767266967909 0.252997147023541 -0.675858074674828 0.251318154531131 -6.78152172710522E-06 6.54140240634989E-06
5.75 -5.1821451830106E-06 9.4246727330449E-06 -0.616977561630909 0.375744992446616 -0.625269250621317 0.371153204588109 -5.87310164531485E-06 9.04784138721496E-06
5.8 -4.61319292473228E-06 9.8601797995777E-06 -0.561399181645372 0.43270958098386 -0.552315920466774 0.439715259839962 -5.38178971161082E-06 9.33446004990112E-06
