# GHZ S RI R 50
0.5 5.29904407607636E-06 -3.40111290682917E-06 0.107517791019386 -0.766794229976895 0.107853002627286 -0.766308733199111 5.42531920506065E-06 -1.16966775316754E-06
0.55 4.78593911137616E-06 -4.30807634865029E-06 0.00135356819686343 -0.778520939661644 0.00243153115536285 -0.778830537176799 5.44484949435703E-06 -1.69346417239929E-06
0.6 4.0722703792602E-06 -5.141500685228E-06 -0.108000027487045 -0.749655426656099 -0.108955541738022 -0.749524673596214 5.31392160275253E-06 -2.33019968672215E-06
0.65 3.26342507439653E-06 -5.88855899955159E-06 -0.219474850903459 -0.761953837134174 -0.218699741121807 -0.761812868383385 5.07443867810027E-06 -2.93545480714659E-06
0.7 2.3856510005028E-06 -6.45324033287154E-06 -0.319611151162242 -0.70322893460155 -0.319765535281693 -0.703420776452404 4.80083078018794E-06 -3.51027605170875E-06
0.75 1.3757186692053E-06 -6.72375110308227E-06 -0.424519910741426 -0.674813278828416 -0.424115358641277 -0.674735519631051 4.41609398054435E-06 -4.01107735841632E-06
0.8 2.25284220486033E-07 -6.8057754896999E-06 -0.520535479031206 -0.606870975273416 -0.520950232444519 -0.606582454565985 3.86513051877941E-06 -4.55900026102215E-06
0.85 -8.17867987391608E-07 -6.7526717704328E-06 -0.600098556073298 -0.53127054773703 -0.599202157063564 -0.531577141574552 3.32887487806316E-06 -5.02870301149313E-06
0.9 -1.71490365000486E-06 -6.57091704339661E-06 -0.665218527954259 -0.438377135625198 -0.665681720408086 -0.438946602333462 2.77758614717888E-06 -5.41236500882932E-06
0.95 -2.47811228321075E-06 -6.09726863708661E-06 -0.724996213121475 -0.341186099771654 -0.724779158549177 -0.34031987340838 2.17535744377792E-06 -5.61572891909857E-06
1 -3.10991219220093E-06 -5.51076598849924E-06 -0.753389055940001 -0.234931081397517 -0.753263389099131 -0.236159430263044 1.51745115242633E-06 -5.71900893555868E-06
1.05 -3.56241810575345E-06 -4.79189295047375E-06 -0.772239585593529 -0.122417047273451 -0.772640702499184 -0.121142477760901 7.59757952113699E-07 -5.63166710594652E-06
1.1 -3.84895191562587E-06 -3.98857722063896E-06 -0.771776806239175 -0.0158814090200878 -0.771213104322707 -0.016296082831663 8.44851182161687E-08 -5.40731626641165E-06
1.15 -3.97616042556132E-06 -3.2069131004441E-06 -0.769791152115086 0.097635813455135 -0.76981770657769 0.0978919344869864 -5.34035325423329E-07 -5.05950458288161E-06
1.2 -3.99248045007111E-06 -2.53790523262789E-06 -0.722760641799946 0.194376924144736 -0.722470344221659 0.194068281111132 -1.11983086722951E-06 -4.70439555736973E-06
1.25 -3.82619721940728E-06 -1.98605081631866E-06 -0.697775368104982 0.300371110812585 -0.698349648028259 0.299633275065152 -1.63591982254633E-06 -4.20632368283755E-06
1.3 -3.54595665988743E-06 -1.54098366610422E-06 -0.646771008421661 0.392888016030611 -0.646123487223171 0.393813588045285 -1.99532805728782E-06 -3.64184033941632E-06
1.35 -3.22565143014554E-06 -1.23978446159E-06 -0.584715985709549 0.479958880177909 -0.585293383963584 0.478452986016549 -2.21447459091316E-06 -3.05499827957398E-06
1.4 -2.85693767016363E-06 -1.09772670924962E-06 -0.508421757975772 0.555764092141281 -0.508750261564253 0.55679144907565 -2.30953802657588E-06 -2.46042047154546E-06
1.45 -2.46695413820363E-06 -1.07360022587554E-06 -0.424998224376784 0.615874293651176 -0.423444135475582 0.615816434960873 -2.20458923811217E-06 -1.84687805964552E-06
1.5 -2.08129809974448E-06 -1.14811513847697E-06 -0.332238553296855 0.674672899428519 -0.334056323047852 0.674283000456525 -1.87183892902141E-06 -1.29140325661662E-06
1.55 -1.88487797806648E-06 -1.33056283015873E-06 -0.230660883497624 0.696468813203711 -0.229350237090325 0.696804064011188 -1.53654303551837E-06 -8.79103434642364E-07
1.6 -1.69151255768321E-06 -1.64895887159141E-06 -0.131902534167669 0.733820299700462 -0.133770105894484 0.733431301399468 -9.67208939578207E-07 -5.79657854945484E-07
1.65 -1.72823968389804E-06 -1.94433151622865E-06 -0.0264545313597955 0.74225977375191 -0.0247952800259782 0.742841286129761 -4.30585603335736E-07 -3.94678720987084E-07
1.7 -1.88561336911892E-06 -2.30993400637335E-06 0.0765910551060117 0.73974086123438 0.0756801163233541 0.739045702875721 1.68758104397982E-07 -4.20318412872908E-07
1.75 -2.17853942429326E-06 -2.66108323391058E-06 0.182132213668153 0.725309495778841 0.182984250835775 0.726159054595995 7.56745677225843E-07 -6.26185481147559E-07
1.8 -2.49723245057404E-06 -2.91135660804375E-06 0.277114890822048 0.685498730794982 0.277822411842148 0.683909187988817 1.22937584977093E-06 -9.52840529784496E-07
1.85 -2.95147784680827E-06 -3.02865148090697E-06 0.364874182911783 0.624622088081501 0.363824715665233 0.625777634536367 1.56165946838611E-06 -1.4826897830632E-06
1.9 -3.44325647098789E-06 -3.08705850103298E-06 0.444365331800303 0.564776734026256 0.446440803180953 0.563142582342949 1.7961502191632E-06 -2.09179156437729E-06
1.95 -4.01578668957902E-06 -3.04384013456686E-06 0.517440342118448 0.49547539088499 0.516344358460572 0.495434784094011 1.85506635617166E-06 -2.7670502561392E-06
2 -4.50513286643136E-06 -2.80229245811354E-06 0.576916885867573 0.409962578289299 0.577534906720559 0.409995854349536 1.71078828853836E-06 -3.42792639597177E-06
2.05 -5.0149851399381E-06 -2.37859407482655E-06 0.62162510602602 0.328558382942662 0.621284890714404 0.327471628926385 1.4044413466571E-06 -4.06101323930371E-06
2.1 -5.39183062790367E-06 -1.77301368528278E-06 0.669268356930432 0.231380830886759 0.668778511629353 0.231093025925254 8.5835692168235E-07 -4.54068619538941E-06
2.15 -5.81862613889224E-06 -1.08423511186458E-06 0.695167742820203 0.143592704320464 0.694355026571818 0.14385592232135 1.58052507730817E-07 -5.03592964279685E-06
2.2 -6.02197590702587E-06 -3.58262721755977E-07 0.712227381803906 0.0390282989319318 0.712053419691834 0.038914412716566 -6.59532636948316E-07 -5.36197657960196E-06
2.25 -6.17113301144935E-06 2.55505964313947E-07 0.695121193176984 -0.0590828533052969 0.693706602711659 -0.0590421006977205 -1.35211544484929E-06 -5.54801637373215E-06
2.3 -5.93850902257461E-06 9.08222091891627E-07 0.697624408041773 -0.157264392086092 0.697823465199181 -0.154138212012952 -2.12426190776938E-06 -5.38598992589105E-06
2.35 -5.58471521567573E-06 1.5253000376975E-06 0.657034136564737 -0.253151242933497 0.656611915431531 -0.254673031140157 -2.84180558504624E-06 -4.99521443433612E-06
2.4 -5.08008139021414E-06 2.15803332763885E-06 0.611282836924564 -0.335806867844316 0.610489811845617 -0.333335642896543 -3.46659099476705E-06 -4.47082404540819E-06
2.45 -4.5277461412937E-06 2.68644008308393E-06 0.551059926138832 -0.418626007020771 0.55225691573001 -0.417879385534095 -3.98727614416157E-06 -3.86259907650276E-06
2.5 -3.84024036008164E-06 2.99909441745337E-06 0.480579233170092 -0.479386892871436 0.480542664817948 -0.477889018638 -4.30280133206264E-06 -3.20278359684198E-06
2.55 -3.10005512367119E-06 3.15160320801969E-06 0.407742490597879 -0.547770649253442 0.410090913706332 -0.546947271578655 -4.45983560602855E-06 -2.47494444483104E-06
2.6 -2.36579544208708E-06 3.11726610272528E-06 0.320791225426667 -0.582129489643018 0.320528102477027 -0.581386189800476 -4.37016032403847E-06 -1.77567240678004E-06
2.65 -1.68939123733965E-06 2.86819481012012E-06 0.234365734814226 -0.624675472664877 0.238297877014604 -0.623625965838222 -4.19836166048138E-06 -1.19373766799913E-06
2.7 -1.13987027340834E-06 2.43425752064156E-06 0.14715667776332 -0.648666544570332 0.145792454894378 -0.649882770597859 -3.8132147389047E-06 -7.84648110811464E-07
2.75 -6.82301475302524E-07 1.96626596858106E-06 0.0517059139055626 -0.647865986345636 0.0524689110451703 -0.646686644152625 -3.33832182465981E-06 -5.31320035383572E-07
2.8 -3.73621081043348E-07 1.35241242969739E-06 -0.0405094044221674 -0.658367473502396 -0.0394650970732643 -0.659525888703132 -2.77263639971057E-06 -3.79292077428465E-07
2.85 -2.82460874812778E-07 6.6345000851609E-07 -0.129877490443285 -0.640848691476225 -0.130769538961594 -0.64048029000442 -2.30689344721424E-06 -4.52619050637509E-07
2.9 -3.42225539958665E-07 -9.71706138706552E-08 -0.215658854281417 -0.602202550695305 -0.214449335876709 -0.602969000941009 -1.91541084887812E-06 -6.75131412541291E-07
2.95 -6.05170267610695E-07 -7.50254436974551E-07 -0.305087721381102 -0.584889810266433 -0.306787677703524 -0.584030063914579 -1.65202771502176E-06 -1.07517000292977E-06
3 -1.0904435094034E-06 -1.27498423715746E-06 -0.383017844199544 -0.527155629620046 -0.380629900093288 -0.52797674810193 -1.54860627720541E-06 -1.50561418490927E-06
3.05 -1.80708209000034E-06 -1.71118426833582E-06 -0.449951879611405 -0.472155073982047 -0.452241282440681 -0.4721124903055 -1.68636482031617E-06 -2.07527354996877E-06
3.1 -2.36392868018474E-06 -2.0387019872458E-06 -0.501965972856235 -0.394687528203237 -0.500234018469529 -0.392901332271902 -1.94608514104599E-06 -2.54812999668384E-06
3.15 -3.06161679904589E-06 -2.12130620142402E-06 -0.563041259645987 -0.318441738835485 -0.562766096015763 -0.322780651783673 -2.23954859737403E-06 -3.00434114976978E-06
3.2 -3.82836096615771E-06 -1.67967559016615E-06 -0.591130624818207 -0.247511756794261 -0.59190694936104 -0.243349588068339 -2.90321073792448E-06 -2.92387239807075E-06
3.25 -4.72641486253588E-06 -1.3019391476563E-06 -0.597471725267848 -0.139479708883846 -0.596450906898435 -0.14454284699857 -3.6889053667721E-06 -3.05398004580908E-06
3.3 -5.77499765049303E-06 -6.13754543934299E-07 -0.646288589454904 -0.0720031024936855 -0.647714906452649 -0.066931821673631 -4.81082927007392E-06 -3.09497809698227E-06
3.35 -6.04378308015766E-06 -3.18381899297054E-07 -0.608813576025911 0.0240543736650159 -0.606915510527554 0.0176543846001826 -5.20791215411704E-06 -3.07465584809097E-06
3.4 -6.30510146221296E-06 4.07123800335966E-07 -0.61362235787813 0.115646219554717 -0.616814023422891 0.118926962456438 -5.70266062677765E-06 -2.61807699947882E-06
3.45 -5.85287839137292E-06 1.31551559785508E-06 -0.596366265853606 0.189545174750215 -0.592249920457011 0.187245892373215 -5.82254351046E-06 -1.47413379101084E-06
3.5 -5.75367130997245E-06 2.38072953730574E-06 -0.54378594230882 0.281599125931376 -0.551048975253298 0.278015673429757 -6.23258059073447E-06 -5.30924055586108E-07
3.55 -5.18378567074295E-06 3.46349386706545E-06 -0.516967578641534 0.341414098502662 -0.511703424188665 0.346271276836445 -6.48341965029258E-06 6.11081680301415E-07
3.6 -4.75393545845965E-06 4.20185476798045E-06 -0.445751408032771 0.418360726010871 -0.452175076144406 0.412867987234399 -6.4464238235009E-06 1.25652875016849E-06
3.65 -4.09243706465964E-06 4.787636167651E-06 -0.405621538600564 0.484775964026992 -0.401590630665094 0.490146065236574 -6.04280727279962E-06 2.11188753909861E-06
3.7 -3.44752739594626E-06 4.69787603284719E-06 -0.314539126790381 0.513621607414028 -0.317708739379508 0.50978063069756 -5.61719970120343E-06 2.39949615127843E-06
3.75 -2.42162859352957E-06 4.88203492293941E-06 -0.243193846770612 0.569853200732107 -0.241014807340035 0.573043045747803 -4.8528314128764E-06 2.77772756853511E-06
3.8 -1.63255399426788E-06 4.47607077772458E-06 -0.167254914920935 0.59804926608592 -0.169676364761429 0.595110910677942 -3.88798420994736E-06 2.91209199909618E-06
3.85 -7.49207918938394E-07 3.94435476254355E-06 -0.0685319753119657 0.591907858130158 -0.0717526551938536 0.594389286728851 -2.83138283109155E-06 3.13811161063465E-06
3.9 -1.68333840329269E-07 3.20261389121449E-06 0.00585097650329428 0.604172204153212 0.00774297450372502 0.603047683875236 -2.06579831910088E-06 2.99830245785845E-06
3.95 3.3564944689363E-07 2.65428086667557E-06 0.0953705214240567 0.578533961935492 0.093828225673443 0.580849784603104 -1.27430541464753E-06 2.51590006959736E-06
4 -7.67917964368605E-09 2.0552058595187E-06 0.174128674988018 0.563927235384975 0.177109540105202 0.56374540696512 -1.2335902061868E-06 1.68612440401057E-06
4.05 -2.5665147729947E-07 9.39249937450092E-07 0.240698756985597 0.512654253513014 0.241633965995609 0.511980288234797 -9.97614531169229E-07 8.55882047948197E-07
4.1 -6.55289996261197E-07 1.82956808564207E-07 0.323070502403192 0.491127053586093 0.323222972454346 0.490642622142278 -1.00310167979124E-06 -1.53442171517481E-07
4.15 -1.06832520928788E-06 -3.10349166262776E-07 0.372659302261208 0.422738591083725 0.373617264487866 0.422123033656667 -1.35483073488905E-06 -5.86361227231134E-07
4.2 -2.12533671007678E-06 -3.75049436741345E-07 0.423395499728551 0.366824865041418 0.421238477285902 0.366776191339808 -2.08766206077516E-06 -1.14689891481333E-06
4.25 -3.24587468408748E-06 -5.0549649573464E-07 0.485197856652191 0.305213775023436 0.485921057684169 0.306508293896165 -3.03316282217094E-06 -1.75840485918346E-06
4.3 -4.30572875413675E-06 -4.21082088196589E-07 0.50880386838851 0.232044664560682 0.507715297082293 0.230761206332176 -3.79323190126837E-06 -2.05268855937768E-06
4.35 -4.94427446181945E-06 -6.57609306503494E-08 0.541634953187632 0.162939204464918 0.541512323117268 0.167834823137997 -4.66720174067932E-06 -1.99592202698402E-06
4.4 -5.78703260790882E-06 9.08943340808437E-07 0.572209062729008 0.0811503154504028 0.572734685867251 0.0761787211978912 -5.69823413832742E-06 -1.46218368640879E-06
4.45 -6.3147746829796E-06 1.99996667777241E-06 0.579399008234259 0.00399660956909868 0.578610516478646 0.0100886383403817 -6.58952809387743E-06 -7.7443748889113E-07
4.5 -6.55134432769336E-06 2.95003534897465E-06 0.578601192166992 -0.0765562929307052 0.581138613744175 -0.0795419244719223 -7.11526198568964E-06 -9.71706138706547E-08
4.55 -6.40952699165859E-06 4.17941119874559E-06 0.563803859471024 -0.156280598202866 0.561989442874046 -0.156665197842617 -7.43709456607887E-06 9.23453171958383E-07
4.6 -5.99772214443117E-06 5.45097303908211E-06 0.530331772352424 -0.239375577662238 0.532759355681285 -0.239073811822328 -7.58545971090744E-06 2.11334417906786E-06
4.65 -5.20953849971377E-06 6.51663952687273E-06 0.485116573227257 -0.29510227547473 0.484110511874083 -0.297184068375323 -7.19554688962556E-06 3.31832484488785E-06
4.7 -4.97525988097105E-06 7.09723076276939E-06 0.447461562850681 -0.36811797632385 0.44733958590243 -0.369925976489492 -7.29056789888141E-06 3.90967824599417E-06
4.75 -3.14258052549175E-06 7.38831834031263E-06 0.3677482997004 -0.423538264183303 0.36655104970555 -0.424203413664009 -6.10752168541382E-06 4.80425317700889E-06
4.8 -1.79366120329342E-06 7.56778204137778E-06 0.311538204299635 -0.449237564246082 0.312560292104057 -0.449862921168844 -5.13933693847757E-06 5.27271141954498E-06
4.85 -6.66462283403945E-07 8.07719590868019E-06 0.24030941303689 -0.499184625338235 0.236533062245896 -0.501822926893391 -4.65532234675538E-06 6.10842678209373E-06
4.9 5.33116086607786E-07 7.13576808234405E-06 0.162543611313883 -0.516083502319852 0.160403224268451 -0.515543655340954 -3.56011293764678E-06 5.93873529674458E-06
4.95 1.59724108161542E-06 6.27803341462914E-06 0.0914431853723031 -0.529950681885077 0.0919915264053583 -0.530242189109908 -2.65326263291066E-06 5.62135748907682E-06
5 2.45218974861245E-06 5.18879198675375E-06 0.0152914321131129 -0.530814512265333 0.0126007906884631 -0.531365467325458 -1.87960296147883E-06 5.05742568894492E-06
5.05 2.78897056635598E-06 4.12220626014759E-06 -0.0586939281121363 -0.523175830685897 -0.060338425247527 -0.521465647798146 -1.30462615342481E-06 4.390737131371E-06
5.1 2.65723657302092E-06 2.72485012343798E-06 -0.139212297782086 -0.51107729280717 -0.135495029021903 -0.511593773629205 -1.06085816167855E-06 3.36563028854923E-06
5.15 2.15755249502764E-06 1.12226331455679E-06 -0.195611184529509 -0.47398135910431 -0.196795459778794 -0.475462876862998 -1.10366640621159E-06 2.46570963026874E-06
5.2 1.55938258455069E-06 6.36396103067893E-10 -0.273979034652886 -0.464422950901257 -0.27652141066772 -0.461696150804734 -1.60296864654303E-06 1.76236465715811E-06
5.25 4.55447477762255E-07 -8.87192736219138E-07 -0.32625047967012 -0.398363152790928 -0.321923632237443 -0.400935486676596 -2.18152341490987E-06 7.89046314990444E-07
5.3 -9.88591848641288E-07 -1.2186278266969E-06 -0.389137055343493 -0.361549429412844 -0.3918990448332 -0.36220715320219 -2.70749772302766E-06 3.54614050765053E-07
5.35 -2.53381815543263E-06 -9.39971186366901E-07 -0.427983828700632 -0.30372419974501 -0.426753406601405 -0.30206329659585 -3.79400971872767E-06 6.85851151344079E-07
5.4 -3.92222232029241E-06 -8.98831713837468E-07 -0.472240877221648 -0.239340469449878 -0.472571691984196 -0.241779517868733 -5.05516294724512E-06 6.57213326706023E-07
5.45 -5.37693895909187E-06 -1.44348778311422E-07 -0.499789559508204 -0.167992521581383 -0.498712966713504 -0.16634865455186 -6.08831666523679E-06 1.39509339500981E-06
5.5 -6.67068981022203E-06 1.10396339105969E-06 -0.49131087604565 -0.0908722063061373 -0.492735409399238 -0.0954587796952813 -6.9722142838556E-06 2.19235629079765E-06
5.55 -7.18492614577213E-06 2.42729958991468E-06 -0.514736858074032 -0.034292004966608 -0.514038308467377 -0.026916599089302 -7.33552574802924E-06 3.0954730717291E-06
5.6 -7.80405470124346E-06 4.52520055688143E-06 -0.4868705216946 0.0576662469172181 -0.486555790334589 0.0476833355340402 -8.10159109263112E-06 4.87417189553261E-06
5.65 -7.36222610008685E-06 5.45163771945642E-06 -0.473386171767201 0.114745135276338 -0.476171354839733 0.122346007318333 -7.83057120553794E-06 5.41198317116747E-06
5.7 -6.21964053663875E-06 6.85808724937208E-06 -0.462070567962424 0.170968311976138 -0.456725759646001 0.169833696366337 -6.78152172710522E-06 6.54140240634989E-06
5.75 -5.1821451830106E-06 9.4246727330449E-06 -0.424540737296508 0.258549201865765 -0.430246228024754 0.255389603974057 -5.87310164531485E-06 9.04784138721496E-06
5.8 -4.61319292473228E-06 9.8601797995777E-06 -0.384832529358062 0.2966173232377 -0.378606060762338 0.301419633611866 -5.38178971161082E-06 9.33446004990112E-06
